EC-Lab ASCII FILE
Nb header lines : 60                          

Potentio Electrochemical Impedance Spectroscopy

Run on channel : 3 (SN 20921)
User : 
CE vs. WE compliance from -10 V to 10 V
Electrode connection : standard
Ewe ctrl range : min = -10.00 V, max = 10.00 V
Acquisition started on : 02/20/2020 14:52:34
Technique started on : 02/20/2020 14:52:35
Saved on :
	File : DE_65_3_60.mpr
	Directory : P:\Chemistry\Data\VMP3\Kyler\DOE\DE_65\60C\
	Host : 10.0.4.64
Device : VMP3 (SN 1432)
Address : USB
EC-Lab for windows v11.33 (software)
Internet server v11.32 (firmware)
Command interpretor v11.33 (firmware)
Electrode material : 
Initial state : 
Electrolyte : 
Comments : 
Electrode surface area : 0.001 cm²
Characteristic mass : 0.001 g
Equivalent Weight : 0.000 g/eq.
Density : 0.000 g/cm3
Record Analogic IN 1
Cycle Definition : Charge/Discharge alternance
Mode                Single sine         
E (V)               0.0000              
vs.                 Eoc                 
tE (h:m:s)          0:00:0.0000         
record              0                   
dI                  1.000               
unit dI             mA                  
dt (s)              0.000               
fi                  1.000               
unit fi             MHz                 
ff                  1.000               
unit ff             Hz                  
Nd                  20                  
Points              per decade          
spacing             Logarithmic         
Va (mV)             128.0               
pw                  0.50                
Na                  3                   
corr                0                   
E range min (V)     -10.000             
E range max (V)     10.000              
I Range             Auto                
Bandwidth           5                   
nc cycles           0                   
goto Ns'            0                   
nr cycles           0                   
inc. cycle          1                   

freq/Hz	Re(Z)/Ohm	-Im(Z)/Ohm	|Z|/Ohm	Phase(Z)/deg	time/s	<Ewe>/V	<I>/mA	Cs/µF	Cp/µF	cycle number	I Range	|Ewe|/V	|I|/A	(Q-Qo)/mA.h	Analog IN 1/V	Re(Y)/Ohm-1	Im(Y)/Ohm-1	|Y|/Ohm-1	Phase(Y)/deg	dq/mA.h	
1.0000186E+006	8.6024040E+001	3.1240919E+001	9.1521202E+001	-1.9959249E+001	1.951477879338199E+000	-3.0229788E-003	-5.4580078E-004	5.0943438E-003	5.9359800E-004	1.000000000000000E+000	11	3.1259842E-003	3.4155848E-005	-1.344739028334314E-007	-5.5848894E-004	1.0270141E-002	3.7297558E-003	1.0926430E-002	1.9959249E+001	-1.344739028334314E-007
8.9124669E+005	8.8027840E+001	2.7968288E+001	9.2364090E+001	-1.7626143E+001	2.547486494324403E+000	-2.6103305E-003	-5.4934155E-004	6.3849324E-003	5.8543921E-004	1.000000000000000E+000	11	4.4481540E-003	4.8158912E-005	-2.477334062872008E-007	-3.1798857E-004	1.0318432E-002	3.2783819E-003	1.0826718E-002	1.7626143E+001	-1.132595034537695E-007
7.9433269E+005	9.0635056E+001	2.5539671E+001	9.4164688E+001	-1.5737082E+001	3.143487669265596E+000	-2.2587406E-003	-4.9696624E-004	7.8451708E-003	5.7710765E-004	1.000000000000000E+000	11	6.2592123E-003	6.6470908E-005	-2.473847815656174E-007	-3.9815533E-004	1.0221628E-002	2.8803095E-003	1.0619693E-002	1.5737082E+001	3.486247215834085E-010
7.0794981E+005	9.3195999E+001	2.3519794E+001	9.6118027E+001	-1.4163929E+001	3.739483457611641E+000	-1.9539509E-003	-4.3005214E-004	9.5583769E-003	5.7232339E-004	1.000000000000000E+000	11	8.5999742E-003	8.9473062E-005	-2.751310930580075E-007	-1.5765498E-004	1.0087593E-002	2.5457973E-003	1.0403875E-002	1.4163929E+001	-2.774631149239008E-008
6.3095681E+005	9.5637863E+001	2.1884970E+001	9.8109901E+001	-1.2889170E+001	4.335488605924184E+000	-1.6873323E-003	-4.1551350E-004	1.1525893E-002	5.7350972E-004	1.000000000000000E+000	11	1.1494171E-002	1.1715607E-004	-2.200998803204534E-007	-2.3782176E-004	9.9358307E-003	2.2736324E-003	1.0192651E-002	1.2889170E+001	5.503121273755416E-008
5.6234225E+005	9.7741272E+001	2.0498676E+001	9.9867676E+001	-1.1844624E+001	4.931488740869099E+000	-1.4656689E-003	-2.8000923E-004	1.3806818E-002	5.8169506E-004	1.000000000000000E+000	11	1.4948891E-002	1.4968698E-004	-3.072433165074876E-007	2.6785929E-006	9.8000458E-003	2.0553032E-003	1.0013250E-002	1.1844624E+001	-8.714343618703421E-008
5.0120619E+005	9.9647438E+001	1.9253128E+001	1.0149037E+002	-1.0935510E+001	5.528487382543972E+000	-1.3103571E-003	-3.1262508E-004	1.6493104E-002	5.9354730E-004	1.000000000000000E+000	11	1.9000981E-002	1.8721954E-004	-3.153695662513201E-007	-7.7488192E-005	9.6742315E-003	1.8691821E-003	9.8531516E-003	1.0935510E+001	-8.126249743832524E-009
4.4668572E+005	1.0131199E+002	1.8045546E+001	1.0290656E+002	-1.0099524E+001	6.123481010814430E+000	-1.1823130E-003	-3.2436647E-004	1.9744586E-002	6.0715829E-004	1.000000000000000E+000	11	2.3658948E-002	2.2990709E-004	-2.284109846938615E-007	-6.3865574E-004	9.5669758E-003	1.7040560E-003	9.7175529E-003	1.0099524E+001	8.695858155745861E-008
3.9810347E+005	1.0268753E+002	1.6935390E+001	1.0407467E+002	-9.3650112E+000	6.719478719140170E+000	-1.1524919E-003	-4.0115759E-004	2.3606358E-002	6.2507094E-004	1.000000000000000E+000	11	2.8962091E-002	2.7828183E-004	-8.476038640013333E-007	2.6785929E-006	9.4804214E-003	1.5635261E-003	9.6084857E-003	9.3650112E+000	-6.191928793074718E-007
3.5480997E+005	1.0390154E+002	1.5809902E+001	1.0509749E+002	-8.6518946E+000	7.315482347417856E+000	-1.1331079E-003	-3.8698901E-004	2.8372338E-002	6.4205000E-004	1.000000000000000E+000	11	3.4966588E-002	3.3270623E-004	-1.046334711709076E-006	-1.5765498E-004	9.4066998E-003	1.4313456E-003	9.5149754E-003	8.6518946E+000	-1.987308477077426E-007
3.1622997E+005	1.0496191E+002	1.4752851E+001	1.0599363E+002	-8.0007582E+000	7.911483815725660E+000	-1.1325858E-003	-4.5390028E-004	3.4114666E-002	6.6089659E-004	1.000000000000000E+000	11	4.1766856E-002	3.9405061E-004	-1.276172634660826E-006	-7.7488192E-005	9.3426956E-003	1.3131563E-003	9.4345296E-003	8.0007582E+000	-2.298379229517500E-007
2.8183453E+005	1.0587785E+002	1.3714617E+001	1.0676240E+002	-7.3805666E+000	8.506491364008980E+000	-1.1354747E-003	-3.4560743E-004	4.1175820E-002	6.7947421E-004	1.000000000000000E+000	11	4.9433034E-002	4.6301915E-004	-1.033998626387781E-006	-7.7488192E-005	9.2889890E-003	1.2032255E-003	9.3665933E-003	7.3805666E+000	2.421740082730444E-007
2.5118764E+005	1.0664843E+002	1.2775212E+001	1.0741087E+002	-6.8308039E+000	9.101480618963251E+000	-1.1320265E-003	-3.2417243E-004	4.9596809E-002	7.0160645E-004	1.000000000000000E+000	11	5.8034439E-002	5.4030324E-004	-1.715803674707179E-006	-3.9815533E-004	9.2439596E-003	1.1073162E-003	9.3100453E-003	6.8308039E+000	-6.818050483193980E-007
2.2387173E+005	1.0731792E+002	1.1828075E+001	1.0796777E+002	-6.2894859E+000	9.697483793919673E+000	-1.1232847E-003	-3.5063789E-004	6.0104471E-002	7.2135101E-004	1.000000000000000E+000	11	6.7577288E-002	6.2590238E-004	-2.905517936480060E-006	-1.5765498E-004	9.2062755E-003	1.0146723E-003	9.2620226E-003	6.2894859E+000	-1.189714261772881E-006
1.9954350E+005	1.0791624E+002	1.0990241E+001	1.0847442E+002	-5.8149815E+000	1.029447515562060E+001	-1.1124556E-003	-3.8231807E-004	7.2573043E-002	7.4496371E-004	1.000000000000000E+000	11	7.8056186E-002	7.1958150E-004	-3.382323090074755E-006	-7.7488192E-005	9.1713257E-003	9.3401223E-004	9.2187636E-003	5.8149815E+000	-4.768051535946948E-007
1.7783180E+005	1.0842948E+002	1.0222780E+001	1.0891032E+002	-5.3859515E+000	1.089048577056383E+001	-1.1076654E-003	-3.6218431E-004	8.7547086E-002	7.7133265E-004	1.000000000000000E+000	11	8.9423031E-002	8.2107034E-004	-2.817674600141294E-006	8.2845378E-005	9.1413287E-003	8.6184859E-004	9.1818664E-003	5.3859515E+000	5.646484899334609E-007
1.5848613E+005	1.0888066E+002	9.5142612E+000	1.0929556E+002	-4.9939613E+000	1.148648465223960E+001	-1.0831374E-003	-3.6386095E-004	1.0554893E-001	7.9983223E-004	1.000000000000000E+000	11	1.0162908E-001	9.2985551E-004	-4.582935752745269E-006	1.6301216E-004	9.1147693E-003	7.9647102E-004	9.1495020E-003	4.9939613E+000	-1.765261152603974E-006
1.4125594E+005	1.0927939E+002	8.8724966E+000	1.0963898E+002	-4.6417170E+000	1.208349417391582E+001	-1.0816462E-003	-2.9098353E-004	1.2698942E-001	8.3162839E-004	1.000000000000000E+000	11	1.1471064E-001	1.0462578E-003	-3.912498970849508E-006	-7.1882247E-004	9.0909302E-003	7.3810120E-004	9.1208443E-003	4.6417170E+000	6.704367818957609E-007
1.2590930E+005	1.0964188E+002	8.2877235E+000	1.0995467E+002	-4.3227119E+000	1.254349275576533E+001	-1.0731092E-003	-2.7066487E-004	1.5252011E-001	8.6650340E-004	1.000000000000000E+000	11	1.2874603E-001	1.1709010E-003	-4.895423208160032E-006	-4.7832212E-004	9.0687862E-003	6.8550074E-004	9.0946574E-003	4.3227119E+000	-9.829242373105241E-007
1.1220494E+005	1.0996440E+002	7.7662516E+000	1.1023830E+002	-4.0398149E+000	1.313849262401345E+001	-9.9706568E-004	-2.1120654E-004	1.8264034E-001	9.0647233E-004	1.000000000000000E+000	11	1.2918720E-001	1.1718903E-003	-4.651076968465431E-006	-2.3782176E-004	9.0487180E-003	6.3906703E-004	9.0712570E-003	4.0398149E+000	2.443462396946010E-007
1.0000371E+005	1.1024826E+002	7.3034725E+000	1.1048991E+002	-3.7900608E+000	1.373449235901353E+001	-9.7570632E-004	-2.1176549E-004	2.1790873E-001	9.5211231E-004	1.000000000000000E+000	11	1.2969327E-001	1.1738020E-003	-5.068309742760499E-006	2.6785929E-006	9.0308059E-003	5.9825199E-004	9.0506002E-003	3.7900608E+000	-4.172327742950678E-007
8.9129305E+004	1.1050073E+002	6.8869591E+000	1.1071514E+002	-3.5663469E+000	1.433047697399161E+001	-9.4340643E-004	-3.4260956E-004	2.5928184E-001	1.0032590E-003	1.000000000000000E+000	11	1.2959944E-001	1.1705665E-003	-8.128845862000162E-006	2.6785929E-006	9.0146968E-003	5.6184101E-004	9.0321880E-003	3.5663469E+000	-3.060536119239664E-006
7.9433273E+004	1.1072586E+002	6.5222945E+000	1.1091779E+002	-3.3711061E+000	1.492647692226456E+001	-9.0918678E-004	-2.3264129E-004	3.0719721E-001	1.0622229E-003	1.000000000000000E+000	11	1.2952799E-001	1.1677836E-003	-7.105846128827883E-006	-7.7488192E-005	9.0000853E-003	5.3014903E-004	9.0156859E-003	3.3711061E+000	1.022999733172280E-006
7.0794977E+004	1.1092221E+002	6.2171221E+000	1.1109631E+002	-3.2080367E+000	1.552247415060992E+001	-8.8076363E-004	-2.4755349E-004	3.6159986E-001	1.1324208E-003	1.000000000000000E+000	11	1.2941834E-001	1.1649203E-003	-5.763542818407182E-006	8.2845378E-005	8.9870933E-003	5.0372106E-004	9.0011992E-003	3.2080367E+000	1.342303310420700E-006
6.3093828E+004	1.1110666E+002	5.9649105E+000	1.1126666E+002	-3.0730510E+000	1.611848060556804E+001	-8.7062456E-004	-2.9489552E-004	4.2289186E-001	1.2153659E-003	1.000000000000000E+000	11	1.2948360E-001	1.1637232E-003	-5.004756533198411E-006	-7.7488192E-005	8.9744944E-003	4.8180783E-004	8.9874184E-003	3.0730510E+000	7.587862852087711E-007
5.6237012E+004	1.1126393E+002	5.7617593E+000	1.1141302E+002	-2.9643917E+000	1.671349231383647E+001	-8.5064443E-004	-1.5864658E-004	4.9118236E-001	1.3136545E-003	1.000000000000000E+000	11	1.2942469E-001	1.1616658E-003	-7.535293903457689E-006	1.6301216E-004	8.9636017E-003	4.6417661E-004	8.9756120E-003	2.9643917E+000	-2.530537370259278E-006
5.0122477E+004	1.1141187E+002	5.6132221E+000	1.1155318E+002	-2.8842731E+000	1.717348348235828E+001	-8.6318736E-004	-2.4605743E-004	5.6568593E-001	1.4323065E-003	1.000000000000000E+000	11	1.4064102E-001	1.2607531E-003	-7.581395284839042E-006	8.2845378E-005	8.9529790E-003	4.5107459E-004	8.9643346E-003	2.8842731E+000	-4.610138138135298E-008
4.4666715E+004	1.1154125E+002	5.5147853E+000	1.1167750E+002	-2.8304939E+000	1.776848103062366E+001	-8.1903418E-004	-2.2798148E-004	6.4611155E-001	1.5755543E-003	1.000000000000000E+000	11	1.3033235E-001	1.1670422E-003	-7.131429054228647E-006	8.2845378E-005	8.9434311E-003	4.4217813E-004	8.9543555E-003	2.8304939E+000	4.499662306103953E-007
3.9814063E+004	1.1166483E+002	5.4726157E+000	1.1179885E+002	-2.8057816E+000	1.822849734578631E+001	-8.1049738E-004	-1.7653794E-004	7.3044699E-001	1.7502655E-003	1.000000000000000E+000	11	1.4008248E-001	1.2529867E-003	-6.483961517990893E-006	-1.5765498E-004	8.9339130E-003	4.3784492E-004	8.9446362E-003	2.8057816E+000	6.474675362377538E-007
3.5480996E+004	1.1178124E+002	5.4841280E+000	1.1191569E+002	-2.8087506E+000	1.882347697406658E+001	-7.9174788E-004	-2.1437611E-004	8.1793118E-001	1.9640385E-003	1.000000000000000E+000	11	1.3023943E-001	1.1637281E-003	-4.915754400863483E-006	-3.9815533E-004	8.9245634E-003	4.3785028E-004	8.9352978E-003	2.8087506E+000	1.568207117127410E-006
3.1621143E+004	1.1189108E+002	5.5494018E+000	1.1202860E+002	-2.8393416E+000	1.928247712916345E+001	-8.0628513E-004	-2.1810229E-004	9.0697724E-001	2.2255168E-003	1.000000000000000E+000	11	1.3827167E-001	1.2342533E-003	-4.791952772114908E-006	2.4317895E-004	8.9153340E-003	4.4216905E-004	8.9262920E-003	2.8393416E+000	1.238016287485755E-007
2.8188096E+004	1.1199275E+002	5.6706386E+000	1.1213622E+002	-2.8986378E+000	1.987849641081993E+001	-7.7752699E-004	-1.6610138E-004	9.9568605E-001	2.5462117E-003	1.000000000000000E+000	11	1.2978806E-001	1.1574142E-003	-3.424254938265221E-006	-2.3782176E-004	8.9063151E-003	4.5096216E-004	8.9177247E-003	2.8986378E+000	1.367697833849686E-006
2.5116910E+004	1.1210316E+002	5.8496823E+000	1.1225568E+002	-2.9870560E+000	2.033848715267959E+001	-7.7737757E-004	-2.3580984E-004	1.0832324E+000	2.9415048E-003	1.000000000000000E+000	11	1.3606715E-001	1.2121182E-003	-4.193524592339802E-006	-7.9898926E-004	8.8961320E-003	4.6421128E-004	8.9082355E-003	2.9870560E+000	-7.692696540745802E-007
2.2389027E+004	1.1220096E+002	6.0859175E+000	1.1236589E+002	-3.1047509E+000	2.093448048763094E+001	-7.7066815E-004	-2.4028310E-004	1.1680431E+000	3.4264307E-003	1.000000000000000E+000	11	1.2933609E-001	1.1510262E-003	-3.566406308084374E-006	-7.1882247E-004	8.8864351E-003	4.8201112E-004	8.8994978E-003	3.1047509E+000	6.271182842554280E-007
1.9948783E+004	1.1231227E+002	6.3882627E+000	1.1249380E+002	-3.2554460E+000	2.139449234950007E+001	-7.5886986E-004	-1.2472361E-004	1.2488807E+000	4.0274421E-003	1.000000000000000E+000	11	1.3398948E-001	1.1910832E-003	-2.889296213330252E-006	4.0351250E-004	8.8750329E-003	5.0480722E-004	8.8893780E-003	3.2554460E+000	6.771100947541221E-007
1.7786895E+004	1.1242006E+002	6.7538323E+000	1.1262275E+002	-3.4380124E+000	2.185447738468065E+001	-7.6802116E-004	-2.5705728E-004	1.3248593E+000	4.7645075E-003	1.000000000000000E+000	11	1.3804457E-001	1.2257254E-003	-3.131139310510561E-006	-3.1798857E-004	8.8632200E-003	5.3247350E-004	8.8792006E-003	3.4380124E+000	-2.418430971803091E-007
1.5847686E+004	1.1252533E+002	7.1874714E+000	1.1275465E+002	-3.6547599E+000	2.245048170632799E+001	-7.5413613E-004	-2.1679948E-004	1.3972629E+000	5.6775571E-003	1.000000000000000E+000	11	1.2934743E-001	1.1471583E-003	-4.697618125521533E-007	-2.3782176E-004	8.8507775E-003	5.6533678E-004	8.8688144E-003	3.6547599E+000	2.661377497958407E-006
1.4121879E+004	1.1264783E+002	7.6951551E+000	1.1291035E+002	-3.9078960E+000	2.290947260809480E+001	-7.6006289E-004	-1.4559922E-004	1.4645705E+000	6.8026399E-003	1.000000000000000E+000	11	1.3208637E-001	1.1698339E-003	-1.156321138003275E-006	8.2845378E-005	8.8359909E-003	6.0360081E-004	8.8565834E-003	3.9078960E+000	-6.865593254511219E-007
1.2590932E+004	1.1276788E+002	8.2815657E+000	1.1307157E+002	-4.2002072E+000	2.336847612322890E+001	-7.5987645E-004	-2.3170894E-004	1.5263349E+000	8.1878118E-003	1.000000000000000E+000	11	1.3437608E-001	1.1884162E-003	-5.563541648738869E-007	-3.1798857E-004	8.8202022E-003	6.4774725E-004	8.8439556E-003	4.2002072E+000	5.999669731293882E-007
1.1217711E+004	1.1289718E+002	8.9673405E+000	1.1325275E+002	-4.5414271E+000	2.382749681171845E+001	-7.4977445E-004	-1.6871022E-004	1.5821668E+000	9.9193230E-003	1.000000000000000E+000	11	1.3628975E-001	1.2034122E-003	-7.106831285026500E-007	2.6785929E-006	8.8020843E-003	6.9914310E-004	8.8298069E-003	4.5414271E+000	-1.543289636287631E-007
1.0002229E+004	1.1303422E+002	9.7364445E+000	1.1345277E+002	-4.9231429E+000	2.428648515351233E+001	-7.5983896E-004	-2.5221021E-004	1.6342666E+000	1.2036312E-002	1.000000000000000E+000	11	1.3785464E-001	1.2150839E-003	-1.374344704310918E-006	-1.5765498E-004	8.7817218E-003	7.5643242E-004	8.8142399E-003	4.9231429E+000	-6.636615758082675E-007
8.9149297E+003	1.1318124E+002	1.0610530E+001	1.1367751E+002	-5.3557186E+000	2.476892514980864E+001	-7.3792046E-004	-6.5824090E-005	1.6825389E+000	1.4658521E-002	1.000000000000000E+000	11	1.3913538E-001	1.2239481E-003	-4.449954711182929E-007	-6.3865574E-004	8.7584117E-003	8.2108466E-004	8.7968148E-003	5.3557186E+000	9.293492331926245E-007
7.9439976E+003	1.1333465E+002	1.1607183E+001	1.1392747E+002	-5.8475666E+000	2.529498930810951E+001	-7.3943014E-004	-1.0627024E-004	1.7260534E+000	1.7916406E-002	1.000000000000000E+000	11	1.4017312E-001	1.2303715E-003	-2.025327301141968E-007	-1.5765498E-004	8.7318402E-003	8.9427253E-004	8.7775141E-003	5.8475666E+000	2.424627410040962E-007
7.0822334E+003	1.1349534E+002	1.2717617E+001	1.1420564E+002	-6.3935561E+000	2.604088131687604E+001	-7.1904057E-004	7.6112556E-006	1.7670308E+000	2.1911925E-002	1.000000000000000E+000	11	1.2930024E-001	1.1321703E-003	-1.307471375116721E-006	-3.9815533E-004	8.7016756E-003	9.7505836E-004	8.7561347E-003	6.3935561E+000	-1.104938645002524E-006
6.3077344E+003	1.1366788E+002	1.3989260E+001	1.1452548E+002	-7.0161872E+000	2.667553788030637E+001	-7.1956235E-004	-1.9312822E-004	1.8036489E+000	2.6911456E-002	1.000000000000000E+000	11	1.2992021E-001	1.1344219E-003	-8.667707731013555E-007	-2.3782176E-004	8.6662956E-003	1.0665726E-003	8.7316809E-003	7.0161872E+000	4.407006020153656E-007
5.6210552E+003	1.1386420E+002	1.5392101E+001	1.1489983E+002	-7.6985459E+000	2.737627282025642E+001	-7.0871494E-004	-1.0366124E-004	1.8395193E+000	3.3011205E-002	1.000000000000000E+000	11	1.3040908E-001	1.1349806E-003	-1.637970484402306E-006	-3.1798857E-004	8.6247874E-003	1.1658941E-003	8.7032327E-003	7.6985459E+000	-7.711997113009501E-007
5.0116035E+003	1.1407754E+002	1.6959772E+001	1.1533134E+002	-8.4561577E+000	2.813668410977698E+001	-7.0933002E-004	-5.9113827E-005	1.8725069E+000	4.0491953E-002	1.000000000000000E+000	11	1.3079837E-001	1.1341095E-003	-1.999251512529655E-006	-6.3865574E-004	8.5764080E-003	1.2750444E-003	8.6706700E-003	8.4561577E+000	-3.612810281273495E-007
4.4664292E+003	1.1429299E+002	1.8725897E+001	1.1581687E+002	-9.3047361E+000	2.889670062587538E+001	-7.0832355E-004	-9.4528565E-005	1.9029046E+000	4.9746055E-002	1.000000000000000E+000	11	1.3109332E-001	1.1319018E-003	-2.759544931155284E-006	-3.1798857E-004	8.5207131E-003	1.3960435E-003	8.6343205E-003	9.3047361E+000	-7.602934186256285E-007
3.9812742E+003	1.1453410E+002	2.0701494E+001	1.1638991E+002	-1.0245328E+001	2.965669460863865E+001	-7.1827631E-004	-1.5063204E-004	1.9310626E+000	6.1089855E-002	1.000000000000000E+000	11	1.3132250E-001	1.1282980E-003	-2.034618007294436E-006	-3.1798857E-004	8.4548155E-003	1.5281677E-003	8.5918102E-003	1.0245328E+001	7.249269238608476E-007
3.5465955E+003	1.1480447E+002	2.2908018E+001	1.1706770E+002	-1.1284556E+001	3.041692861806951E+001	-7.0120371E-004	-1.0328989E-004	1.9589393E+000	7.5010464E-002	1.000000000000000E+000	11	1.3150217E-001	1.1233002E-003	-1.786936342639011E-006	2.6785929E-006	8.3769262E-003	1.6715272E-003	8.5420664E-003	1.1284556E+001	2.476816646554249E-007
3.1610112E+003	1.1508938E+002	2.5367977E+001	1.1785202E+002	-1.2430359E+001	3.117667798750335E+001	-7.1035500E-004	-1.1074451E-004	1.9847611E+000	9.1961466E-002	1.000000000000000E+000	11	1.3163108E-001	1.1169183E-003	-1.183154059703762E-006	-4.7832212E-004	8.2863104E-003	1.8264669E-003	8.4852176E-003	1.2430359E+001	6.037822829352486E-007
2.8172952E+003	1.1540584E+002	2.8101337E+001	1.1877792E+002	-1.3685203E+001	3.193593562353635E+001	-7.0830481E-004	-1.0589913E-004	2.0102997E+000	1.1252353E-001	1.000000000000000E+000	11	1.3172321E-001	1.1089874E-003	-9.071431654192566E-007	4.0351250E-004	8.1800576E-003	1.9918452E-003	8.4190732E-003	1.3685203E+001	2.760108942845059E-007
