EC-Lab ASCII FILE
Nb header lines : 60                          

Potentio Electrochemical Impedance Spectroscopy

Run on channel : 4 (SN 4192)
User : 
CE vs. WE compliance from -10 V to 10 V
Electrode connection : standard
Ewe ctrl range : min = -10.00 V, max = 10.00 V
Acquisition started on : 02/20/2020 14:52:47
Technique started on : 02/20/2020 14:52:48
Saved on :
	File : DE_65_4_60.mpr
	Directory : P:\Chemistry\Data\VMP3\Kyler\DOE\DE_65\60C\
	Host : 10.0.4.64
Device : VMP3 (SN 1432)
Address : USB
EC-Lab for windows v11.33 (software)
Internet server v11.32 (firmware)
Command interpretor v11.33 (firmware)
Electrode material : 
Initial state : 
Electrolyte : 
Comments : 
Electrode surface area : 0.001 cm²
Characteristic mass : 0.001 g
Equivalent Weight : 0.000 g/eq.
Density : 0.000 g/cm3
Record Analogic IN 1
Cycle Definition : Charge/Discharge alternance
Mode                Single sine         
E (V)               0.0000              
vs.                 Eoc                 
tE (h:m:s)          0:00:0.0000         
record              0                   
dI                  1.000               
unit dI             mA                  
dt (s)              0.000               
fi                  1.000               
unit fi             MHz                 
ff                  1.000               
unit ff             Hz                  
Nd                  20                  
Points              per decade          
spacing             Logarithmic         
Va (mV)             128.0               
pw                  0.50                
Na                  3                   
corr                0                   
E range min (V)     -10.000             
E range max (V)     10.000              
I Range             Auto                
Bandwidth           5                   
nc cycles           0                   
goto Ns'            0                   
nr cycles           0                   
inc. cycle          1                   

freq/Hz	Re(Z)/Ohm	-Im(Z)/Ohm	|Z|/Ohm	Phase(Z)/deg	time/s	<Ewe>/V	<I>/mA	Cs/µF	Cp/µF	cycle number	I Range	|Ewe|/V	|I|/A	(Q-Qo)/mA.h	Analog IN 1/V	Re(Y)/Ohm-1	Im(Y)/Ohm-1	|Y|/Ohm-1	Phase(Y)/deg	dq/mA.h	
1.0000186E+006	7.8319795E-002	-2.6329451E+000	2.6341097E+000	8.8296181E+001	1.795481925277272E+000	-2.5037532E-003	-2.8313506E-001	-6.0446378E-002	-6.0392935E-002	1.000000000000000E+000	9	4.9757888E-004	1.8889831E-004	-9.524838910492772E-005	-1.6379493E-004	1.1287637E-002	-3.7946707E-001	3.7963492E-001	-8.8296181E+001	-9.524838910492772E-005
8.9124669E+005	3.0199912E-001	-3.2631199E+000	3.2770650E+000	8.4712387E+001	2.391487446875544E+000	-2.2466881E-003	-2.4706464E-001	-5.4725431E-002	-5.4260667E-002	1.000000000000000E+000	9	7.0864597E-004	2.1624409E-004	-1.337250953981194E-004	-5.6476361E-004	2.8121296E-002	-3.0385259E-001	3.0515110E-001	-8.4712387E+001	-3.847670629319166E-005
7.9433269E+005	8.1159991E-001	-3.8564448E+000	3.9409213E+000	7.8115372E+001	2.987488195212791E+000	-2.0579677E-003	-2.1326727E-001	-5.1955387E-002	-4.9751855E-002	1.000000000000000E+000	9	1.0274881E-003	2.6072282E-004	-1.676371268019429E-004	1.5698001E-004	5.2257236E-002	-2.4830849E-001	2.5374776E-001	-7.8115372E+001	-3.391203140382356E-005
7.0794981E+005	1.6043724E+000	-4.1053519E+000	4.4077120E+000	6.8654434E+001	3.583493290207116E+000	-1.9133745E-003	-1.8805896E-001	-5.4760478E-002	-4.7505252E-002	1.000000000000000E+000	9	1.4358182E-003	3.2575135E-004	-1.983908773734697E-004	-7.2515110E-004	8.2580730E-002	-2.1131192E-001	2.2687508E-001	-6.8654434E+001	-3.075375057152673E-005
6.3095681E+005	2.3905637E+000	-4.2237887E+000	4.8533688E+000	6.0491173E+001	4.179472705145599E+000	-1.7825955E-003	-1.6585031E-001	-5.9719801E-002	-4.5230992E-002	1.000000000000000E+000	9	1.9569264E-003	4.0320994E-004	-2.254770873540931E-004	-1.2063135E-003	1.0148779E-001	-1.7931458E-001	2.0604245E-001	-6.0491173E+001	-2.708620998062342E-005
5.6234225E+005	2.9059055E+000	-3.9463074E+000	4.9007783E+000	5.3633530E+001	4.775491906824755E+000	-1.6734423E-003	-1.6398717E-001	-7.1718059E-002	-4.6502922E-002	1.000000000000000E+000	9	2.5262262E-003	5.1547447E-004	-2.508433200582072E-004	-4.0437613E-004	1.2099053E-001	-1.6430879E-001	2.0404923E-001	-5.3633530E+001	-2.536623270411412E-005
5.0120619E+005	3.4420586E+000	-3.7288961E+000	5.0746856E+000	4.7290604E+001	5.372496548487106E+000	-1.5573353E-003	-1.4448008E-001	-8.5157603E-002	-4.5979656E-002	1.000000000000000E+000	9	3.2636244E-003	6.4311852E-004	-2.736907427635290E-004	-1.0459260E-003	1.3365956E-001	-1.4479782E-001	1.9705655E-001	-4.7290604E+001	-2.284742270532175E-005
4.4668572E+005	3.9552729E+000	-3.4305871E+000	5.2357531E+000	4.0936577E+001	5.967472870106576E+000	-1.4960751E-003	-1.3797772E-001	-1.0386030E-001	-4.4589046E-002	1.000000000000000E+000	9	4.2309677E-003	8.0809154E-004	-2.963015156678189E-004	-7.2515110E-004	1.4428398E-001	-1.2514402E-001	1.9099449E-001	-4.0936577E+001	-2.261077290429000E-005
3.9810347E+005	6.1721921E+000	-3.2336788E+000	6.9679718E+000	2.7650534E+001	6.865475606085965E+000	-1.3009041E-003	-1.9485441E-001	-1.2363098E-001	-2.6626145E-002	1.000000000000000E+000	10	5.1107942E-003	7.3346944E-004	-3.389172813009896E-004	-8.0534484E-004	1.2712374E-001	-6.6601515E-002	1.4351378E-001	-2.7650534E+001	-4.261576563317066E-005
3.5480997E+005	6.1782041E+000	-2.9050598E+000	6.8271208E+000	2.5183428E+001	7.461485154373804E+000	-1.2610459E-003	-1.8920842E-001	-1.5440780E-001	-2.7957879E-002	1.000000000000000E+000	10	6.5110228E-003	9.5369964E-004	-3.687854188491466E-004	-3.2418242E-004	1.3255224E-001	-6.2327527E-002	1.4647463E-001	-2.5183428E+001	-2.986813754815695E-005
3.1622997E+005	6.1180897E+000	-2.5932393E+000	6.6449914E+000	2.2970350E+001	8.056490355957067E+000	-1.2831189E-003	-1.8442591E-001	-1.9407719E-001	-2.9557714E-002	1.000000000000000E+000	10	8.1598302E-003	1.2279670E-003	-3.967534407738123E-004	7.6786280E-005	1.3855653E-001	-5.8729157E-002	1.5048929E-001	-2.2970350E+001	-2.796802192466571E-005
2.8183453E+005	6.1279902E+000	-2.3387856E+000	6.5591297E+000	2.0889668E+001	8.651494810910663E+000	-1.2942486E-003	-1.7820117E-001	-2.4145460E-001	-3.0698977E-002	1.000000000000000E+000	10	1.0329988E-002	1.5749022E-003	-4.281536993136195E-004	-7.2515110E-004	1.4243792E-001	-5.4362323E-002	1.5245925E-001	-2.0889668E+001	-3.140025853980719E-005
2.5118764E+005	6.1131449E+000	-2.1055741E+000	6.4656000E+000	1.9005442E+001	9.247485345898895E+000	-1.2892897E-003	-1.8126419E-001	-3.0092019E-001	-3.1913523E-002	1.000000000000000E+000	10	1.3102964E-002	2.0265658E-003	-4.534204037319982E-004	-7.2515110E-004	1.4623354E-001	-5.0367784E-002	1.5466468E-001	-1.9005442E+001	-2.526670441837874E-005
2.2387173E+005	6.1102118E+000	-1.8994054E+000	6.3986273E+000	1.7268250E+001	9.842476280784467E+000	-1.2592560E-003	-1.7571685E-001	-3.7428567E-001	-3.2981083E-002	1.000000000000000E+000	10	1.6817566E-002	2.6283085E-003	-4.842531973423114E-004	-3.2418242E-004	1.4923912E-001	-4.6392102E-002	1.5628353E-001	-1.7268250E+001	-3.083279361031316E-005
1.9954350E+005	6.0880847E+000	-1.7021860E+000	6.3215671E+000	1.5620622E+001	1.043947998914518E+001	-1.3337897E-003	-1.7907016E-001	-4.6857116E-001	-3.3973482E-002	1.000000000000000E+000	10	2.1683449E-002	3.4300750E-003	-5.121742845697881E-004	-8.3601190E-005	1.5234604E-001	-4.2594891E-002	1.5818863E-001	-1.5620622E+001	-2.792108722747674E-005
1.7783180E+005	6.0519609E+000	-1.5239011E+000	6.2408738E+000	1.4133423E+001	1.103449228408863E+001	-1.3063661E-003	-1.7944603E-001	-5.8729178E-001	-3.5016820E-002	1.000000000000000E+000	10	2.8184591E-002	4.5161289E-003	-5.441539489141271E-004	-2.4398866E-004	1.5538365E-001	-3.9126050E-002	1.6023397E-001	-1.4133423E+001	-3.197966434433899E-005
1.5848613E+005	6.0476103E+000	-1.3676748E+000	6.2003326E+000	1.2743153E+001	1.162948705899180E+001	-1.2765001E-003	-1.7703055E-001	-7.3425353E-001	-3.5725784E-002	1.000000000000000E+000	10	3.6879480E-002	5.9479843E-003	-5.729501995949766E-004	-7.2515110E-004	1.5730910E-001	-3.5575651E-002	1.6128168E-001	-1.2743153E+001	-2.879625068084955E-005
1.4125594E+005	6.0524588E+000	-1.2282546E+000	6.1758294E+000	1.1471525E+001	1.222448215392069E+001	-1.2942849E-003	-1.8088441E-001	-9.1732883E-001	-3.6283672E-002	1.000000000000000E+000	10	4.8040539E-002	7.7787996E-003	-6.060848940931384E-004	-9.6573232E-004	1.5868698E-001	-3.2203112E-002	1.6192158E-001	-1.1471525E+001	-3.313469449816176E-005
1.2590930E+005	6.0374699E+000	-1.0991811E+000	6.1367126E+000	1.0318252E+001	1.282148588894052E+001	-1.2893256E-003	-1.7479178E-001	-1.1499875E+000	-3.6894362E-002	1.000000000000000E+000	10	6.1358746E-002	9.9986345E-003	-6.303782266310591E-004	7.6786280E-005	1.6031842E-001	-2.9187554E-002	1.6295370E-001	-1.0318252E+001	-2.429333253792069E-005
1.1220494E+005	6.0289383E+000	-9.8286074E-001	6.1085277E+000	9.2591267E+000	1.341647306390223E+001	-1.3067932E-003	-1.7315783E-001	-1.4431657E+000	-3.7361737E-002	1.000000000000000E+000	10	7.6720521E-002	1.2559577E-002	-6.627813750130817E-004	-2.4398866E-004	1.6157261E-001	-2.6340190E-002	1.6370557E-001	-9.2591267E+000	-3.240314838202257E-005
1.0000371E+005	6.0188260E+000	-8.7860644E-001	6.0826159E+000	8.3051701E+000	1.401248799884343E+001	-1.2953837E-003	-1.7173785E-001	-1.8113803E+000	-3.7793543E-002	1.000000000000000E+000	10	9.3699455E-002	1.5404467E-002	-7.176184263584793E-004	-4.8456987E-004	1.6267881E-001	-2.3747263E-002	1.6440295E-001	-8.3051701E+000	-5.483705134539762E-005
8.9129305E+004	6.0176110E+000	-7.8625190E-001	6.0687590E+000	7.4440098E+000	1.460747784047271E+001	-1.2924378E-003	-1.6304739E-001	-2.2711086E+000	-3.8120758E-002	1.000000000000000E+000	10	1.1137765E-001	1.8352624E-002	-7.476400695775680E-004	-2.4398866E-004	1.6338958E-001	-2.1348232E-002	1.6477834E-001	-7.4440098E+000	-3.002164321908875E-005
7.9433273E+004	6.0169554E+000	-7.0375693E-001	6.0579720E+000	6.6711359E+000	1.506748652897659E+001	-1.2689098E-003	-1.5881008E-001	-2.8470492E+000	-3.8422521E-002	1.000000000000000E+000	10	1.2836659E-001	2.1189697E-002	-7.761604350636318E-004	-8.8553858E-004	1.6395409E-001	-1.9176448E-002	1.6507174E-001	-6.6711359E+000	-2.852036548606381E-005
7.0794977E+004	6.0110493E+000	-6.2916386E-001	6.0438862E+000	5.9752717E+000	1.566349271728541E+001	-1.2659270E-003	-1.5719670E-001	-3.5731719E+000	-3.8721208E-002	1.000000000000000E+000	10	1.2987725E-001	2.1489030E-002	-7.946261809231267E-004	-9.6573232E-004	1.6455752E-001	-1.7223889E-002	1.6545646E-001	-5.9752717E+000	-1.846574585949489E-005
6.3093828E+004	6.0058126E+000	-5.6275100E-001	6.0321202E+000	5.3530450E+000	1.625949029225740E+001	-1.2627762E-003	-1.5568563E-001	-4.4824657E+000	-3.9013017E-002	1.000000000000000E+000	10	1.3032493E-001	2.1605162E-002	-8.509052622070918E-004	-2.4398866E-004	1.6505618E-001	-1.5465938E-002	1.6577919E-001	-5.3530450E+000	-5.627908128396503E-005
5.6237012E+004	6.0014696E+000	-5.0282943E-001	6.0224972E+000	4.7893062E+000	1.685448165386333E+001	-1.2419337E-003	-1.5357348E-001	-5.6282997E+000	-3.9234251E-002	1.000000000000000E+000	10	1.3036777E-001	2.1646796E-002	-8.431933887700207E-004	-1.1261198E-003	1.6546434E-001	-1.3863329E-002	1.6604409E-001	-4.7893062E+000	7.711873437071023E-006
5.0122477E+004	5.9966431E+000	-4.4900870E-001	6.0134296E+000	4.2821269E+000	1.744947133542155E+001	-1.2370120E-003	-1.5208292E-001	-7.0718470E+000	-3.9427377E-002	1.000000000000000E+000	10	1.3035080E-001	2.1676615E-002	-8.358012412172813E-004	-5.6476361E-004	1.6583024E-001	-1.2416817E-002	1.6629446E-001	-4.2821269E+000	7.392147552739395E-006
4.4666715E+004	5.9945383E+000	-4.0161538E-001	6.0079765E+000	3.8329110E+000	1.804547779043787E+001	-1.2299838E-003	-1.5043043E-001	-8.8720865E+000	-3.9645143E-002	1.000000000000000E+000	10	1.3019440E-001	2.1670258E-002	-8.320390172479901E-004	-8.8553858E-004	1.6607308E-001	-1.1126380E-002	1.6644539E-001	-3.8329110E+000	3.762223969291283E-006
3.9814063E+004	5.9906216E+000	-3.5824335E-001	6.0013237E+000	3.4222519E+000	1.864049275199068E+001	-1.2260501E-003	-1.4855836E-001	-1.1158492E+001	-3.9761949E-002	1.000000000000000E+000	10	1.3012041E-001	2.1681951E-002	-8.645938039070170E-004	-3.2418242E-004	1.6633277E-001	-9.9468147E-003	1.6662991E-001	-3.4222519E+000	-3.255478665902694E-005
3.5480996E+004	5.9893298E+000	-3.2000011E-001	5.9978724E+000	3.0583119E+000	1.923549078029464E+001	-1.2024670E-003	-1.4671049E-001	-1.4017617E+001	-3.9900653E-002	1.000000000000000E+000	10	1.2995057E-001	2.1666111E-002	-9.150478049730849E-004	-1.6379493E-004	1.6648832E-001	-8.8951988E-003	1.6672578E-001	-3.0583119E+000	-5.045400106606793E-005
3.1621143E+004	5.9909844E+000	-2.8515506E-001	5.9977670E+000	2.7250712E+000	1.969548757545999E+001	-1.2313069E-003	-1.4836666E-001	-1.7650682E+001	-3.9897390E-002	1.000000000000000E+000	10	1.4044425E-001	2.3416089E-002	-9.197798904686998E-004	-8.8553858E-004	1.6654018E-001	-7.9268729E-003	1.6672872E-001	-2.7250712E+000	-4.732085495614841E-006
2.8188096E+004	5.9862018E+000	-2.5379214E-001	5.9915791E+000	2.4276688E+000	2.029147989707417E+001	-1.2081156E-003	-1.4800011E-001	-2.2247244E+001	-3.9916269E-002	1.000000000000000E+000	10	1.3121107E-001	2.1899248E-002	-9.222813109549008E-004	-6.4495736E-004	1.6675112E-001	-7.0696119E-003	1.6690092E-001	-2.4276688E+000	-2.501420486201002E-006
2.5116910E+004	5.9879603E+000	-2.2594947E-001	5.9922218E+000	2.1609716E+000	2.075148909227573E+001	-1.2282121E-003	-1.4700447E-001	-2.8044170E+001	-3.9873969E-002	1.000000000000000E+000	10	1.4008991E-001	2.3378626E-002	-9.586442251855236E-004	-1.6379493E-004	1.6676432E-001	-6.2926789E-003	1.6688301E-001	-2.1609716E+000	-3.636291423062281E-005
2.2389027E+004	5.9836879E+000	-2.0071146E-001	5.9870534E+000	1.9211578E+000	2.134748090725043E+001	-1.1996521E-003	-1.4643133E-001	-3.5417080E+001	-3.9804377E-002	1.000000000000000E+000	10	1.3075207E-001	2.1839136E-002	-9.681591120237005E-004	-6.4495736E-004	1.6693318E-001	-5.5994568E-003	1.6702707E-001	-1.9211578E+000	-9.514886838176968E-006
1.9948783E+004	5.9851241E+000	-1.7824936E-001	5.9877777E+000	1.7058824E+000	2.180747959579458E+001	-1.2036969E-003	-1.4459276E-001	-4.4758522E+001	-3.9664354E-002	1.000000000000000E+000	10	1.3781844E-001	2.3016626E-002	-9.645466072765218E-004	-9.6573232E-004	1.6693285E-001	-4.9716053E-003	1.6700687E-001	-1.7058824E+000	3.612504747178792E-006
1.7786895E+004	5.9818258E+000	-1.5820707E-001	5.9839177E+000	1.5150031E+000	2.240447341077379E+001	-1.1873478E-003	-1.4502449E-001	-5.6558010E+001	-3.9534356E-002	1.000000000000000E+000	10	1.3007011E-001	2.1736613E-002	-9.887631405204884E-004	-9.6573232E-004	1.6705619E-001	-4.4182944E-003	1.6711460E-001	-1.5150031E+000	-2.421653324396664E-005
1.5847686E+004	5.9839001E+000	-1.4033341E-001	5.9855452E+000	1.3434447E+000	2.286447428600513E+001	-1.1877763E-003	-1.4348179E-001	-7.1563766E+001	-3.9337609E-002	1.000000000000000E+000	10	1.3542247E-001	2.2624917E-002	-1.005668129644661E-003	-5.6476361E-004	1.6702324E-001	-3.9170007E-003	1.6706917E-001	-1.3434447E+000	-1.690498912417220E-005
1.4121879E+004	5.9852228E+000	-1.2429375E-001	5.9865131E+000	1.1896774E+000	2.332347590776044E+001	-1.1999311E-003	-1.4363810E-001	-9.0673073E+001	-3.9086707E-002	1.000000000000000E+000	10	1.4021601E-001	2.3421982E-002	-1.009710617710468E-003	-8.3601190E-005	1.6700615E-001	-3.4681784E-003	1.6704215E-001	-1.1896774E+000	-4.042488065807062E-006