EC-Lab ASCII FILE
Nb header lines : 60                          

Potentio Electrochemical Impedance Spectroscopy

Run on channel : 8 (SN 41406)
User : 
CE vs. WE compliance from -10 V to 10 V
Electrode connection : standard
Ewe ctrl range : min = -5.00 V, max = 5.00 V
Acquisition started on : 12/03/2020 16:53:23
Technique started on : 12/03/2020 16:53:25
Saved on :
	File : DE_206_8_30.mpr
	Directory : P:\Chemistry\Data\VMP3\Kyler\DOE\DE_206\
	Host : 10.0.4.64
Device : VMP3 (SN 1432)
Address : USB
EC-Lab for windows v11.33 (software)
Internet server v11.32 (firmware)
Command interpretor v11.33 (firmware)
Electrode material : 
Initial state : 
Electrolyte : 
Comments : 
Electrode surface area : 0.001 cm²
Characteristic mass : 0.001 g
Equivalent Weight : 0.000 g/eq.
Density : 0.000 g/cm3
Record Analogic IN 1
Cycle Definition : Charge/Discharge alternance
Mode                Single sine         
E (V)               0.0000              
vs.                 Eoc                 
tE (h:m:s)          0:00:0.0000         
record              0                   
dI                  1.000               
unit dI             mA                  
dt (s)              0.000               
fi                  1.000               
unit fi             MHz                 
ff                  1.000               
unit ff             Hz                  
Nd                  20                  
Points              per decade          
spacing             Logarithmic         
Va (mV)             128.0               
pw                  0.50                
Na                  3                   
corr                0                   
E range min (V)     -5.000              
E range max (V)     5.000               
I Range             Auto                
Bandwidth           5                   
nc cycles           0                   
goto Ns'            0                   
nr cycles           0                   
inc. cycle          1                   

freq/Hz	Re(Z)/Ohm	-Im(Z)/Ohm	|Z|/Ohm	Phase(Z)/deg	time/s	<Ewe>/V	<I>/mA	Cs/µF	Cp/µF	cycle number	I Range	|Ewe|/V	|I|/A	(Q-Qo)/mA.h	Analog IN 1/V	Re(Y)/Ohm-1	Im(Y)/Ohm-1	|Y|/Ohm-1	Phase(Y)/deg	dq/mA.h	
1.0000186E+006	1.5402718E+002	1.0791061E+002	1.8806667E+002	-3.5014881E+001	2.963495634059655E+000	3.3263574E+000	5.8398565E-004	1.4748502E-003	4.8557081E-004	1.000000000000000E+000	11	1.7788967E-004	9.4588626E-007	-2.017134993196285E-005	1.4799214E-003	4.3548550E-003	3.0509881E-003	5.3172633E-003	3.5014881E+001	-2.017134993196285E-005
8.9124669E+005	1.5325693E+002	9.8437202E+001	1.8214711E+002	-3.2712708E+001	3.559497129026568E+000	3.3257813E+000	-2.9729234E-004	1.8141072E-003	5.2983046E-004	1.000000000000000E+000	11	1.2916921E-003	7.0914775E-006	-2.023482284647091E-005	1.4799214E-003	4.6192934E-003	2.9669807E-003	5.4900679E-003	3.2712708E+001	-6.347291450805979E-008
7.9433269E+005	1.6194759E+002	9.8895775E+001	1.8975615E+002	-3.1410965E+001	4.154477183968993E+000	3.3254681E+000	-6.5856060E-004	2.0260024E-003	5.5030530E-004	1.000000000000000E+000	11	3.1574948E-003	1.6639749E-005	-2.037095017010496E-005	1.1589337E-003	4.4976203E-003	2.7465406E-003	5.2699214E-003	3.1410965E+001	-1.361273236340511E-007
7.0794981E+005	1.7198314E+002	9.9779175E+001	1.9883180E+002	-3.0120951E+001	4.750483318959596E+000	3.3252990E+000	-8.6798053E-004	2.2530858E-003	5.6739547E-004	1.000000000000000E+000	11	5.9077782E-003	2.9712441E-005	-2.056266341700393E-005	1.1589337E-003	4.3502497E-003	2.5238772E-003	5.0293766E-003	3.0120951E+001	-1.917132468989732E-007
6.3095681E+005	1.8177524E+002	1.0030643E+002	2.0761411E+002	-2.8890604E+001	5.346481400571065E+000	3.3251820E+000	-1.0185239E-003	2.5147321E-003	5.8699661E-004	1.000000000000000E+000	11	9.6478686E-003	4.6470199E-005	-2.053522774270146E-005	8.3794596E-004	4.2171692E-003	2.3271001E-003	4.8166285E-003	2.8890604E+001	2.743567430247331E-008
5.6234225E+005	1.9147733E+002	1.0056065E+002	2.1627762E+002	-2.7707695E+001	5.941495908860816E+000	3.3251374E+000	-9.1549056E-004	2.8144361E-003	6.0844922E-004	1.000000000000000E+000	11	1.4431760E-002	6.6727938E-005	-2.066663153246029E-005	1.2391806E-003	4.0934943E-003	2.1498338E-003	4.6236869E-003	2.7707695E+001	-1.314037897588308E-007
5.0120619E+005	2.0117320E+002	1.0043609E+002	2.2485121E+002	-2.6530746E+001	6.538490203878609E+000	3.3250716E+000	-9.9299825E-004	3.1616511E-003	6.3081650E-004	1.000000000000000E+000	11	2.0301078E-002	9.0286718E-005	-2.095829259011872E-005	1.1589337E-003	3.9790524E-003	1.9865490E-003	4.4473852E-003	2.6530746E+001	-2.916610576584264E-007
4.4668572E+005	2.1054749E+002	9.9956200E+001	2.3306970E+002	-2.5395760E+001	7.133493458823068E+000	3.3250415E+000	-1.0885778E-003	3.5645796E-003	6.5562595E-004	1.000000000000000E+000	11	2.7230350E-002	1.1683351E-004	-2.080919727081022E-005	1.6404153E-003	3.8759524E-003	1.8400860E-003	4.2905621E-003	2.5395760E+001	1.490953193084950E-007
3.9810347E+005	2.1985994E+002	9.8935295E+001	2.4109456E+002	-2.4227381E+001	7.729481647111243E+000	3.3250484E+000	-1.0373393E-003	4.0408522E-003	6.8045693E-004	1.000000000000000E+000	11	3.5255238E-002	1.4622993E-004	-2.088349345935239E-005	9.1819291E-004	3.7824335E-003	1.7020662E-003	4.1477503E-003	2.4227381E+001	-7.429618854217098E-008
3.5480997E+005	2.2853831E+002	9.7529167E+001	2.4847878E+002	-2.3110458E+001	8.324492768704658E+000	3.3250065E+000	-1.0643549E-003	4.5992797E-003	7.0856587E-004	1.000000000000000E+000	11	4.4335965E-002	1.7842959E-004	-2.133660180749656E-005	1.1589337E-003	3.7015227E-003	1.5796318E-003	4.0244884E-003	2.3110458E+001	-4.531083481441677E-007
3.1622997E+005	2.3692331E+002	9.5794228E+001	2.5555663E+002	-2.2014759E+001	8.920484183676308E+000	3.3249722E+000	-1.1787532E-003	5.2538514E-003	7.3821377E-004	1.000000000000000E+000	11	5.4569054E-002	2.1353019E-004	-2.147423424978236E-005	1.0786868E-003	3.6277180E-003	1.4667803E-003	3.9130272E-003	2.2014759E+001	-1.376324422857998E-007
2.8183453E+005	2.4509213E+002	9.3739838E+001	2.6240677E+002	-2.0930241E+001	9.515476931905141E+000	3.3249247E+000	-1.1385080E-003	6.0242326E-003	7.6877640E-004	1.000000000000000E+000	11	6.5942124E-002	2.5129734E-004	-2.160010765853157E-005	1.1589337E-003	3.5594206E-003	1.3613636E-003	3.8108772E-003	2.0930241E+001	-1.258734087492074E-007
2.5118764E+005	2.5300804E+002	9.1336090E+001	2.6898950E+002	-1.9849619E+001	1.011048626687261E+001	3.3248971E+000	-1.1726026E-003	6.9371238E-003	7.9982250E-004	1.000000000000000E+000	11	7.8566492E-002	2.9208013E-004	-2.225929923538282E-005	1.4799214E-003	3.4967426E-003	1.2623266E-003	3.7176171E-003	1.9849619E+001	-6.591915768512507E-007
2.2387173E+005	2.6031882E+002	8.8717705E+001	2.7502130E+002	-1.8819317E+001	1.070549317510449E+001	3.3248906E+000	-1.2402332E-003	8.0132838E-003	8.3387026E-004	1.000000000000000E+000	11	9.2284329E-002	3.3555340E-004	-2.314573585799210E-005	1.4799214E-003	3.4416991E-003	1.1729449E-003	3.6360819E-003	1.8819317E+001	-8.864366226092782E-007
1.9954350E+005	2.6736911E+002	8.6063416E+001	2.8087924E+002	-1.7842842E+001	1.130247301681084E+001	3.3248813E+000	-1.1893677E-003	9.2675295E-003	8.7008532E-004	1.000000000000000E+000	11	1.0720319E-001	3.8167005E-004	-2.370879312421069E-005	9.9843985E-004	3.3890028E-003	1.0908857E-003	3.5602488E-003	1.7842842E+001	-5.630572662185933E-007
1.7783180E+005	2.7401215E+002	8.3283119E+001	2.8638913E+002	-1.6906099E+001	1.176149498528684E+001	3.3248413E+000	-1.2879284E-003	1.0746171E-002	9.0877136E-004	1.000000000000000E+000	11	1.2331763E-001	4.3059463E-004	-2.408600999061471E-005	1.4799214E-003	3.3408483E-003	1.0154158E-003	3.4917525E-003	1.6906099E+001	-3.772168664040190E-007
1.5848613E+005	2.8032330E+002	8.0441307E+001	2.9163669E+002	-1.6011311E+001	1.222148746045423E+001	3.3247900E+000	-1.4841200E-003	1.2483886E-002	9.4978145E-004	1.000000000000000E+000	11	1.4053984E-001	4.8190041E-004	-2.398480570330543E-005	1.1589337E-003	3.2959066E-003	9.4579015E-004	3.4289239E-003	1.6011311E+001	1.012042873092754E-007
1.4125594E+005	2.8636298E+002	7.7564751E+001	2.9668173E+002	-1.5155581E+001	1.281749687544652E+001	3.3248580E+000	-1.2502925E-003	1.4526099E-002	9.9287869E-004	1.000000000000000E+000	11	1.3059354E-001	4.4018056E-004	-2.330740372263891E-005	1.3194275E-003	3.2533836E-003	8.8121690E-004	3.3706154E-003	1.5155581E+001	6.774019806665239E-007
1.2590930E+005	2.9200964E+002	7.4751694E+001	3.0142569E+002	-1.4358825E+001	1.341448186381604E+001	3.3248720E+000	-1.2879281E-003	1.6909910E-002	1.0399749E-003	1.000000000000000E+000	11	1.2994614E-001	4.3110506E-004	-2.356335780987057E-005	1.3194275E-003	3.2139318E-003	8.2273595E-004	3.3175673E-003	1.4358825E+001	-2.559540872316573E-007
1.1220494E+005	2.9737866E+002	7.1913025E+001	3.0595026E+002	-1.3594459E+001	1.401049090540619E+001	3.3248761E+000	-1.2564416E-003	1.9724254E-002	1.0897178E-003	1.000000000000000E+000	11	1.2976432E-001	4.2413533E-004	-2.423852221477621E-005	1.7206622E-003	3.1769339E-003	7.6825597E-004	3.2685052E-003	1.3594459E+001	-6.751644049056467E-007
1.0000371E+005	3.0246887E+002	6.9131821E+001	3.1026865E+002	-1.2874295E+001	1.460649400038528E+001	3.3249333E+000	-1.0937867E-003	2.3021096E-002	1.1428947E-003	1.000000000000000E+000	11	1.2956859E-001	4.1760132E-004	-2.469908412515704E-005	1.1589337E-003	3.1419909E-003	7.1812858E-004	3.2230134E-003	1.2874295E+001	-4.605619103808273E-007
8.9129305E+004	3.0722217E+002	6.6413109E+001	3.1431857E+002	-1.2198097E+001	1.520247253539856E+001	3.3249340E+000	-1.1852690E-003	2.6887216E-002	1.2003650E-003	1.000000000000000E+000	11	1.2962419E-001	4.1239746E-004	-2.516837330875569E-005	1.2391806E-003	3.1096567E-003	6.7222351E-004	3.1814855E-003	1.2198097E+001	-4.692891835986492E-007
7.9433273E+004	3.1173212E+002	6.3765007E+001	3.1818689E+002	-1.1560416E+001	1.579748645695508E+001	3.3249166E+000	-1.2182468E-003	3.1422105E-002	1.2619308E-003	1.000000000000000E+000	11	1.2947980E-001	4.0693002E-004	-2.514115719879111E-005	1.5601683E-003	3.0790519E-003	6.2982203E-004	3.1428069E-003	1.1560416E+001	2.721610996458103E-008
7.0794977E+004	3.1595969E+002	6.1173962E+001	3.2182724E+002	-1.0957642E+001	1.639348461860209E+001	3.3249543E+000	-1.1474469E-003	3.6749471E-002	1.3278184E-003	1.000000000000000E+000	11	1.2917501E-001	4.0137998E-004	-2.440272405572857E-005	1.2391806E-003	3.0506055E-003	5.9063750E-004	3.1072572E-003	1.0957642E+001	7.384331430625433E-007
6.3093828E+004	3.1996658E+002	5.8740311E+001	3.2531375E+002	-1.0402677E+001	1.685348653382971E+001	3.3249569E+000	-1.1621651E-003	4.2943459E-002	1.4001180E-003	1.000000000000000E+000	11	1.3969667E-001	4.2942134E-004	-2.435102648567732E-005	1.3996745E-003	3.0234288E-003	5.5504905E-004	3.0739554E-003	1.0402677E+001	5.169757005124903E-008
5.6237012E+004	3.2378152E+002	5.6427219E+001	3.2866168E+002	-9.8859692E+000	1.744947216208675E+001	3.3249793E+000	-1.1386898E-003	5.0154421E-002	1.4783879E-003	1.000000000000000E+000	11	1.3031527E-001	3.9650279E-004	-2.516306196710098E-005	1.3194275E-003	2.9974636E-003	5.2238477E-004	3.0426425E-003	9.8859692E+000	-8.120354814236650E-007
5.0122477E+004	3.2725345E+002	5.4183182E+001	3.3170865E+002	-9.4011469E+000	1.790949247727985E+001	3.3249850E+000	-1.1131640E-003	5.8603439E-002	1.5636462E-003	1.000000000000000E+000	11	1.3892835E-001	4.1882644E-004	-2.550024426616599E-005	1.1589337E-003	2.9742031E-003	4.9243728E-004	3.0146937E-003	9.4011469E+000	-3.371822990650074E-007
4.4666715E+004	3.3057419E+002	5.2062996E+001	3.3464883E+002	-8.9501467E+000	1.850548373229685E+001	3.3249786E+000	-1.2065095E-003	6.8439521E-002	1.6564816E-003	1.000000000000000E+000	11	1.2989827E-001	3.8816291E-004	-2.642501681479836E-005	1.3996745E-003	2.9518227E-003	4.6489033E-004	2.9882069E-003	8.9501467E+000	-9.247725486323660E-007
3.9814063E+004	3.3377298E+002	5.0178558E+001	3.3752377E+002	-8.5496693E+000	1.896548764742329E+001	3.3249915E+000	-1.1625374E-003	7.9664610E-002	1.7607313E-003	1.000000000000000E+000	11	1.3648036E-001	4.0435776E-004	-2.668770370266995E-005	1.3996745E-003	2.9298302E-003	4.4046299E-004	2.9627543E-003	8.5496693E+000	-2.626868878715990E-007
3.5480996E+004	3.3674304E+002	4.8420429E+001	3.4020642E+002	-8.1824999E+000	1.956049794235150E+001	3.3249838E+000	-1.2061368E-003	9.2639394E-002	1.8765838E-003	1.000000000000000E+000	11	1.2940988E-001	3.8038637E-004	-2.624755743480475E-005	1.3996745E-003	2.9094680E-003	4.1835371E-004	2.9393919E-003	8.1824999E+000	4.401462678652031E-007
3.1621143E+004	3.3959647E+002	4.6756100E+001	3.4280008E+002	-7.8392735E+000	2.002048996425583E+001	3.3249938E+000	-1.2083719E-003	1.0764759E-001	2.0026222E-003	1.000000000000000E+000	11	1.3421248E-001	3.9151823E-004	-2.662171778664601E-005	1.4799214E-003	2.8898902E-003	3.9788394E-004	2.9171521E-003	7.8392735E+000	-3.741603518412583E-007
2.8188096E+004	3.4226202E+002	4.5367035E+001	3.4525565E+002	-7.5505743E+000	2.048047478610533E+001	3.3250072E+000	-1.2189925E-003	1.2445547E-001	2.1488850E-003	1.000000000000000E+000	11	1.3838546E-001	4.0082028E-004	-2.689474055640878E-005	1.4799214E-003	2.8712905E-003	3.8059126E-004	2.8964046E-003	7.5505743E+000	-2.730227697627723E-007
2.5116910E+004	3.4489102E+002	4.4065258E+001	3.4769464E+002	-7.2809901E+000	2.107548665432842E+001	3.3249967E+000	-1.2342712E-003	1.4379957E-001	2.3096928E-003	1.000000000000000E+000	11	1.2943903E-001	3.7227789E-004	-2.717324902581256E-005	1.3996745E-003	2.8528958E-003	3.6450231E-004	2.8760869E-003	7.2809901E+000	-2.785084694037815E-007
2.2389027E+004	3.4736194E+002	4.2957230E+001	3.5000806E+002	-7.0498071E+000	2.153447998283082E+001	3.3249869E+000	-1.2793590E-003	1.6548119E-001	2.4926718E-003	1.000000000000000E+000	11	1.3220438E-001	3.7771813E-004	-2.756103784960902E-005	1.4799214E-003	2.8354772E-003	3.5065511E-004	2.8570772E-003	7.0498071E+000	-3.877888237964521E-007
1.9948783E+004	3.4975922E+002	4.2021725E+001	3.5227451E+002	-6.8509479E+000	2.199448661800125E+001	3.3249953E+000	-1.2061367E-003	1.8985842E-001	2.7015635E-003	1.000000000000000E+000	11	1.3450405E-001	3.8181603E-004	-2.796168625706438E-005	1.3996745E-003	2.8184266E-003	3.3861911E-004	2.8386954E-003	6.8509479E+000	-4.006484074553657E-007
1.7786895E+004	3.5209772E+002	4.1225761E+001	3.5450299E+002	-6.6781344E+000	2.245448127985583E+001	3.3249798E+000	-1.2722797E-003	2.1704577E-001	2.9352757E-003	1.000000000000000E+000	11	1.3640735E-001	3.8478474E-004	-2.843353568482396E-005	8.3794596E-004	2.8017114E-003	3.2804153E-004	2.8208506E-003	6.6781344E+000	-4.718494277595820E-007
1.5847686E+004	3.5441547E+002	4.0587616E+001	3.5673193E+002	-6.5330453E+000	2.291347860833048E+001	3.3249917E+000	-1.2905386E-003	2.4743478E-001	3.2030509E-003	1.000000000000000E+000	11	1.3797076E-001	3.8676313E-004	-2.889238415327580E-005	1.5601683E-003	2.7850224E-003	3.1894044E-004	2.8032253E-003	6.5330453E+000	-4.588484684518334E-007
1.4121879E+004	3.5666425E+002	4.0155609E+001	3.5891763E+002	-6.4236856E+000	2.337247489675065E+001	3.3250055E+000	-1.2286813E-003	2.8066057E-001	3.5130496E-003	1.000000000000000E+000	11	1.3923550E-001	3.8793162E-004	-2.900242934840693E-005	1.3194275E-003	2.7686625E-003	3.1171425E-004	2.7861546E-003	6.4236856E+000	-1.100451951311295E-007
1.2590932E+004	3.5887827E+002	3.9936829E+001	3.6109357E+002	-6.3498850E+000	2.383249750526738E+001	3.3249977E+000	-1.2294264E-003	3.1651092E-001	3.8716523E-003	1.000000000000000E+000	11	1.4025044E-001	3.8840470E-004	-2.948233788339146E-005	9.9843985E-004	2.7523753E-003	3.0629087E-004	2.7693652E-003	6.3498850E+000	-4.799085349845361E-007
1.1217711E+004	3.6116400E+002	3.9815430E+001	3.6335205E+002	-6.2909961E+000	2.442848676026915E+001	3.3250008E+000	-1.2087465E-003	3.5633996E-001	4.2787022E-003	1.000000000000000E+000	11	1.2934561E-001	3.5597876E-004	-3.041319385090416E-005	1.3194275E-003	2.7355789E-003	3.0157561E-004	2.7521518E-003	6.2909961E+000	-9.308559675126962E-007
1.0002229E+004	3.6340250E+002	3.9926613E+001	3.6558926E+002	-6.2698736E+000	2.488847542213625E+001	3.3250098E+000	-1.2478728E-003	3.9852983E-001	4.7533405E-003	1.000000000000000E+000	11	1.2993002E-001	3.5539889E-004	-3.034649454013238E-005	1.3996745E-003	2.7189488E-003	2.9872777E-004	2.7353100E-003	6.2698736E+000	6.669931077178166E-008
8.9149297E+003	3.6567346E+002	4.0186115E+001	3.6787500E+002	-6.2714210E+000	2.537090261839330E+001	3.3250422E+000	-1.2012938E-003	4.4424871E-001	5.3012427E-003	1.000000000000000E+000	11	1.3040864E-001	3.5449173E-004	-3.063862503285701E-005	1.2391806E-003	2.7020471E-003	2.9694467E-004	2.7183148E-003	6.2714210E+000	-2.921304927246310E-007
7.9439976E+003	3.6806079E+002	4.0553871E+001	3.7028821E+002	-6.2876320E+000	2.589699325669790E+001	3.3250446E+000	-1.2529036E-003	4.9402472E-001	5.9256172E-003	1.000000000000000E+000	11	1.3078199E-001	3.5318974E-004	-3.059227166672240E-005	9.9843985E-004	2.6843541E-003	2.9576893E-004	2.7005991E-003	6.2876320E+000	4.635336613460425E-008
7.0822334E+003	3.7047308E+002	4.1123192E+001	3.7274847E+002	-6.3340073E+000	2.647386245743837E+001	3.3250382E+000	-1.2897939E-003	5.4646593E-001	6.6512758E-003	1.000000000000000E+000	11	1.3107218E-001	3.5163705E-004	-3.065509139877718E-005	1.0786868E-003	2.6663977E-003	2.9597504E-004	2.6827743E-003	6.3340073E+000	-6.281973205477811E-008
6.3077344E+003	3.7296591E+002	4.1867264E+001	3.7530847E+002	-6.4049201E+000	2.710753222086350E+001	3.3250358E+000	-1.4537527E-003	6.0265970E-001	7.4997121E-003	1.000000000000000E+000	11	1.3130035E-001	3.4984646E-004	-3.111307754925656E-005	1.7206622E-003	2.6478444E-003	2.9723355E-004	2.6644750E-003	6.4049201E+000	-4.579861504793771E-007
5.6210552E+003	3.7561346E+002	4.2658192E+001	3.7802805E+002	-6.4792852E+000	2.780827916078852E+001	3.3250735E+000	-1.3809025E-003	6.6374284E-001	8.4519451E-003	1.000000000000000E+000	11	1.3148378E-001	3.4781487E-004	-3.164913633466454E-005	1.4799214E-003	2.6284100E-003	2.9850693E-004	2.6453063E-003	6.4792852E+000	-5.360587854079816E-007
5.0116035E+003	3.7834692E+002	4.3668724E+001	3.8085870E+002	-6.5839338E+000	2.856870141029503E+001	3.3250723E+000	-1.3315293E-003	7.2723186E-001	9.5606223E-003	1.000000000000000E+000	11	1.3161916E-001	3.4558526E-004	-3.219913207214025E-005	1.3194275E-003	2.6083293E-003	3.0105285E-004	2.6256456E-003	6.5839338E+000	-5.499957374757063E-007
4.4664292E+003	3.8128931E+002	4.4738792E+001	3.8390506E+002	-6.6922321E+000	2.932868989972485E+001	3.3250799E+000	-1.2597977E-003	7.9648101E-001	1.0816737E-002	1.000000000000000E+000	11	1.3172686E-001	3.4312354E-004	-3.276899293018828E-005	1.1589337E-003	2.5870628E-003	3.0355447E-004	2.6048108E-003	6.6922321E+000	-5.698608580480347E-007
3.9812742E+003	3.8437711E+002	4.6154827E+001	3.8713824E+002	-6.8471193E+000	3.033969234774850E+001	3.3250613E+000	6.8677880E-005	8.6612564E-001	1.2310707E-002	1.000000000000000E+000	12	1.3075773E-001	3.3775464E-004	-3.286003442789176E-005	1.3996745E-003	2.5646337E-003	3.0795339E-004	2.5830567E-003	6.8471193E+000	-9.104149770347667E-008
3.5465955E+003	3.8762695E+002	4.7438919E+001	3.9051901E+002	-6.9773283E+000	3.109896067713271E+001	3.3250639E+000	2.5329353E-005	9.4596207E-001	1.3959148E-002	1.000000000000000E+000	12	1.3133244E-001	3.3630230E-004	-3.256097693847106E-005	1.4799214E-003	2.5417309E-003	3.1106445E-004	2.5606947E-003	6.9773283E+000	2.990574894206997E-007
3.1610112E+003	3.9108124E+002	4.8747139E+001	3.9410764E+002	-7.1051059E+000	3.185867561989289E+001	3.3250554E+000	6.4355569E-005	1.0328684E+000	1.5802054E-002	1.000000000000000E+000	12	1.3175923E-001	3.3432295E-004	-3.231374606904036E-005	1.3996745E-003	2.5178932E-003	3.1384802E-004	2.5373779E-003	7.1051059E+000	2.472308694306959E-007
2.8172952E+003	3.9475336E+002	5.0095196E+001	3.9791925E+002	-7.2323208E+000	3.261795840261038E+001	3.3250599E+000	5.1204352E-005	1.1276951E+000	1.7872855E-002	1.000000000000000E+000	12	1.3206485E-001	3.3188856E-004	-3.204874784398332E-005	1.7206622E-003	2.4930784E-003	3.1637793E-004	2.5130727E-003	7.2323208E+000	2.649982250570466E-007
