EC-Lab ASCII FILE
Nb header lines : 60                          

Potentio Electrochemical Impedance Spectroscopy

Run on channel : 12 (SN 41430)
User : 
CE vs. WE compliance from -10 V to 10 V
Electrode connection : standard
Ewe ctrl range : min = -5.00 V, max = 5.00 V
Acquisition started on : 12/03/2020 16:52:47
Technique started on : 12/03/2020 16:52:48
Saved on :
	File : DE_206_12_30.mpr
	Directory : P:\Chemistry\Data\VMP3\Kyler\DOE\DE_206\
	Host : 10.0.4.64
Device : VMP3 (SN 1432)
Address : USB
EC-Lab for windows v11.33 (software)
Internet server v11.32 (firmware)
Command interpretor v11.33 (firmware)
Electrode material : 
Initial state : 
Electrolyte : 
Comments : 
Electrode surface area : 0.001 cm²
Characteristic mass : 0.001 g
Equivalent Weight : 0.000 g/eq.
Density : 0.000 g/cm3
Record Analogic IN 1
Cycle Definition : Charge/Discharge alternance
Mode                Single sine         
E (V)               0.0000              
vs.                 Eoc                 
tE (h:m:s)          0:00:0.0000         
record              0                   
dI                  1.000               
unit dI             mA                  
dt (s)              0.000               
fi                  1.000               
unit fi             MHz                 
ff                  1.000               
unit ff             Hz                  
Nd                  20                  
Points              per decade          
spacing             Logarithmic         
Va (mV)             128.0               
pw                  0.50                
Na                  3                   
corr                0                   
E range min (V)     -5.000              
E range max (V)     5.000               
I Range             Auto                
Bandwidth           5                   
nc cycles           0                   
goto Ns'            0                   
nr cycles           0                   
inc. cycle          1                   

freq/Hz	Re(Z)/Ohm	-Im(Z)/Ohm	|Z|/Ohm	Phase(Z)/deg	time/s	<Ewe>/V	<I>/mA	Cs/µF	Cp/µF	cycle number	I Range	|Ewe|/V	|I|/A	(Q-Qo)/mA.h	Analog IN 1/V	Re(Y)/Ohm-1	Im(Y)/Ohm-1	|Y|/Ohm-1	Phase(Y)/deg	dq/mA.h	
1.0000186E+006	2.1520309E+002	-8.2033575E+002	8.4809381E+002	7.5300522E+001	1.405477346706903E+000	3.3162019E+000	2.8274239E-003	-1.9400835E-004	-1.8151641E-004	1.000000000000000E+000	12	7.0930528E-004	8.3635240E-007	6.819844230752400E-007	-3.9114794E-004	2.9919937E-004	-1.1405224E-003	1.1791148E-003	-7.5300522E+001	6.819844230752400E-007
8.9124669E+005	9.0160614E+001	3.5014690E+001	9.6721069E+001	-2.1224131E+001	2.304490056092618E+000	3.3156033E+000	2.4618036E-003	5.1000207E-003	6.6839060E-004	1.000000000000000E+000	11	7.5959903E-004	7.8535013E-006	1.080566114091602E-006	-6.3154369E-004	9.6377283E-003	3.7428988E-003	1.0339009E-002	2.1224131E+001	3.985816910163622E-007
7.9433269E+005	9.3233475E+001	3.3546478E+001	9.9085052E+001	-1.9789316E+001	2.900495124427835E+000	3.3153036E+000	1.7237089E-003	5.9727011E-003	6.8461802E-004	1.000000000000000E+000	11	1.8840755E-003	1.9014729E-005	1.374705735965108E-006	-1.5075220E-004	9.4963256E-003	3.4168875E-003	1.0092339E-002	1.9789316E+001	2.941396218735058E-007
7.0794981E+005	9.7275818E+001	3.2553158E+001	1.0257822E+002	-1.8502714E+001	3.495476432639407E+000	3.3151402E+000	1.3659302E-003	6.9059674E-003	6.9550524E-004	1.000000000000000E+000	11	3.6163933E-003	3.5254980E-005	1.412215443540643E-006	-3.1101602E-004	9.2447363E-003	3.0937325E-003	9.7486582E-003	1.8502714E+001	3.750970757553455E-008
6.3095681E+005	1.0069418E+002	3.1808950E+001	1.0559889E+002	-1.7531151E+001	4.091493660962442E+000	3.3150475E+000	1.2098562E-003	7.9299631E-003	7.1953365E-004	1.000000000000000E+000	11	6.0436912E-003	5.7232523E-005	1.618603427852981E-006	-3.9114794E-004	9.0299556E-003	2.8525325E-003	9.4697960E-003	1.7531151E+001	2.063879843123384E-007
5.6234225E+005	1.0384632E+002	3.1027975E+001	1.0838263E+002	-1.6635485E+001	4.686493155924836E+000	3.3149662E+000	1.0334810E-003	9.1214944E-003	7.4757281E-004	1.000000000000000E+000	11	9.2257904E-003	8.5122410E-005	1.834702652501518E-006	-1.5075220E-004	8.8403970E-003	2.6413996E-003	9.2265708E-003	1.6635485E+001	2.160992246485370E-007
5.0120619E+005	1.0699265E+002	3.0222206E+001	1.1117917E+002	-1.5773392E+001	5.283485584281152E+000	3.3149428E+000	1.0301301E-003	1.0506972E-002	7.7639555E-004	1.000000000000000E+000	11	1.3256741E-002	1.1923763E-004	2.139999033202508E-006	-3.1101602E-004	8.6557977E-003	2.4450028E-003	8.9944908E-003	1.5773392E+001	3.052963807009899E-007
4.4668572E+005	1.0977660E+002	2.9346624E+001	1.1363154E+002	-1.4966917E+001	5.879481292591663E+000	3.3149164E+000	9.9735125E-004	1.2141151E-002	8.0980122E-004	1.000000000000000E+000	11	1.8095411E-002	1.5924638E-004	2.656305857356832E-006	-1.5075220E-004	8.5018221E-003	2.2727957E-003	8.8003734E-003	1.4966917E+001	5.163068241543241E-007
3.9810347E+005	1.1238801E+002	2.8398024E+001	1.1592028E+002	-1.4180587E+001	6.475472734222421E+000	3.3148735E+000	9.1335509E-004	1.4077842E-002	8.4487692E-004	1.000000000000000E+000	11	2.3828855E-002	2.0556244E-004	3.040152858603202E-006	-5.5141177E-004	8.3637517E-003	2.1133395E-003	8.6266184E-003	1.4180587E+001	3.838470012463703E-007
3.5480997E+005	1.1473322E+002	2.7487585E+001	1.1797999E+002	-1.3472883E+001	7.070493455830729E+000	3.3148606E+000	9.6159452E-004	1.6318781E-002	8.8581740E-004	1.000000000000000E+000	11	3.0406510E-002	2.5772600E-004	3.620628185419062E-006	-6.3154369E-004	8.2427561E-003	1.9747852E-003	8.4760133E-003	1.3472883E+001	5.804753268158594E-007
3.1622997E+005	1.1695742E+002	2.6549572E+001	1.1993298E+002	-1.2789517E+001	7.665472230728483E+000	3.3147964E+000	7.8000687E-004	1.8956563E-002	9.2896086E-004	1.000000000000000E+000	11	3.7962656E-002	3.1653227E-004	2.987755899091199E-006	-3.9114794E-004	8.1311241E-003	1.8457817E-003	8.3379904E-003	1.2789517E+001	-6.328722863278623E-007
2.8183453E+005	1.1901164E+002	2.5594061E+001	1.2173260E+002	-1.2136898E+001	8.260479165677680E+000	3.3147409E+000	6.5131101E-004	2.2064125E-002	9.7532931E-004	1.000000000000000E+000	11	4.6506148E-002	3.8203527E-004	2.176690342342934E-006	-1.5075220E-004	8.0311112E-003	1.7271314E-003	8.2147261E-003	1.2136898E+001	-8.110655567482657E-007
2.5118764E+005	1.2091894E+002	2.4605520E+001	1.2339700E+002	-1.1501949E+001	8.856476820626995E+000	3.3146980E+000	6.3324504E-004	2.5750717E-002	1.0238709E-003	1.000000000000000E+000	11	5.6119204E-002	4.5478580E-004	2.644315474391786E-006	-3.9114794E-004	7.9411808E-003	1.6159329E-003	8.1039248E-003	1.1501949E+001	4.676251320488519E-007
2.2387173E+005	1.2269250E+002	2.3636818E+001	1.2494859E+002	-1.0904488E+001	9.451484155579237E+000	3.3146346E+000	3.4922248E-004	3.0076817E-002	1.0763343E-003	1.000000000000000E+000	11	6.6737831E-002	5.3412234E-004	2.753535906302406E-006	-5.5141177E-004	7.8587830E-003	1.5140015E-003	8.0032917E-003	1.0904488E+001	1.092204319106208E-007
1.9954350E+005	1.2436375E+002	2.2693644E+001	1.2641734E+002	-1.0341435E+001	1.004849786389968E+001	3.3146746E+000	8.1223471E-004	3.5146195E-002	1.1325921E-003	1.000000000000000E+000	11	7.8402475E-002	6.2018767E-004	2.957867375701123E-006	-3.9114794E-004	7.7818083E-003	1.4200086E-003	7.9103075E-003	1.0341435E+001	2.043314693987162E-007
1.7783180E+005	1.2593769E+002	2.1783978E+001	1.2780784E+002	-9.8135881E+000	1.064449007887742E+001	3.3146665E+000	7.6362828E-004	4.1084077E-002	1.1935289E-003	1.000000000000000E+000	11	9.1091596E-002	7.1272306E-004	3.028361976534749E-006	8.9643538E-005	7.7097574E-003	1.3335894E-003	7.8242458E-003	9.8135881E+000	7.049460083362643E-008
1.5848613E+005	1.2741689E+002	2.0903366E+001	1.2912015E+002	-9.3166628E+000	1.124047674718895E+001	3.3146188E+000	5.7310035E-004	4.8041068E-002	1.2590908E-003	1.000000000000000E+000	11	1.0474690E-001	8.1123592E-004	2.358585500054889E-006	-3.9114794E-004	7.6425616E-003	1.2537998E-003	7.7447249E-003	9.3166628E+000	-6.697764764798600E-007
1.4125594E+005	1.2880325E+002	2.0050045E+001	1.3035445E+002	-8.8478880E+000	1.170048791568843E+001	3.3146400E+000	7.8579574E-004	5.6195047E-002	1.3294654E-003	1.000000000000000E+000	11	1.1942882E-001	9.1618526E-004	1.955371408192958E-006	-5.5141177E-004	7.5801034E-003	1.1799502E-003	7.6713916E-003	8.8478880E+000	-4.032140918619308E-007
1.2590930E+005	1.3012967E+002	1.9227840E+001	1.3154254E+002	-8.4051552E+000	1.216048009754741E+001	3.3146327E+000	8.0535212E-004	6.5740325E-002	1.4046250E-003	1.000000000000000E+000	11	1.3517931E-001	1.0276471E-003	2.605643573229221E-006	-1.5075220E-004	7.5204507E-003	1.1112150E-003	7.6021035E-003	8.4051552E+000	6.502721650362624E-007
1.1220494E+005	1.3138828E+002	1.8443859E+001	1.3267650E+002	-7.9907808E+000	1.275648060589447E+001	3.3146403E+000	5.3007674E-004	7.6905318E-002	1.4861819E-003	1.000000000000000E+000	11	1.2997384E-001	9.7962969E-004	1.832846967128312E-006	-4.7127984E-004	7.4639479E-003	1.0477648E-003	7.5371298E-003	7.9907808E+000	-7.727966061009083E-007
1.0000371E+005	1.3257825E+002	1.7680233E+001	1.3375194E+002	-7.5959740E+000	1.335248348754249E+001	3.3147569E+000	1.1081852E-003	9.0015233E-002	1.5728663E-003	1.000000000000000E+000	11	1.2985173E-001	9.7083993E-004	1.751042415481707E-006	-7.9180748E-004	7.4109193E-003	9.8829775E-004	7.4765272E-003	7.5959740E+000	-8.180455164660494E-008
8.9129305E+004	1.3369032E+002	1.6954786E+001	1.3476115E+002	-7.2277427E+000	1.394848831582931E+001	3.3147993E+000	1.2184473E-003	1.0531914E-001	1.6671033E-003	1.000000000000000E+000	11	1.2972529E-001	9.6263125E-004	1.395095281742720E-006	-6.3154369E-004	7.3615718E-003	9.3360437E-004	7.4205361E-003	7.2277427E+000	-3.559471337389874E-007
7.9433273E+004	1.3475200E+002	1.6271492E+001	1.3573085E+002	-6.8852096E+000	1.454348165073316E+001	3.3148606E+000	1.3924014E-003	1.2313750E-001	1.7696522E-003	1.000000000000000E+000	11	1.2958087E-001	9.5468992E-004	1.601629567523358E-006	-3.9114794E-004	7.3143896E-003	8.8322267E-004	7.3675220E-003	6.8852096E+000	2.065342857806374E-007
7.0794977E+004	1.3574467E+002	1.5616997E+001	1.3664006E+002	-6.5628457E+000	1.513948210570379E+001	3.3148606E+000	1.2089482E-003	1.4395282E-001	1.8804384E-003	1.000000000000000E+000	11	1.2950073E-001	9.4775081E-004	3.216550768062007E-006	-1.5075220E-004	7.2705406E-003	8.3645282E-004	7.3184981E-003	6.5628457E+000	1.614921200538649E-006
6.3093828E+004	1.3668930E+002	1.5005710E+001	1.3751050E+002	-6.2648263E+000	1.573549298735452E+001	3.3149090E+000	1.4279739E-003	1.6810349E-001	2.0017880E-003	1.000000000000000E+000	11	1.2948585E-001	9.4164332E-004	3.306149585288949E-006	-4.7127984E-004	7.2287438E-003	7.9356926E-004	7.2721723E-003	6.2648263E+000	8.959881722694279E-008
5.6237012E+004	1.3757001E+002	1.4440696E+001	1.3832585E+002	-5.9923811E+000	1.633048013565713E+001	3.3149214E+000	1.4080449E-003	1.9597910E-001	2.1358922E-003	1.000000000000000E+000	11	1.2932038E-001	9.3489676E-004	2.183084724736141E-006	-5.5141177E-004	7.1898042E-003	7.5471227E-004	7.2293067E-003	5.9923811E+000	-1.123064860552808E-006
5.0122477E+004	1.3841341E+002	1.3918444E+001	1.3911145E+002	-5.7421918E+000	1.679048997079371E+001	3.3149273E+000	1.3767550E-003	2.2813763E-001	2.2837708E-003	1.000000000000000E+000	11	1.4030442E-001	1.0085757E-003	1.939901462358345E-006	-1.5075220E-004	7.1524102E-003	7.1922527E-004	7.1884808E-003	5.7421918E+000	-2.431832623777963E-007
4.4666715E+004	1.3920915E+002	1.3441685E+001	1.3985660E+002	-5.5152383E+000	1.738649322578567E+001	3.3149533E+000	1.4596365E-003	2.6508331E-001	2.4486342E-003	1.000000000000000E+000	11	1.3037321E-001	9.3219202E-004	2.069865935242786E-006	2.4990735E-004	7.1170805E-003	6.8720739E-004	7.1501811E-003	5.5152383E+000	1.299644728844416E-007
3.9814063E+004	1.3995792E+002	1.3022460E+001	1.4056245E+002	-5.3158116E+000	1.784648772762739E+001	3.3149514E+000	1.2782302E-003	3.0696625E-001	2.6347416E-003	1.000000000000000E+000	11	1.3951991E-001	9.9258311E-004	1.515235655701771E-006	-5.5141177E-004	7.0836782E-003	6.5910467E-004	7.1142754E-003	5.3158116E+000	-5.546302795410154E-007
3.5480996E+004	1.4067130E+002	1.2642885E+001	1.4123830E+002	-5.1356812E+000	1.844149386257050E+001	3.3149729E+000	1.4374723E-003	3.5479552E-001	2.8429262E-003	1.000000000000000E+000	11	1.3002121E-001	9.2058041E-004	2.595937605837308E-006	-2.3088411E-004	7.0518092E-003	6.3378399E-004	7.0802327E-003	5.1356812E+000	1.080701950135537E-006
3.1621143E+004	1.4135951E+002	1.2316492E+001	1.4189507E+002	-4.9795399E+000	1.890148831109400E+001	3.3149862E+000	1.3769428E-003	4.0865380E-001	3.0788961E-003	1.000000000000000E+000	11	1.3720046E-001	9.6691499E-004	3.080951826475535E-006	9.5116266E-006	7.0208623E-003	6.1171962E-004	7.0474613E-003	4.9795399E+000	4.850142206382265E-007
2.8188096E+004	1.4202078E+002	1.2049248E+001	1.4253101E+002	-4.8494434E+000	1.949648151264410E+001	3.3149912E+000	1.3333609E-003	4.6859157E-001	3.3488495E-003	1.000000000000000E+000	11	1.2958816E-001	9.0919278E-004	2.291402269872681E-006	-1.5075220E-004	6.9909017E-003	5.9311819E-004	7.0160171E-003	4.8494434E+000	-7.895495566028533E-007
2.5116910E+004	1.4265379E+002	1.1829507E+001	1.4314343E+002	-4.7403831E+000	1.995648553452338E+001	3.3150027E+000	1.3672569E-003	5.3565758E-001	3.6582863E-003	1.000000000000000E+000	11	1.3493153E-001	9.4263168E-004	1.810825974686951E-006	-3.1101602E-004	6.9621033E-003	5.7732954E-004	6.9859996E-003	4.7403831E+000	-4.805762951857306E-007
2.2389027E+004	1.4326105E+002	1.1670352E+001	1.4373561E+002	-4.6571536E+000	2.041647787639522E+001	3.3149922E+000	1.3171578E-003	6.0911733E-001	4.0155044E-003	1.000000000000000E+000	11	1.3963491E-001	9.7147055E-004	2.244679313579885E-006	-6.3154369E-004	6.9342479E-003	5.6487875E-004	6.9572181E-003	4.6571536E+000	4.338533388929340E-007
1.9948783E+004	1.4388203E+002	1.1573342E+001	1.4434674E+002	-4.5987611E+000	2.101148153128452E+001	3.3150218E+000	1.4073002E-003	6.8935817E-001	4.4314777E-003	1.000000000000000E+000	11	1.2953173E-001	8.9736510E-004	1.888034481325627E-006	-4.7127984E-004	6.9054598E-003	5.5544981E-004	6.9277631E-003	4.5987611E+000	-3.566448322542582E-007
1.7786895E+004	1.4446915E+002	1.1521927E+001	1.4492787E+002	-4.5598903E+000	2.147148432649556E+001	3.3150122E+000	1.2992779E-003	7.7659553E-001	4.9084155E-003	1.000000000000000E+000	11	1.3264287E-001	9.1523369E-004	1.296321686590090E-006	-3.1101602E-004	6.8781441E-003	5.4855639E-004	6.8999841E-003	4.5598903E+000	-5.917127947355361E-007
1.5847686E+004	1.4506628E+002	1.1532344E+001	1.4552396E+002	-4.5452871E+000	2.193148933499469E+001	3.3150232E+000	1.2759970E-003	8.7083662E-001	5.4689366E-003	1.000000000000000E+000	11	1.3529128E-001	9.2968385E-004	7.273912736127386E-007	-6.3154369E-004	6.8501094E-003	5.4456358E-004	6.8717208E-003	4.5452871E+000	-5.689304129773519E-007
1.4121879E+004	1.4567377E+002	1.1603330E+001	1.4613516E+002	-4.5541563E+000	2.239148159683100E+001	3.3150120E+000	1.3085898E-003	9.7128129E-001	6.1235153E-003	1.000000000000000E+000	11	1.3749412E-001	9.4086950E-004	1.220455313347177E-006	-3.9114794E-004	6.8213749E-003	5.4334186E-004	6.8429802E-003	4.5541563E+000	4.930640397344380E-007
1.2590932E+004	1.4627960E+002	1.1724620E+001	1.4674873E+002	-4.5825815E+000	2.285147713866900E+001	3.3150136E+000	1.3264687E-003	1.0781111E+000	6.8819625E-003	1.000000000000000E+000	11	1.3928495E-001	9.4913907E-004	6.296380495445596E-007	-7.0620285E-005	6.7925849E-003	5.4444006E-004	6.8143690E-003	4.5825815E+000	-5.908172638026169E-007
1.1217711E+004	1.4689954E+002	1.1923149E+001	1.4738261E+002	-4.6402588E+000	2.331049641381833E+001	3.3150303E+000	1.3259108E-003	1.1899396E+000	7.7877925E-003	1.000000000000000E+000	11	1.4075357E-001	9.5502153E-004	1.674767112094236E-006	-1.5075220E-004	6.7628212E-003	5.4890657E-004	6.7850607E-003	4.6402588E+000	1.045129062549677E-006
1.0002229E+004	1.4754755E+002	1.2161990E+001	1.4804794E+002	-4.7121010E+000	2.390649393547210E+001	3.3150492E+000	1.4298355E-003	1.3083341E+000	8.8292379E-003	1.000000000000000E+000	11	1.2940946E-001	8.7410514E-004	5.339529747725464E-007	-6.3154369E-004	6.7317388E-003	5.5488106E-004	6.7545688E-003	4.7121010E+000	-1.140814137321690E-006
8.9149297E+003	1.4821597E+002	1.2459168E+001	1.4873871E+002	-4.8050385E+000	2.438890638508019E+001	3.3150706E+000	1.5384174E-003	1.4328910E+000	1.0054101E-002	1.000000000000000E+000	11	1.3026957E-001	8.7582832E-004	1.307478451011573E-006	-4.7127984E-004	6.6995709E-003	5.6317198E-004	6.7231995E-003	4.8050385E+000	7.735254762390266E-007
7.9439976E+003	1.4891550E+002	1.2829759E+001	1.4946715E+002	-4.9241371E+000	2.491499425008078E+001	3.3150752E+000	1.5322713E-003	1.5615739E+000	1.1505567E-002	1.000000000000000E+000	11	1.3094622E-001	8.7608700E-004	1.020053915162053E-006	-2.3088411E-004	6.6657402E-003	5.7428435E-004	6.6904332E-003	4.9241371E+000	-2.874245358495198E-007
7.0822334E+003	1.4965375E+002	1.3250057E+001	1.5023917E+002	-5.0596657E+000	2.549185857080738E+001	3.3150933E+000	1.4972572E-003	1.6960245E+000	1.3191717E-002	1.000000000000000E+000	11	1.3148576E-001	8.7517634E-004	4.795900316094048E-007	9.5116266E-006	6.6301180E-003	5.8701797E-004	6.6560539E-003	5.0596657E+000	-5.404638835526485E-007
6.3077344E+003	1.5045868E+002	1.3723840E+001	1.5108328E+002	-5.2117181E+000	2.612553769422811E+001	3.3150978E+000	1.4359819E-003	1.8385315E+000	1.5170138E-002	1.000000000000000E+000	11	1.3192207E-001	8.7317452E-004	1.201429013036735E-006	9.5116266E-006	6.5915021E-003	6.0123298E-004	6.6188658E-003	5.2117181E+000	7.218389814273299E-007
5.6210552E+003	1.5130304E+002	1.4251989E+001	1.5197279E+002	-5.3810983E+000	2.682625719413045E+001	3.3151112E+000	1.4693192E-003	1.9866748E+000	1.7472139E-002	1.000000000000000E+000	11	1.3225228E-001	8.7023649E-004	2.019215714694130E-006	-5.5141177E-004	6.5511260E-003	6.1708328E-004	6.5801251E-003	5.3810983E+000	8.177867016573954E-007
5.0116035E+003	1.5220522E+002	1.4819403E+001	1.5292496E+002	-5.5610533E+000	2.758667021698784E+001	3.3151088E+000	1.4780724E-003	2.1429534E+000	2.0124143E-002	1.000000000000000E+000	11	1.3250785E-001	8.6648931E-004	2.978104182337928E-006	9.5116266E-006	6.5083783E-003	6.3368579E-004	6.5391548E-003	5.5610533E+000	9.588884676437980E-007
4.4664292E+003	1.5318839E+002	1.5424374E+001	1.5396295E+002	-5.7496724E+000	2.834570419970260E+001	3.3151078E+000	1.4240614E-003	2.3102136E+000	2.3186477E-002	1.000000000000000E+000	11	1.3270289E-001	8.6191442E-004	2.616480565118966E-006	-2.3088411E-004	6.4623933E-003	6.5069145E-004	6.4950692E-003	5.7496724E+000	-3.616236172189623E-007
3.9812742E+003	1.5423990E+002	1.6076880E+001	1.5507550E+002	-5.9506207E+000	2.910569954246603E+001	3.3151145E+000	1.5484734E-003	2.4865448E+000	2.6724735E-002	1.000000000000000E+000	11	1.3285238E-001	8.5669482E-004	3.414233495520118E-006	2.4990735E-004	6.4137252E-003	6.6852156E-004	6.4484719E-003	5.9506207E+000	7.977529304011518E-007
3.5465955E+003	1.5538609E+002	1.6752739E+001	1.5628658E+002	-6.1534972E+000	2.986594693854568E+001	3.3151090E+000	1.4665248E-003	2.6786914E+000	3.0778749E-002	1.000000000000000E+000	11	1.3296114E-001	8.5075217E-004	3.713509140277488E-006	-3.1101602E-004	6.3616359E-003	6.8587105E-004	6.3985023E-003	6.1534972E+000	2.992756447573707E-007
3.1610112E+003	1.5661458E+002	1.7459887E+001	1.5758481E+002	-6.3612471E+000	3.062566601466096E+001	3.3151031E+000	1.4579585E-003	2.8837173E+000	3.5400290E-002	1.000000000000000E+000	11	1.3304049E-001	8.4424694E-004	4.009005084556217E-006	9.5116266E-006	6.3067190E-003	7.0309290E-004	6.3457894E-003	6.3612471E+000	2.954959442787290E-007
2.8172952E+003	1.5792674E+002	1.8158802E+001	1.5896729E+002	-6.5592031E+000	3.138597034409759E+001	3.3151057E+000	1.4253645E-003	3.1110041E+000	4.0593777E-002	1.000000000000000E+000	11	1.3309461E-001	8.3724526E-004	5.075492176861088E-006	-5.5141177E-004	6.2494264E-003	7.1857427E-004	6.2906025E-003	6.5592031E+000	1.066487092304871E-006
