EC-Lab ASCII FILE
Nb header lines : 60                          

Potentio Electrochemical Impedance Spectroscopy

Run on channel : 13 (SN 41494)
User : 
CE vs. WE compliance from -10 V to 10 V
Electrode connection : standard
Ewe ctrl range : min = -10.00 V, max = 10.00 V
Acquisition started on : 12/03/2020 16:52:36
Technique started on : 12/03/2020 16:52:37
Saved on :
	File : DE_206_13_30.mpr
	Directory : P:\Chemistry\Data\VMP3\Kyler\DOE\DE_206\
	Host : 10.0.4.64
Device : VMP3 (SN 1432)
Address : USB
EC-Lab for windows v11.33 (software)
Internet server v11.32 (firmware)
Command interpretor v11.33 (firmware)
Electrode material : 
Initial state : 
Electrolyte : 
Comments : 
Electrode surface area : 0.001 cm²
Characteristic mass : 0.001 g
Equivalent Weight : 0.000 g/eq.
Density : 0.000 g/cm3
Record Analogic IN 1
Cycle Definition : Charge/Discharge alternance
Mode                Single sine         
E (V)               0.0000              
vs.                 Eoc                 
tE (h:m:s)          0:00:0.0000         
record              0                   
dI                  1.000               
unit dI             mA                  
dt (s)              0.000               
fi                  1.000               
unit fi             MHz                 
ff                  1.000               
unit ff             Hz                  
Nd                  20                  
Points              per decade          
spacing             Logarithmic         
Va (mV)             128.0               
pw                  0.50                
Na                  3                   
corr                0                   
E range min (V)     -10.000             
E range max (V)     10.000              
I Range             Auto                
Bandwidth           5                   
nc cycles           0                   
goto Ns'            0                   
nr cycles           0                   
inc. cycle          1                   

freq/Hz	Re(Z)/Ohm	-Im(Z)/Ohm	|Z|/Ohm	Phase(Z)/deg	time/s	<Ewe>/V	<I>/mA	Cs/µF	Cp/µF	cycle number	I Range	|Ewe|/V	|I|/A	(Q-Qo)/mA.h	Analog IN 1/V	Re(Y)/Ohm-1	Im(Y)/Ohm-1	|Y|/Ohm-1	Phase(Y)/deg	dq/mA.h	
1.0000186E+006	-5.2425319E-001	-3.4144325E+000	3.4544451E+000	9.8729042E+001	1.941600092250155E+000	3.3019803E+000	2.8056659E-002	-4.6611547E-002	-4.5538004E-002	1.000000000000000E+000	9	8.8981709E-005	2.5758611E-005	2.983278692328086E-006	-3.9277249E-004	-4.3932337E-002	-2.8612903E-001	2.8948209E-001	-9.8729042E+001	2.983278692328086E-006
8.9124669E+005	8.2204118E-002	-4.0919833E+000	4.0928087E+000	8.8849136E+001	2.270600107876817E+000	3.3014438E+000	1.9096162E-002	-4.3640364E-002	-4.3622762E-002	1.000000000000000E+000	9	8.3267892E-005	2.0344927E-005	5.818414912164573E-006	-5.5306475E-004	4.9073901E-003	-2.4428169E-001	2.4433099E-001	-8.8849136E+001	2.835136219836487E-006
7.9433269E+005	-2.1676011E+000	-3.3092065E+000	3.9559250E+000	1.2322565E+002	2.599600123503478E+000	3.3011544E+000	1.7158760E-002	-6.0547169E-002	-4.2368732E-002	1.000000000000000E+000	9	3.1512234E-005	7.9658321E-006	8.516167723407206E-006	-1.5233411E-004	-1.3851067E-001	-2.1145979E-001	2.5278538E-001	-1.2322565E+002	2.697752811242632E-006
7.0794981E+005	3.2620296E-001	-3.8099647E+000	3.8239036E+000	8.5106361E+001	3.304477410245454E+000	3.3010159E+000	9.5768031E-003	-5.9006073E-002	-5.8576677E-002	1.000000000000000E+000	9	1.0011598E-004	2.6181617E-005	1.286679625908275E-005	-7.2187977E-005	2.2308696E-002	-2.6055959E-001	2.6151288E-001	-8.5106361E+001	4.350628535675544E-006
6.3095681E+005	2.1565118E+000	-4.4319696E+000	4.9287825E+000	6.4053329E+001	3.900489038584055E+000	3.3009667E+000	1.4383058E-002	-5.6914605E-002	-4.6019085E-002	1.000000000000000E+000	9	3.2973624E-004	6.6900138E-005	1.425670053263861E-005	-5.5306475E-004	8.8771291E-002	-1.8243891E-001	2.0288986E-001	-6.4053329E+001	1.389904273555861E-006
5.6234225E+005	2.7023776E+000	-4.0355806E+000	4.8568258E+000	5.6192238E+001	4.495480026846053E+000	3.3009565E+000	1.2874121E-002	-7.0131548E-002	-4.8419509E-002	1.000000000000000E+000	9	6.8436895E-004	1.4090868E-004	1.676860734025508E-005	-3.9277249E-004	1.1456211E-001	-1.7108069E-001	2.0589580E-001	-5.6192238E+001	2.511906807616469E-006
5.0120619E+005	2.9653716E+000	-3.5341063E+000	4.6133866E+000	5.0000908E+001	5.092495228542248E+000	3.3009737E+000	6.4471578E-003	-8.9851245E-002	-5.2728280E-002	1.000000000000000E+000	9	1.1677321E-003	2.5311820E-004	1.897184162467683E-005	-3.1262636E-004	1.3932833E-001	-1.6605039E-001	2.1676050E-001	-5.0000908E+001	2.203234284421747E-006
4.4668572E+005	3.2852180E+000	-3.0437858E+000	4.4785366E+000	4.2815399E+001	5.687482083420036E+000	3.3010018E+000	4.0626656E-003	-1.1705878E-001	-5.4070435E-002	1.000000000000000E+000	9	1.8025445E-003	4.0248514E-004	2.054979888951897E-005	-9.5379539E-004	1.6379173E-001	-1.5175459E-001	2.2328722E-001	-4.2815399E+001	1.577957264842147E-006
3.9810347E+005	3.5008607E+000	-2.6519945E+000	4.3919358E+000	3.7144890E+001	6.283484965068055E+000	3.3010075E+000	4.0440378E-003	-1.5074800E-001	-5.4964822E-002	1.000000000000000E+000	9	2.6221124E-003	5.9702888E-004	2.334727815379220E-005	-3.9277249E-004	1.8149425E-001	-1.3748668E-001	2.2769003E-001	-3.7144890E+001	2.797479264273230E-006
3.5480997E+005	3.5954320E+000	-2.2779918E+000	4.2563338E+000	3.2357506E+001	6.879491500061704E+000	3.3009951E+000	-1.3210747E-003	-1.9691201E-001	-5.6403376E-002	1.000000000000000E+000	9	3.6410494E-003	8.5544266E-004	2.357481621569928E-005	-3.9277249E-004	1.9846307E-001	-1.2574212E-001	2.3494397E-001	-3.2357506E+001	2.275380619070747E-007
3.1622997E+005	3.6588819E+000	-1.9209245E+000	4.1324773E+000	2.7699614E+001	7.474477154988563E+000	3.3009989E+000	-1.8799369E-003	-2.6200333E-001	-5.6611735E-002	1.000000000000000E+000	9	4.9409936E-003	1.1956493E-003	2.389551926778060E-005	-2.3248023E-004	2.1425328E-001	-1.1248364E-001	2.4198560E-001	-2.7699614E+001	3.207030520813251E-007
2.8183453E+005	3.7339005E+000	-1.5961843E+000	4.0607657E+000	2.3145952E+001	8.069478756602621E+000	3.3009548E+000	-3.8173436E-003	-3.5378784E-001	-5.4662950E-002	1.000000000000000E+000	9	6.6047725E-003	1.6264846E-003	2.371125557481880E-005	-6.3321088E-004	2.2643673E-001	-9.6798174E-002	2.4625897E-001	-2.3145952E+001	-1.842636929618009E-007
2.5118764E+005	3.7830696E+000	-1.3169054E+000	4.0057278E+000	1.9193262E+001	8.665478704875568E+000	3.3009348E+000	-3.8173345E-003	-4.8113540E-001	-5.2001223E-002	1.000000000000000E+000	9	8.7889042E-003	2.1940842E-003	2.059784537580951E-005	-7.9350313E-004	2.3576616E-001	-8.2071371E-002	2.4964252E-001	-1.9193262E+001	-3.113410199009294E-006
2.2387173E+005	3.8247607E+000	-1.0505018E+000	3.9664025E+000	1.5358043E+001	9.260495666501811E+000	3.3009079E+000	-5.1213126E-003	-6.7674345E-001	-4.7470532E-002	1.000000000000000E+000	9	1.1719889E-002	2.9547906E-003	1.679035272899394E-005	-3.9277249E-004	2.4311441E-001	-6.6773370E-002	2.5211763E-001	-1.5358043E+001	-3.807492646815567E-006
1.9954350E+005	3.8693225E+000	-8.0952317E-001	3.9530981E+000	1.1816735E+001	9.857487988163484E+000	3.3009186E+000	4.5098895E-003	-9.8526555E-001	-4.1317750E-002	1.000000000000000E+000	9	1.5779063E-002	3.9915689E-003	1.129430195006232E-005	-3.1262636E-004	2.4760520E-001	-5.1802907E-002	2.5296617E-001	-1.1816735E+001	-5.496050778931627E-006
1.7783180E+005	3.9110217E+000	-5.9634185E-001	3.9562247E+000	8.6695280E+000	1.045249713645899E+001	3.3009205E+000	5.9780583E-004	-1.5007744E+000	-3.4099195E-002	1.000000000000000E+000	9	2.1549286E-002	5.4469318E-003	1.639730619543439E-005	-2.3248023E-004	2.4987817E-001	-3.8100738E-002	2.5276622E-001	-8.6695280E+000	5.103004245372075E-006
1.5848613E+005	3.9463975E+000	-3.9315420E-001	3.9659328E+000	5.6892381E+000	1.104747436472098E+001	3.3008964E+000	1.8646419E-003	-2.5542650E+000	-2.5101582E-002	1.000000000000000E+000	9	2.9897757E-002	7.5386441E-003	2.860013093618262E-006	-1.0339415E-003	2.5090548E-001	-2.4996098E-002	2.5214750E-001	-5.6892381E+000	-1.353729310181613E-005
1.4125594E+005	3.9801610E+000	-2.0421201E-001	3.9853964E+000	2.9371262E+000	1.164249351297622E+001	3.3008831E+000	-5.6054411E-003	-5.5173707E+000	-1.4486105E-002	1.000000000000000E+000	9	4.2324007E-002	1.0619774E-002	-1.600887444475666E-005	-7.1335700E-004	2.5058645E-001	-1.2856958E-002	2.5091606E-001	-2.9371262E+000	-1.886888753837492E-005
1.2590930E+005	4.0144305E+000	-2.4011107E-002	4.0145025E+000	3.4269336E-001	1.223948476798250E+001	3.3009140E+000	7.6957354E-003	-5.2644154E+001	-1.8832634E-003	1.000000000000000E+000	9	6.5370098E-002	1.6283486E-002	1.278620017982191E-005	-2.3248023E-004	2.4909241E-001	-1.4898713E-003	2.4909687E-001	-3.4269336E-001	2.879507462457857E-005
1.1220494E+005	4.0520716E+000	1.4850298E-001	4.0547919E+000	-2.0988741E+000	1.297148565607495E+001	3.3010356E+000	3.7223034E-002	9.5515308E+000	1.2811682E-002	1.000000000000000E+000	9	1.5079927E-001	3.7190385E-002	1.074336660730963E-005	-3.1262636E-004	2.4645631E-001	9.0322932E-003	2.4662177E-001	2.0988741E+000	-2.042833572512285E-006
1.0000371E+005	4.0815573E+000	3.2597241E-001	4.0945535E+000	-4.5662193E+000	1.411047597686411E+001	3.3011744E+000	4.4953845E-002	4.8822856E+000	3.0943664E-002	1.000000000000000E+000	9	1.1626349E-001	2.8394667E-002	4.530224467063737E-005	-7.9350313E-004	2.4345170E-001	1.9443201E-002	2.4422687E-001	4.5662193E+000	3.455887806332774E-005
8.9129305E+004	4.1151767E+000	5.0042677E-001	4.1454921E+000	-6.9334207E+000	1.470548336513457E+001	3.3011928E+000	4.4748902E-002	3.5682812E+000	5.1998161E-002	1.000000000000000E+000	9	1.1976922E-001	2.8891437E-002	-1.684936523463370E-005	-7.2187977E-005	2.3946182E-001	2.9119799E-002	2.4122588E-001	6.9334207E+000	-6.215160990527107E-005
7.9433273E+004	4.1527681E+000	6.7571712E-001	4.2073836E+000	-9.2418804E+000	1.530149027341395E+001	3.3012054E+000	3.6049236E-002	2.9651916E+000	7.6481849E-002	1.000000000000000E+000	9	1.2870935E-001	3.0591302E-002	-1.946467538271099E-005	-3.9277249E-004	2.3459214E-001	3.8171630E-002	2.3767740E-001	9.2418804E+000	-2.615310148077293E-006
7.0794977E+004	4.1938210E+000	8.5499340E-001	4.2800875E+000	-1.1522968E+001	1.589749262170517E+001	3.3012748E+000	5.9316728E-002	2.6293893E+000	1.0492408E-001	1.000000000000000E+000	9	1.3350751E-001	3.1192705E-002	-4.892597925533644E-005	-5.5306475E-004	2.2893101E-001	4.6672117E-002	2.3364009E-001	1.1522968E+001	-2.946130387262545E-005
6.3093828E+004	4.2382836E+000	1.0394561E+000	4.3638878E+000	-1.3780030E+001	1.649447249007062E+001	3.3012598E+000	4.4935290E-002	2.4267614E+000	1.3768679E-001	1.000000000000000E+000	9	1.3505030E-001	3.0947244E-002	-5.600373022097887E-005	-3.9277249E-004	2.2255783E-001	5.4583203E-002	2.2915347E-001	1.3780030E+001	-7.077750965642427E-006
5.6237012E+004	4.2873240E+000	1.2297816E+000	4.4602141E+000	-1.6005077E+001	1.709048926507239E+001	3.3012402E+000	3.7558191E-002	2.3012824E+000	1.7495021E-001	1.000000000000000E+000	9	1.3454138E-001	3.0164780E-002	-1.018681568964902E-004	-3.1262636E-004	2.1551371E-001	6.1818227E-002	2.2420448E-001	1.6005077E+001	-4.586442667551132E-005
5.0122477E+004	4.3417659E+000	1.4292697E+000	4.5709672E+000	-1.8221073E+001	1.768648558671703E+001	3.3012812E+000	4.7114786E-002	2.2216387E+000	2.1721289E-001	1.000000000000000E+000	9	1.3304399E-001	2.9106310E-002	-1.399613358445155E-004	-7.2187977E-005	2.0780222E-001	6.8406597E-002	2.1877208E-001	1.8221073E+001	-3.809317894802533E-005
4.4666715E+004	4.4030261E+000	1.6385193E+000	4.6980190E+000	-2.0411985E+001	1.814648824857431E+001	3.3012810E+000	3.6440399E-002	2.1746259E+000	2.6451975E-001	1.000000000000000E+000	9	1.3668190E-001	2.9093519E-002	-1.482778632524423E-004	-4.7291862E-004	1.9949026E-001	7.4237265E-002	2.1285567E-001	2.0411985E+001	-8.316527407926813E-006
3.9814063E+004	4.4656363E+000	1.8628228E+000	4.8385963E+000	-2.2643267E+001	1.860648909708834E+001	3.3010092E+000	-7.0952461E-003	2.1459131E+000	3.1806538E-001	1.000000000000000E+000	9	1.3816607E-001	2.8554991E-002	-1.424422946358617E-004	-6.3321088E-004	1.9074121E-001	7.9566956E-002	2.0667151E-001	2.2643267E+001	5.835568616580647E-006
3.5480996E+004	4.5596266E+000	2.0773201E+000	5.0105343E+000	-2.4493532E+001	1.936848721324350E+001	3.3013425E+000	-9.7996872E-003	2.1593394E+000	3.7115872E-001	1.000000000000000E+000	10	1.1844144E-001	2.3638485E-002	-1.187719990429468E-004	-5.5306475E-004	1.8161896E-001	8.2743771E-002	1.9957951E-001	2.4493532E+001	2.367029559291485E-005
3.1621143E+004	4.6432614E+000	2.3310969E+000	5.1955643E+000	-2.6658421E+001	1.982849296843051E+001	3.3013370E+000	-9.2349891E-003	2.1591473E+000	4.3464777E-001	1.000000000000000E+000	10	1.3511236E-001	2.6005330E-002	-1.417719300480870E-004	-5.5306475E-004	1.7201158E-001	8.6356468E-002	1.9247188E-001	2.6658421E+001	-2.299993100514016E-005
2.8188096E+004	4.7358623E+000	2.6023629E+000	5.4037657E+000	-2.8788855E+001	2.042447662338964E+001	3.3013461E+000	-1.0144370E-002	2.1696343E+000	5.0318676E-001	1.000000000000000E+000	10	1.3208643E-001	2.4443405E-002	-1.821176664347553E-004	-4.7291862E-004	1.6218327E-001	8.9119926E-002	1.8505614E-001	2.8788855E+001	-4.034573638666834E-005
2.5116910E+004	4.8408127E+000	2.8950093E+000	5.6404386E+000	-3.0881195E+001	2.102048747838126E+001	3.3013461E+000	-1.1465367E-002	2.1887891E+000	5.7660460E-001	1.000000000000000E+000	10	1.3127106E-001	2.3273202E-002	-2.321781599617356E-004	1.6825041E-004	1.5215722E-001	9.0996400E-002	1.7729118E-001	3.0881195E+001	-5.006049352698029E-005
2.2389027E+004	4.9583659E+000	3.2090492E+000	5.9062161E+000	-3.2910900E+001	2.161647716004518E+001	3.3013513E+000	-9.5593454E-003	2.2151775E+000	6.5394711E-001	1.000000000000000E+000	10	1.3064902E-001	2.2120595E-002	-2.583669413119658E-004	-4.7291862E-004	1.4214118E-001	9.1993608E-002	1.6931313E-001	3.2910900E+001	-2.618878135023019E-005
1.9948783E+004	5.0923400E+000	3.5481951E+000	6.2065783E+000	-3.4867668E+001	2.221248788168305E+001	3.3013525E+000	-1.0966044E-002	2.2485173E+000	7.3486364E-001	1.000000000000000E+000	10	1.2998503E-001	2.0943107E-002	-2.945674607108813E-004	-7.1335700E-004	1.3219436E-001	9.2109203E-002	1.6111937E-001	3.4867668E+001	-3.620051939891544E-005
1.7786895E+004	5.2415609E+000	3.9121881E+000	6.5405793E+000	-3.6736866E+001	2.267248427684535E+001	3.3013530E+000	-1.0574773E-002	2.2871797E+000	8.1829011E-001	1.000000000000000E+000	10	1.3733163E-001	2.0996861E-002	-3.029193243259668E-004	-6.3321088E-004	1.2252598E-001	9.1450751E-002	1.5289165E-001	3.6736866E+001	-8.351863615085507E-006
1.5847686E+004	5.4105167E+000	4.3084297E+000	6.9163761E+000	-3.8530537E+001	2.326848206514842E+001	3.3013463E+000	-1.3019330E-002	2.3309624E+000	9.0451568E-001	1.000000000000000E+000	10	1.2980850E-001	1.8768283E-002	-3.044157015938416E-004	-2.3248023E-004	1.1310493E-001	9.0066195E-002	1.4458439E-001	3.8530537E+001	-1.496377267874791E-006
1.4121879E+004	5.5975657E+000	4.7306938E+000	7.3288612E+000	-4.0202293E+001	2.372848814036115E+001	3.3013420E+000	-1.2833044E-002	2.3823349E+000	9.9261194E-001	1.000000000000000E+000	10	1.3196711E-001	1.8006496E-002	-3.005233972146590E-004	-5.5306475E-004	1.0421403E-001	8.8074841E-002	1.3644685E-001	4.0202293E+001	3.892304379182580E-006
1.2590932E+004	5.7968345E+000	5.1709952E+000	7.7680421E+000	-4.1734165E+001	2.418749666880467E+001	3.3013489E+000	-1.2942989E-002	2.4444892E+000	1.0832115E+000	1.000000000000000E+000	10	1.3241543E-001	1.7046178E-002	-2.848162620912513E-004	-3.9277249E-004	9.6065566E-002	8.5694104E-002	1.2873256E-001	4.1734165E+001	1.570713512340769E-005
1.1217711E+004	6.0342069E+000	5.6600828E+000	8.2733421E+000	-4.3167618E+001	2.464649277061108E+001	3.3013415E+000	-1.2883414E-002	2.5066466E+000	1.1732126E+000	1.000000000000000E+000	10	1.3171400E-001	1.5920289E-002	-2.837154846358527E-004	-6.3321088E-004	8.8157289E-002	8.2691491E-002	1.2087014E-001	4.3167618E+001	1.100777455398589E-006
1.0002229E+004	6.3020458E+000	6.1836538E+000	8.8291197E+000	-4.4456726E+001	2.510548620574991E+001	3.3013370E+000	-1.3965914E-002	2.5732272E+000	1.2622160E+000	1.000000000000000E+000	10	1.3032976E-001	1.4761354E-002	-2.870604302668427E-004	-7.9350313E-004	8.0843806E-002	7.9325050E-002	1.1326157E-001	4.4456726E+001	-3.344945630989976E-006
8.9149297E+003	6.6060548E+000	6.7492332E+000	9.4441576E+000	-4.5614231E+001	2.558790724203573E+001	3.3013589E+000	-6.6733919E-003	2.6451347E+000	1.3509218E+000	1.000000000000000E+000	10	1.2863496E-001	1.3620586E-002	-2.959466594998311E-004	-3.1262636E-004	7.4065454E-002	7.5670741E-002	1.0588557E-001	4.5614231E+001	-8.886229232988436E-006
7.9439976E+003	6.9493256E+000	7.3559227E+000	1.0119423E+001	-4.6628075E+001	2.611399532033829E+001	3.3013785E+000	-9.6094859E-004	2.7236035E+000	1.4391521E+000	1.000000000000000E+000	10	1.2686288E-001	1.2536573E-002	-2.857571683733776E-004	-1.5233411E-004	6.7862704E-002	7.1833275E-002	9.8819867E-002	4.6628075E+001	1.018949112645355E-005
7.0822334E+003	7.3337846E+000	8.0026770E+000	1.0854825E+001	-4.7497345E+001	2.669086180109298E+001	3.3013892E+000	1.7443973E-003	2.8081133E+000	1.5262986E+000	1.000000000000000E+000	10	1.2517762E-001	1.1531980E-002	-2.876485842549397E-004	-3.1262636E-004	6.2241849E-002	6.7918740E-002	9.2124932E-002	4.7497345E+001	-1.891415881562165E-006
6.3077344E+003	7.7693057E+000	8.6963263E+000	1.1661398E+001	-4.8222370E+001	2.732454889782821E+001	3.3013904E+000	3.0579439E-003	2.9014220E+000	1.6135459E+000	1.000000000000000E+000	10	1.2364900E-001	1.0603274E-002	-2.905561964772124E-004	-7.2187977E-005	5.7132199E-002	6.3949123E-002	8.5753009E-002	4.8222370E+001	-2.907612222272679E-006
5.6210552E+003	8.2554274E+000	9.4295940E+000	1.2532730E+001	-4.8798481E+001	2.802525362445158E+001	3.3014166E+000	6.4023612E-003	3.0026815E+000	1.6998237E+000	1.000000000000000E+000	10	1.2228296E-001	9.7570885E-003	-2.855027234195214E-004	-3.1262636E-004	5.2559134E-002	6.0034603E-002	7.9791076E-002	4.8798481E+001	5.053473057690982E-006
5.0116035E+003	8.7975445E+000	1.0203931E+001	1.3472824E+001	-4.9233006E+001	2.878566694060282E+001	3.3014514E+000	9.2921704E-003	3.1122601E+000	1.7852278E+000	1.000000000000000E+000	10	1.2110346E-001	8.9887213E-003	-2.863934325467045E-004	-2.3248023E-004	4.8466783E-002	5.6214742E-002	7.4223489E-002	4.9233006E+001	-8.907091271830535E-007
4.4664292E+003	9.4050369E+000	1.1027928E+001	1.4493789E+001	-4.9541191E+001	2.954569228336914E+001	3.3014498E+000	8.9101922E-003	3.2312140E+000	1.8706380E+000	1.000000000000000E+000	10	1.2009639E-001	8.2860589E-003	-2.910714142510616E-004	-3.1262636E-004	4.4770986E-002	5.2496467E-002	6.8995073E-002	4.9541191E+001	-4.677981704357098E-006
3.9812742E+003	1.0081042E+001	1.1891971E+001	1.5589945E+001	-4.9711441E+001	3.030469253275078E+001	3.3014450E+000	8.9101922E-003	3.3615859E+000	1.9559723E+000	1.000000000000000E+000	10	1.1924576E-001	7.6488890E-003	-2.896891669135334E-004	-3.1262636E-004	4.1477855E-002	4.8928812E-002	6.4143911E-002	4.9711441E+001	1.382247337528193E-006
3.5465955E+003	1.0837413E+001	1.2804699E+001	1.6775274E+001	-4.9756683E+001	3.106496382216574E+001	3.3014455E+000	9.1020735E-003	3.5046051E+000	2.0419195E+000	1.000000000000000E+000	10	1.1851875E-001	7.0650852E-003	-2.932933913215270E-004	-7.1335700E-004	3.8511142E-002	4.5501959E-002	5.9611544E-002	4.9756683E+001	-3.604224407993640E-006
3.1610112E+003	1.1670573E+001	1.3750729E+001	1.8035654E+001	-4.9677937E+001	3.182471337827883E+001	3.3014495E+000	9.8175099E-003	3.6615791E+000	2.1284137E+000	1.000000000000000E+000	10	1.1791497E-001	6.5378821E-003	-2.950626457617101E-004	-6.3321088E-004	3.5878014E-002	4.2272892E-002	5.5445731E-002	4.9677937E+001	-1.769254440183051E-006
2.8172952E+003	1.2591969E+001	1.4733580E+001	1.9381332E+001	-4.9481335E+001	3.258494149436592E+001	3.3014464E+000	8.5877683E-003	3.8342419E+000	2.2157910E+000	1.000000000000000E+000	10	1.1741016E-001	6.0578994E-003	-2.912456270085337E-004	-7.2187977E-005	3.3521727E-002	3.9223019E-002	5.1596042E-002	4.9481335E+001	3.817018753176347E-006
