EC-Lab ASCII FILE
Nb header lines : 60                          

Potentio Electrochemical Impedance Spectroscopy

Run on channel : 4 (SN 4192)
User : 
CE vs. WE compliance from -10 V to 10 V
Electrode connection : standard
Ewe ctrl range : min = -10.00 V, max = 10.00 V
Acquisition started on : 12/03/2020 16:53:59
Technique started on : 12/03/2020 16:54:00
Saved on :
	File : DE_206_4_30.mpr
	Directory : P:\Chemistry\Data\VMP3\Kyler\DOE\DE_206\
	Host : 10.0.4.64
Device : VMP3 (SN 1432)
Address : USB
EC-Lab for windows v11.33 (software)
Internet server v11.32 (firmware)
Command interpretor v11.33 (firmware)
Electrode material : 
Initial state : 
Electrolyte : 
Comments : 
Electrode surface area : 0.001 cm²
Characteristic mass : 0.001 g
Equivalent Weight : 0.000 g/eq.
Density : 0.000 g/cm3
Record Analogic IN 1
Cycle Definition : Charge/Discharge alternance
Mode                Single sine         
E (V)               0.0000              
vs.                 Eoc                 
tE (h:m:s)          0:00:0.0000         
record              0                   
dI                  1.000               
unit dI             mA                  
dt (s)              0.000               
fi                  1.000               
unit fi             MHz                 
ff                  1.000               
unit ff             Hz                  
Nd                  20                  
Points              per decade          
spacing             Logarithmic         
Va (mV)             128.0               
pw                  0.50                
Na                  3                   
corr                0                   
E range min (V)     -10.000             
E range max (V)     10.000              
I Range             Auto                
Bandwidth           5                   
nc cycles           0                   
goto Ns'            0                   
nr cycles           0                   
inc. cycle          1                   

freq/Hz	Re(Z)/Ohm	-Im(Z)/Ohm	|Z|/Ohm	Phase(Z)/deg	time/s	<Ewe>/V	<I>/mA	Cs/µF	Cp/µF	cycle number	I Range	|Ewe|/V	|I|/A	(Q-Qo)/mA.h	Analog IN 1/V	Re(Y)/Ohm-1	Im(Y)/Ohm-1	|Y|/Ohm-1	Phase(Y)/deg	dq/mA.h	
1.0000186E+006	8.5833473E+001	3.6394283E+001	9.3230515E+001	-2.2977448E+001	1.949490625906037E+000	3.3255928E+000	-3.6915471E-003	4.3729944E-003	6.6639093E-004	1.000000000000000E+000	11	3.1175634E-003	3.3439304E-005	-1.630439747974227E-006	-1.3667010E-003	9.8750778E-003	4.1871350E-003	1.0726102E-002	2.2977448E+001	-1.630439747974227E-006
8.9124669E+005	9.0090042E+001	3.4534069E+001	9.6482216E+001	-2.0973246E+001	2.545473027537810E+000	3.3258543E+000	-2.0341831E-003	5.1709991E-003	6.6248403E-004	1.000000000000000E+000	11	4.4431342E-003	4.6051329E-005	-1.980683966510292E-006	-3.2418242E-004	9.6779251E-003	3.7098231E-003	1.0364604E-002	2.0973246E+001	-3.502442185360653E-007
7.9433269E+005	9.2102806E+001	3.2400730E+001	9.7635719E+001	-1.9381298E+001	3.140478655783227E+000	3.3260834E+000	-9.8560459E-004	6.1839065E-003	6.8101240E-004	1.000000000000000E+000	11	6.1395797E-003	6.2882515E-005	-2.226129898781841E-006	-5.6476361E-004	9.6617406E-003	3.3988915E-003	1.0242153E-002	1.9381298E+001	-2.454459322715494E-007
7.0794981E+005	9.4990646E+001	3.1193213E+001	9.9981194E+001	-1.8179247E+001	3.736480097431922E+000	3.3262599E+000	-2.7277868E-004	7.2070505E-003	7.0152170E-004	1.000000000000000E+000	11	8.4575908E-003	8.4591818E-005	-2.216727365030642E-006	-1.0459260E-003	9.5026381E-003	3.1204950E-003	1.0001881E-002	1.8179247E+001	9.402533751199688E-009
6.3095681E+005	9.8070885E+001	3.0302769E+001	1.0264578E+002	-1.7170544E+001	4.332493912399514E+000	3.3264029E+000	3.6001645E-004	8.3241174E-003	7.2547188E-004	1.000000000000000E+000	11	1.1353287E-002	1.1060646E-004	-1.930201384729318E-006	-2.4398866E-004	9.3080318E-003	2.8760743E-003	9.7422414E-003	1.7170544E+001	2.865259803013234E-007
5.6234225E+005	1.0076313E+002	2.9517704E+001	1.0499763E+002	-1.6327499E+001	4.928486900724238E+000	3.3264611E+000	6.7157490E-004	9.5881941E-003	7.5777969E-004	1.000000000000000E+000	11	1.4867209E-002	1.4159565E-004	-1.873551420468276E-006	-1.6379493E-004	9.1399243E-003	2.6774635E-003	9.5240241E-003	1.6327499E+001	5.664996426104242E-008
5.0120619E+005	1.0366637E+002	2.8826338E+001	1.0759960E+002	-1.5539567E+001	5.525472395733232E+000	3.3265901E+000	1.1889791E-003	1.1015754E-002	7.9062738E-004	1.000000000000000E+000	11	1.8893940E-002	1.7559489E-004	-1.488298778583865E-006	-5.6476361E-004	8.9539895E-003	2.4898211E-003	9.2937145E-003	1.5539567E+001	3.852526418844112E-007
4.4668572E+005	1.0632592E+002	2.8102901E+001	1.0997716E+002	-1.4805229E+001	6.121477997367037E+000	3.3266582E+000	1.4936525E-003	1.2678471E-002	8.2787394E-004	1.000000000000000E+000	11	2.3736345E-002	2.1582977E-004	-9.798364575221462E-007	-4.8456987E-004	8.7909177E-003	2.3235190E-003	9.0927975E-003	1.4805229E+001	5.084623210617185E-007
3.9810347E+005	1.0858468E+002	2.7279749E+001	1.1195900E+002	-1.4102562E+001	6.717475705692777E+000	3.3266864E+000	1.6440349E-003	1.4654933E-002	8.7005465E-004	1.000000000000000E+000	11	2.9198660E-002	2.6079779E-004	-7.158798923321430E-007	-3.2418242E-004	8.6626448E-003	2.1763179E-003	8.9318408E-003	1.4102562E+001	2.639565651900032E-007
3.5480997E+005	1.1086088E+002	2.6465342E+001	1.1397609E+002	-1.3426679E+001	7.313488533982309E+000	3.3267133E+000	1.5738700E-003	1.6949106E-002	9.1384875E-004	1.000000000000000E+000	11	3.5531905E-002	3.1174876E-004	-2.013002731495766E-007	-5.6476361E-004	8.5339639E-003	2.0372767E-003	8.7737702E-003	1.3426679E+001	5.145796191825664E-007
3.1622997E+005	1.1310954E+002	2.5632704E+001	1.1597760E+002	-1.2768613E+001	7.908475442294730E+000	3.3267555E+000	1.6529723E-003	1.9634629E-002	9.5909869E-004	1.000000000000000E+000	11	4.2780995E-002	3.6887292E-004	5.317524144079976E-007	-7.2515110E-004	8.4091285E-003	1.9056634E-003	8.6223548E-003	1.2768613E+001	7.330526875575742E-007
2.8183453E+005	1.1492314E+002	2.4743492E+001	1.1755666E+002	-1.2150566E+001	8.504485043900786E+000	3.3267498E+000	1.6356651E-003	2.2822589E-002	1.0110961E-003	1.000000000000000E+000	11	5.0973926E-002	4.3361154E-004	6.611441093575397E-007	-2.0082509E-003	8.3159721E-003	1.7904679E-003	8.5065365E-003	1.2150566E+001	1.293916949495422E-007
2.5118764E+005	1.1678020E+002	2.3849535E+001	1.1919067E+002	-1.1542552E+001	9.099471312161768E+000	3.3267646E+000	1.6226361E-003	2.6566966E-002	1.0636953E-003	1.000000000000000E+000	11	6.0176596E-002	5.0487672E-004	1.437866936424851E-006	-7.2515110E-004	8.2202433E-003	1.6787860E-003	8.3899181E-003	1.1542552E+001	7.767228270673108E-007
2.2387173E+005	1.1849338E+002	2.2973225E+001	1.2069983E+002	-1.0972249E+001	9.694482913793763E+000	3.3267553E+000	1.7799075E-003	3.0945599E-002	1.1210616E-003	1.000000000000000E+000	11	7.0425428E-002	5.8347580E-004	2.315497840764389E-006	-3.2418242E-004	8.1335614E-003	1.5769163E-003	8.2850158E-003	1.0972249E+001	8.776309043395386E-007
1.9954350E+005	1.2028688E+002	2.2131216E+001	1.2230586E+002	-1.0425085E+001	1.029147542212741E+001	3.3267024E+000	1.7845653E-003	3.6039378E-002	1.1800306E-003	1.000000000000000E+000	11	8.1787840E-002	6.6871563E-004	3.070011520237636E-006	-2.4398866E-004	8.0412533E-003	1.4794855E-003	8.1762234E-003	1.0425085E+001	7.545136794732469E-007
1.7783180E+005	1.2184646E+002	2.1296576E+001	1.2369359E+002	-9.9141293E+000	1.088649163706577E+001	3.3267055E+000	1.5126526E-003	4.2024344E-002	1.2457363E-003	1.000000000000000E+000	11	9.4090961E-002	7.6067774E-004	3.146795854852017E-006	-3.2418242E-004	7.9637673E-003	1.3919236E-003	8.0844937E-003	9.9141293E+000	7.678433461438135E-008
1.5848613E+005	1.2317410E+002	2.0449745E+001	1.2486013E+002	-9.4264402E+000	1.148347267872305E+001	3.3267260E+000	1.5204714E-003	4.9106725E-002	1.3172531E-003	1.000000000000000E+000	11	1.0723695E-001	8.5885666E-004	4.597801604867628E-006	-1.5270885E-003	7.9008136E-003	1.3117174E-003	8.0089616E-003	9.4264402E+000	1.451005750015611E-006
1.4125594E+005	1.2450706E+002	1.9639650E+001	1.2604652E+002	-8.9639339E+000	1.194349379392224E+001	3.3267214E+000	1.7080797E-003	5.7369314E-002	1.3927894E-003	1.000000000000000E+000	11	1.2139231E-001	9.6307549E-004	4.924684613121725E-006	-4.8456987E-004	7.8366837E-003	1.2361525E-003	7.9335794E-003	8.9639339E+000	3.268830082540967E-007
1.2590930E+005	1.2575375E+002	1.8900499E+001	1.2716618E+002	-8.5474463E+000	1.240349013576633E+001	3.3267252E+000	1.6917011E-003	6.6878892E-002	1.4773806E-003	1.000000000000000E+000	11	1.3652466E-001	1.0735926E-003	4.992419510258413E-006	1.5698001E-004	7.7763852E-003	1.1687727E-003	7.8637265E-003	8.5474463E+000	6.773489713668831E-008
1.1220494E+005	1.2696982E+002	1.8160601E+001	1.2826201E+002	-8.1398554E+000	1.299848360402393E+001	3.3267341E+000	1.7979713E-003	7.8104839E-002	1.5658216E-003	1.000000000000000E+000	11	1.3020253E-001	1.0151294E-003	5.517017990648229E-006	-5.6476361E-004	7.7179940E-003	1.1039112E-003	7.7965409E-003	8.1398554E+000	5.245984803898160E-007
1.0000371E+005	1.2812793E+002	1.7488598E+001	1.2931596E+002	-7.7724566E+000	1.359347179232282E+001	3.3267410E+000	1.8586454E-003	9.1001600E-002	1.6643885E-003	1.000000000000000E+000	11	1.2987095E-001	1.0042917E-003	5.525697140527578E-006	-4.8456987E-004	7.6619540E-003	1.0458049E-003	7.7329972E-003	7.7724566E+000	8.679149879349033E-009
8.9129305E+004	1.2922133E+002	1.6845423E+001	1.3031470E+002	-7.4272518E+000	1.418848539391183E+001	3.3267612E+000	1.8744640E-003	1.0600289E-001	1.7713106E-003	1.000000000000000E+000	11	1.2971005E-001	9.9536008E-004	8.054545227596666E-006	-2.0082509E-003	7.6093473E-003	9.9196215E-004	7.6737315E-003	7.4272518E+000	2.528848087069087E-006
7.9433273E+004	1.3025713E+002	1.6244522E+001	1.3126616E+002	-7.1087227E+000	1.478447467551450E+001	3.3267782E+000	2.0038148E-003	1.2334193E-001	1.8889440E-003	1.000000000000000E+000	11	1.2960446E-001	9.8734093E-004	7.155380373794792E-006	-1.3667010E-003	7.5595500E-003	9.4276050E-004	7.6181097E-003	7.1087227E+000	-8.991648538018735E-007
7.0794977E+004	1.3123987E+002	1.5673176E+001	1.3217242E+002	-6.8102312E+000	1.537947641048231E+001	3.3267825E+000	2.0041880E-003	1.4343683E-001	2.0169399E-003	1.000000000000000E+000	11	1.2959462E-001	9.8049664E-004	6.345322953731132E-006	-1.1261198E-003	7.5124926E-003	8.9717109E-004	7.5658746E-003	6.8102312E+000	-8.100574200636598E-007
6.3093828E+004	1.3215926E+002	1.5150207E+001	1.3302480E+002	-6.5396118E+000	1.597448491872638E+001	3.3267825E+000	1.8858198E-003	1.6650018E-001	2.1596660E-003	1.000000000000000E+000	11	1.2939085E-001	9.7268214E-004	8.427208246229889E-006	-7.2515110E-004	7.4684825E-003	8.5615693E-004	7.5173955E-003	6.5396118E+000	2.081885292498757E-006
5.6237012E+004	1.3304575E+002	1.4680108E+001	1.3385320E+002	-6.2964773E+000	1.657149654705427E+001	3.3267884E+000	1.9490987E-003	1.9278295E-001	2.3188340E-003	1.000000000000000E+000	11	1.2941122E-001	9.6681458E-004	7.095717368366119E-006	-8.0534484E-004	7.4258046E-003	8.1935438E-004	7.4708713E-003	6.2964773E+000	-1.331490877863770E-006
5.0122477E+004	1.3387883E+002	1.4253922E+001	1.3463550E+002	-6.0773196E+000	1.703149592890986E+001	3.3267941E+000	1.9883695E-003	2.2276822E-001	2.4969096E-003	1.000000000000000E+000	11	1.4023243E-001	1.0415710E-003	6.926860586610727E-006	-5.6476361E-004	7.3857186E-003	7.8634871E-004	7.4274614E-003	6.0773196E+000	-1.688567817553925E-007
4.4666715E+004	1.3469630E+002	1.3885448E+001	1.3541011E+002	-5.8856645E+000	1.762648350387462E+001	3.3268063E+000	2.0570469E-003	2.5661156E-001	2.6983223E-003	1.000000000000000E+000	11	1.3030912E-001	9.6232933E-004	5.705835461836411E-006	-5.6476361E-004	7.3460434E-003	7.5728213E-004	7.3849731E-003	5.8856645E+000	-1.221025124774315E-006
3.9814063E+004	1.3539548E+002	1.3569725E+001	1.3607378E+002	-5.7232366E+000	1.808549693899113E+001	3.3268173E+000	2.0241032E-003	2.9458633E-001	2.9295832E-003	1.000000000000000E+000	11	1.3934809E-001	1.0240627E-003	6.026355555268108E-006	-7.2515110E-004	7.3123216E-003	7.3286192E-004	7.3489547E-003	5.7232366E+000	3.205200934316968E-007
3.5480996E+004	1.3620288E+002	1.3314756E+001	1.3685214E+002	-5.5833106E+000	1.868149062062730E+001	3.3268039E+000	1.9567292E-003	3.3689231E-001	3.1889989E-003	1.000000000000000E+000	11	1.3010225E-001	9.5067749E-004	8.117213530252532E-006	1.5698001E-004	7.2724898E-003	7.1093516E-004	7.3071565E-003	5.5833106E+000	2.090857974984423E-006
3.1621143E+004	1.3685715E+002	1.3097469E+001	1.3748244E+002	-5.4666581E+000	1.914047538911109E+001	3.3268092E+000	2.0071643E-003	3.8428655E-001	3.4876710E-003	1.000000000000000E+000	11	1.3721277E-001	9.9803857E-004	8.097045063552084E-006	-8.0534484E-004	7.2405743E-003	6.9293572E-004	7.2736563E-003	5.4666581E+000	-2.016846670044711E-008
2.8188096E+004	1.3759900E+002	1.2952115E+001	1.3820724E+002	-5.3773742E+000	1.973648299076012E+001	3.3268137E+000	2.0881272E-003	4.3592691E-001	3.8285423E-003	1.000000000000000E+000	11	1.2966976E-001	9.3822688E-004	7.933034755891033E-006	-5.6476361E-004	7.2036674E-003	6.7807705E-004	7.2355107E-003	5.3773742E+000	-1.640103076610515E-007
2.5116910E+004	1.3825029E+002	1.2867493E+001	1.3884781E+002	-5.3174224E+000	2.019548245254555E+001	3.3268223E+000	2.0214983E-003	4.9244758E-001	4.2293128E-003	1.000000000000000E+000	11	1.3495889E-001	9.7199157E-004	8.330920914045742E-006	-4.0437613E-004	7.1711363E-003	6.6744559E-004	7.2021303E-003	5.3174224E+000	3.978861581547089E-007
2.2389027E+004	1.3891916E+002	1.2836576E+001	1.3951097E+002	-5.2793221E+000	2.065549012771226E+001	3.3268304E+000	2.0456905E-003	5.5377805E-001	4.6883211E-003	1.000000000000000E+000	11	1.3963908E-001	1.0009182E-003	9.466555094388089E-006	-5.6476361E-004	7.1374886E-003	6.5952679E-004	7.1678949E-003	5.2793221E+000	1.135634180342347E-006
1.9948783E+004	1.3960193E+002	1.2877937E+001	1.4019466E+002	-5.2704797E+000	2.125148402267951E+001	3.3268147E+000	2.0214960E-003	6.1952299E-001	5.2274168E-003	1.000000000000000E+000	11	1.2960672E-001	9.2447695E-004	7.813524639984179E-006	-6.4495736E-004	7.1027824E-003	6.5521436E-004	7.1329395E-003	5.2704797E+000	-1.653030454403909E-006
1.7786895E+004	1.4032632E+002	1.2978997E+001	1.4092526E+002	-5.2843409E+000	2.171049561785185E+001	3.3268006E+000	2.0395510E-003	6.8941206E-001	5.8476781E-003	1.000000000000000E+000	11	1.3270697E-001	9.4168336E-004	7.215300175206115E-006	-8.8553858E-004	7.0658014E-003	6.5352692E-004	7.0959600E-003	5.2843409E+000	-5.982244647780644E-007
1.5847686E+004	1.4098814E+002	1.3145239E+001	1.4159962E+002	-5.3266578E+000	2.216949217297952E+001	3.3268142E+000	2.0099590E-003	7.6398677E-001	6.5841326E-003	1.000000000000000E+000	11	1.3529295E-001	9.5546123E-004	6.575397204543050E-006	-5.6476361E-004	7.0316684E-003	6.5560802E-004	7.0621655E-003	5.3266578E+000	-6.399029706630650E-007
1.4121879E+004	1.4169101E+002	1.3375308E+001	1.4232091E+002	-5.3926110E+000	2.262847310144571E+001	3.3268232E+000	2.0656080E-003	8.4260464E-001	7.4420748E-003	1.000000000000000E+000	11	1.3745756E-001	9.6582837E-004	7.157285106148467E-006	-8.8553858E-004	6.9952761E-003	6.6033815E-004	7.0263743E-003	5.3926110E+000	5.818879016054172E-007
1.2590932E+004	1.4242155E+002	1.3649699E+001	1.4307416E+002	-5.4745135E+000	2.308748096323689E+001	3.3268216E+000	2.0108891E-003	9.2606008E-001	8.4287459E-003	1.000000000000000E+000	11	1.3923436E-001	9.7316218E-004	6.547578997961763E-006	-4.0437613E-004	6.9575016E-003	6.6680781E-004	6.9893822E-003	5.4745135E+000	-6.097061081867038E-007
1.1217711E+004	1.4319112E+002	1.4011469E+001	1.4387500E+002	-5.5886879E+000	2.354648527837708E+001	3.3268273E+000	2.0255931E-003	1.0125867E+000	9.6034855E-003	1.000000000000000E+000	11	1.4068010E-001	9.7779394E-004	6.522876675809837E-006	-1.4468947E-003	6.9174399E-003	6.7688210E-004	6.9504781E-003	5.5886879E+000	-2.470232215192606E-008
1.0002229E+004	1.4400580E+002	1.4415727E+001	1.4472554E+002	-5.7165599E+000	2.414147837329074E+001	3.3268180E+000	1.9373731E-003	1.1037908E+000	1.0951396E-002	1.000000000000000E+000	11	1.2937865E-001	8.9395861E-004	8.299770749746434E-006	-1.2063135E-003	6.8752673E-003	6.8824989E-004	6.9096303E-003	5.7165599E+000	1.776894073936596E-006
8.9149297E+003	1.4485213E+002	1.4889140E+001	1.4561533E+002	-5.8687396E+000	2.462392111623194E+001	3.3268774E+000	2.3241218E-003	1.1990370E+000	1.2535961E-002	1.000000000000000E+000	11	1.3022071E-001	8.9427893E-004	8.156381293503930E-006	-1.0459260E-003	6.8314155E-003	7.0219132E-004	6.8674092E-003	5.8687396E+000	-1.433894562425039E-007
7.9439976E+003	1.4574301E+002	1.5431957E+001	1.4655774E+002	-6.0442262E+000	2.514998274121899E+001	3.3268886E+000	2.4892068E-003	1.2982551E+000	1.4394100E-002	1.000000000000000E+000	11	1.3088453E-001	8.9305779E-004	8.946437387449098E-006	-3.2418242E-004	6.7853183E-003	7.1846152E-004	6.8232492E-003	6.0442262E+000	7.900560939451686E-007
7.0822334E+003	1.4668289E+002	1.6009178E+001	1.4755394E+002	-6.2286892E+000	2.572685727529461E+001	3.3269143E+000	2.5796590E-003	1.4037212E+000	1.6524082E-002	1.000000000000000E+000	11	1.3138895E-001	8.9044689E-004	9.807764106624139E-006	-9.6573232E-004	6.7371754E-003	7.3530490E-004	6.7771827E-003	6.2286892E+000	8.613267191750408E-007
6.3077344E+003	1.4771848E+002	1.6658085E+001	1.4865477E+002	-6.4340134E+000	2.636152749208850E+001	3.3269157E+000	2.4668719E-003	1.5146827E+000	1.9020157E-002	1.000000000000000E+000	11	1.3180128E-001	8.8662660E-004	9.702882151106475E-006	-8.3601190E-005	6.6846260E-003	7.5381942E-004	6.7269956E-003	6.4340134E+000	-1.048819555176637E-007
5.6210552E+003	1.4881577E+002	1.7351271E+001	1.4982390E+002	-6.6504102E+000	2.706227480535745E+001	3.3269172E+000	2.4746892E-003	1.6318152E+000	2.1886250E-002	1.000000000000000E+000	11	1.3210732E-001	8.8175066E-004	1.091724190085208E-005	-6.4495736E-004	6.6295913E-003	7.7298150E-004	6.6745025E-003	6.6504102E+000	1.214359749745603E-006
5.0116035E+003	1.4998457E+002	1.8071287E+001	1.5106934E+002	-6.8703146E+000	2.782268382819893E+001	3.3269167E+000	2.4478887E-003	1.7573341E+000	2.5146635E-002	1.000000000000000E+000	11	1.3233627E-001	8.7599695E-004	1.161721077070494E-005	-7.2515110E-004	6.5719457E-003	7.9183822E-004	6.6194772E-003	6.8703146E+000	6.999688698528594E-007
4.4664292E+003	1.5127165E+002	1.8845320E+001	1.5244099E+002	-7.1012831E+000	2.858270871762943E+001	3.3269317E+000	2.5668163E-003	1.8908460E+000	2.8897459E-002	1.000000000000000E+000	11	1.3251171E-001	8.6926558E-004	1.280213009970935E-005	-1.0459260E-003	6.5095956E-003	8.1096101E-004	6.5599154E-003	7.1012831E+000	1.184919329004415E-006
3.9812742E+003	1.5265059E+002	1.9635426E+001	1.5390826E+002	-7.3297005E+000	2.934266339372698E+001	3.3269339E+000	2.5822644E-003	2.0359061E+000	3.3137098E-002	1.000000000000000E+000	11	1.3264300E-001	8.6183153E-004	1.282065965722884E-005	-7.2515110E-004	6.4442833E-003	8.2892732E-004	6.4973771E-003	7.3297005E+000	1.852955751948729E-008
3.5465955E+003	1.5414880E+002	2.0443151E+001	1.5549847E+002	-7.5544600E+000	3.010293870980968E+001	3.3269098E+000	2.4013591E-003	2.1951320E+000	3.7940588E-002	1.000000000000000E+000	11	1.3272850E-001	8.5356785E-004	1.312274774680716E-005	-8.8553858E-004	6.3751130E-003	8.4546494E-004	6.4309314E-003	7.5544600E+000	3.020880895783206E-007
3.1610112E+003	1.5575172E+002	2.1266356E+001	1.5719687E+002	-7.7750921E+000	3.086270549258916E+001	3.3269217E+000	2.5109812E-003	2.3675601E+000	4.3331068E-002	1.000000000000000E+000	11	1.3279042E-001	8.4473961E-004	1.335466031431942E-005	-8.0534484E-004	6.3029677E-003	8.6060789E-004	6.3614501E-003	7.7750921E+000	2.319125675122540E-007
2.8172952E+003	1.5746321E+002	2.2054918E+001	1.5900026E+002	-7.9732032E+000	3.162294856869266E+001	3.3269217E+000	2.3088586E-003	2.5614290E+000	4.9283050E-002	1.000000000000000E+000	11	1.3282816E-001	8.3539588E-004	1.313870517863931E-005	-8.8553858E-004	6.2284996E-003	8.7238813E-004	6.2892977E-003	7.9732032E+000	-2.159551356801070E-007
