EC-Lab ASCII FILE
Nb header lines : 60                          

Potentio Electrochemical Impedance Spectroscopy

Run on channel : 2 (SN 20919)
User : 
CE vs. WE compliance from -10 V to 10 V
Electrode connection : standard
Ewe ctrl range : min = -10.00 V, max = 10.00 V
Acquisition started on : 12/03/2020 16:54:32
Technique started on : 12/03/2020 16:54:33
Saved on :
	File : DE_206_2_30.mpr
	Directory : P:\Chemistry\Data\VMP3\Kyler\DOE\DE_206\
	Host : 10.0.4.64
Device : VMP3 (SN 1432)
Address : USB
EC-Lab for windows v11.33 (software)
Internet server v11.32 (firmware)
Command interpretor v11.33 (firmware)
Electrode material : 
Initial state : 
Electrolyte : 
Comments : 
Electrode surface area : 0.001 cm²
Characteristic mass : 0.001 g
Equivalent Weight : 0.000 g/eq.
Density : 0.000 g/cm3
Record Analogic IN 1
Cycle Definition : Charge/Discharge alternance
Mode                Single sine         
E (V)               0.0000              
vs.                 Eoc                 
tE (h:m:s)          0:00:0.0000         
record              0                   
dI                  1.000               
unit dI             mA                  
dt (s)              0.000               
fi                  1.000               
unit fi             MHz                 
ff                  1.000               
unit ff             Hz                  
Nd                  20                  
Points              per decade          
spacing             Logarithmic         
Va (mV)             128.0               
pw                  0.50                
Na                  3                   
corr                0                   
E range min (V)     -10.000             
E range max (V)     10.000              
I Range             Auto                
Bandwidth           5                   
nc cycles           0                   
goto Ns'            0                   
nr cycles           0                   
inc. cycle          1                   

freq/Hz	Re(Z)/Ohm	-Im(Z)/Ohm	|Z|/Ohm	Phase(Z)/deg	time/s	<Ewe>/V	<I>/mA	Cs/µF	Cp/µF	cycle number	I Range	|Ewe|/V	|I|/A	(Q-Qo)/mA.h	Analog IN 1/V	Re(Y)/Ohm-1	Im(Y)/Ohm-1	|Y|/Ohm-1	Phase(Y)/deg	dq/mA.h	
1.0000186E+006	1.2306418E+002	7.9504318E+001	1.4651187E+002	-3.2864056E+001	1.949497052555671E+000	3.3079336E+000	-2.6069786E-003	2.0018029E-003	5.8946380E-004	1.000000000000000E+000	11	1.8413048E-003	1.2567615E-005	-7.214921603517723E-007	2.3964079E-005	5.7330541E-003	3.7037791E-003	6.8253856E-003	3.2864056E+001	-7.214921603517723E-007
8.9124669E+005	1.2930183E+002	7.8229095E+001	1.5112497E+002	-3.1174421E+001	2.544479027477792E+000	3.3083653E+000	-1.9953565E-003	2.2827266E-003	6.1167125E-004	1.000000000000000E+000	11	3.2768652E-003	2.1683149E-005	-1.136498662817555E-006	-5.6216748E-005	5.6615095E-003	3.4252785E-003	6.6170404E-003	3.1174421E+001	-4.150065024657831E-007
7.9433269E+005	1.3665327E+002	7.8099869E+001	1.5739665E+002	-2.9748762E+001	3.140474149113288E+000	3.3087509E+000	-1.5978296E-003	2.5654726E-003	6.3165074E-004	1.000000000000000E+000	11	5.4355371E-003	3.4534009E-005	-1.482916626773456E-006	-2.1657841E-004	5.5160611E-003	3.1525306E-003	6.3533755E-003	2.9748762E+001	-3.464179639559006E-007
7.0794981E+005	1.4436046E+002	7.8311523E+001	1.6423349E+002	-2.8478598E+001	3.736485564120812E+000	3.3090508E+000	-1.4331690E-003	2.8707276E-003	6.5270939E-004	1.000000000000000E+000	11	8.4278733E-003	5.1316412E-005	-1.596545848563336E-006	1.0414491E-004	5.3521073E-003	2.9033690E-003	6.0888920E-003	2.8478598E+001	-1.136292217898801E-007
6.3095681E+005	1.5196674E+002	7.8831436E+001	1.7119662E+002	-2.7417637E+001	4.331496525701368E+000	3.3093147E+000	-1.1774427E-003	3.1997869E-003	6.7846826E-004	1.000000000000000E+000	11	1.2334359E-002	7.2047907E-005	-1.860299315572977E-006	3.4468737E-004	5.1851119E-003	2.6897320E-003	5.8412366E-003	2.7417637E+001	-2.637534670096405E-007
5.6234225E+005	1.5975276E+002	7.9074921E+001	1.7825203E+002	-2.6334635E+001	4.927493087336188E+000	3.3095095E+000	-1.0988290E-003	3.5791565E-003	7.0435117E-004	1.000000000000000E+000	11	1.7205160E-002	9.6521537E-005	-2.130566651157601E-006	1.8432573E-004	5.0278162E-003	2.4886844E-003	5.6100343E-003	2.6334635E+001	-2.702673355846246E-007
5.0120619E+005	1.6725673E+002	7.9222832E+001	1.8507045E+002	-2.5345045E+001	5.523487489001127E+000	3.3096752E+000	-9.7784249E-004	4.0082368E-003	7.3447992E-004	1.000000000000000E+000	11	2.3040930E-002	1.2449815E-004	-2.483862726463687E-006	3.4468737E-004	4.8832553E-003	2.3130029E-003	5.4033478E-003	2.5345045E+001	-3.532960753060859E-007
4.4668572E+005	1.7460295E+002	7.9076553E+001	1.9167496E+002	-2.4365467E+001	6.118488210573560E+000	3.3098063E+000	-9.5368049E-004	4.5057838E-003	7.6689344E-004	1.000000000000000E+000	11	2.9843628E-002	1.5569915E-004	-2.576218114020271E-006	1.0414491E-004	4.7524855E-003	2.1523703E-003	5.2171657E-003	2.4365467E+001	-9.235538755658345E-008
3.9810347E+005	1.8169653E+002	7.8579773E+001	1.9796063E+002	-2.3387424E+001	6.713474612188293E+000	3.3098640E+000	-9.0759021E-004	5.0876057E-003	8.0163614E-004	1.000000000000000E+000	11	3.7600890E-002	1.8994125E-004	-2.719069598661412E-006	2.3964079E-005	4.6364865E-003	2.0051787E-003	5.0515095E-003	2.3387424E+001	-1.428514846411418E-007
3.5480997E+005	1.8880997E+002	7.7919502E+001	2.0425635E+002	-2.2425325E+001	7.309477840462932E+000	3.3098946E+000	-9.4587432E-004	5.7567600E-003	8.3775952E-004	1.000000000000000E+000	11	4.6408176E-002	2.2720556E-004	-3.287730226760484E-006	2.3964079E-005	4.5255753E-003	1.8676482E-003	4.8958086E-003	2.2425325E+001	-5.686606280990720E-007
3.1622997E+005	1.9548476E+002	7.6910133E+001	2.1007013E+002	-2.1476307E+001	7.904478188749636E+000	3.3098819E+000	-1.0114777E-003	6.5438529E-003	8.7714638E-004	1.000000000000000E+000	11	5.6295794E-002	2.6798571E-004	-3.521990728313136E-006	1.8432573E-004	4.4298018E-003	1.7428297E-003	4.7603152E-003	2.1476307E+001	-2.342605015526511E-007
2.8183453E+005	2.0191446E+002	7.5728561E+001	2.1564847E+002	-2.0558691E+001	8.499490510352189E+000	3.3098958E+000	-9.4791554E-004	7.4570356E-003	9.1958710E-004	1.000000000000000E+000	11	6.7317516E-002	3.1216320E-004	-3.242450495795411E-006	2.3964079E-005	4.3418487E-003	1.6284219E-003	4.6371766E-003	2.0558691E+001	2.795402325177242E-007
2.5118764E+005	2.0806744E+002	7.4380486E+001	2.2096271E+002	-1.9671085E+001	9.094494885270251E+000	3.3098903E+000	-9.8954223E-004	8.5184947E-003	9.6525688E-004	1.000000000000000E+000	11	7.9502776E-002	3.5980178E-004	-3.564396838473234E-006	-3.7694006E-004	4.2615361E-003	1.5234250E-003	4.5256508E-003	1.9671085E+001	-3.219463426778225E-007
2.2387173E+005	2.1392938E+002	7.2869850E+001	2.2599954E+002	-1.8810163E+001	9.690494086913532E+000	3.3099136E+000	-8.8453834E-004	9.7560268E-003	1.0142701E-003	1.000000000000000E+000	11	9.2867874E-002	4.1092062E-004	-3.560860141823974E-006	-2.9675924E-004	4.1884687E-003	1.4267003E-003	4.4247876E-003	1.8810163E+001	3.536696649260253E-009
1.9954350E+005	2.1951497E+002	7.1305504E+001	2.3080576E+002	-1.7995459E+001	1.028748731527594E+001	3.3098614E+000	-1.0900847E-003	1.1185606E-002	1.0676093E-003	1.000000000000000E+000	11	1.0737374E-001	4.6521259E-004	-3.063801205275619E-006	2.6450655E-004	4.1206987E-003	1.3385351E-003	4.3326477E-003	1.7995459E+001	4.970589365483543E-007
1.7783180E+005	2.2485426E+002	6.9773331E+001	2.3543100E+002	-1.7239361E+001	1.074647149708471E+001	3.3098967E+000	-9.7188551E-004	1.2826886E-002	1.1266081E-003	1.000000000000000E+000	11	1.2304042E-001	5.2261772E-004	-3.475475672738361E-006	-2.1657841E-004	4.0567089E-003	1.2588156E-003	4.2475290E-003	1.7239361E+001	-4.116744674627422E-007
1.5848613E+005	2.2991405E+002	6.8208199E+001	2.3981833E+002	-1.6523951E+001	1.120648527893354E+001	3.3098807E+000	-1.1493685E-003	1.4722863E-002	1.1909697E-003	1.000000000000000E+000	11	1.3980448E-001	5.8295997E-004	-3.415777124156497E-006	-5.6216748E-005	3.9976132E-003	1.1859649E-003	4.1698231E-003	1.6523951E+001	5.969854858186490E-008
1.4125594E+005	2.3486003E+002	6.6646744E+001	2.4413321E+002	-1.5842466E+001	1.180148005383671E+001	3.3099210E+000	-1.0397193E-003	1.6905751E-002	1.2599074E-003	1.000000000000000E+000	11	1.3037060E-001	5.3401419E-004	-4.157244259490754E-006	1.0414491E-004	3.9405366E-003	1.1182147E-003	4.0961243E-003	1.5842466E+001	-7.414671353342577E-007
1.2590930E+005	2.3949391E+002	6.5136063E+001	2.4819356E+002	-1.5214928E+001	1.239848442884977E+001	3.3099403E+000	-1.0464104E-003	1.9406214E-002	1.3366042E-003	1.000000000000000E+000	11	1.2995069E-001	5.2358606E-004	-4.635753206749440E-006	-1.3639758E-004	3.8878855E-003	1.0574029E-003	4.0291133E-003	1.5214928E+001	-4.785089472586857E-007
1.1220494E+005	2.4397179E+002	6.3693871E+001	2.5214905E+002	-1.4631660E+001	1.299349453710602E+001	3.3099906E+000	-8.8602485E-004	2.2269502E-002	1.4209903E-003	1.000000000000000E+000	11	1.2971503E-001	5.1443791E-004	-4.324758726239250E-006	1.0414491E-004	3.8372928E-003	1.0018045E-003	3.9659082E-003	1.4631660E+001	3.109944805101903E-007
1.0000371E+005	2.4825420E+002	6.2341148E+001	2.5596204E+002	-1.4096528E+001	1.358948205880006E+001	3.3099706E+000	-1.0430656E-003	2.5528729E-002	1.5143550E-003	1.000000000000000E+000	11	1.2971275E-001	5.0676556E-004	-4.793958746468383E-006	2.3964079E-005	3.7891821E-003	9.5153262E-004	3.9068293E-003	1.4096528E+001	-4.692000202291336E-007
8.9129305E+004	2.5236427E+002	6.1104298E+001	2.5965643E+002	-1.3610928E+001	1.418547992708045E+001	3.3099828E+000	-1.0527306E-003	2.9223207E-002	1.6183527E-003	1.000000000000000E+000	11	1.2948817E-001	4.9869041E-004	-5.348176632028804E-006	-4.5712088E-004	3.7430851E-003	9.0630329E-004	3.8512428E-003	1.3610928E+001	-5.542178855604208E-007
7.9433273E+004	2.5634290E+002	5.9971485E+001	2.6326462E+002	-1.3167540E+001	1.478148150208290E+001	3.3100169E+000	-9.6482463E-004	3.3409722E-002	1.7337141E-003	1.000000000000000E+000	11	1.2945187E-001	4.9171771E-004	-5.934715667950514E-006	2.3964079E-005	3.6985909E-003	8.6528633E-004	3.7984597E-003	1.3167540E+001	-5.865390359217095E-007
7.0794977E+004	2.6014108E+002	5.8954216E+001	2.6673767E+002	-1.2768917E+001	1.537649291698472E+001	3.3100080E+000	-1.0092412E-003	3.8133163E-002	1.8627897E-003	1.000000000000000E+000	11	1.2935084E-001	4.8493652E-004	-6.382022263122457E-006	-2.1657841E-004	3.6562867E-003	8.2860229E-004	3.7490018E-003	1.2768917E+001	-4.473065951719437E-007
6.3093828E+004	2.6379758E+002	5.8088203E+001	2.7011737E+002	-1.2418344E+001	1.583647568550077E+001	3.3100159E+000	-9.9994882E-004	4.3425545E-002	2.0082425E-003	1.000000000000000E+000	11	1.4031550E-001	5.1946123E-004	-7.004806054661458E-006	-2.1657841E-004	3.6154783E-003	7.9612806E-004	3.7020943E-003	1.2418344E+001	-6.227837915390005E-007
5.6237012E+004	2.6737396E+002	5.7396851E+001	2.7346524E+002	-1.2115742E+001	1.643248464711360E+001	3.3100212E+000	-9.9102780E-004	4.9307145E-002	2.1721094E-003	1.000000000000000E+000	11	1.3024862E-001	4.7628951E-004	-8.059661291840408E-006	-3.7694006E-004	3.5753197E-003	7.6750963E-004	3.6567720E-003	1.2115742E+001	-1.054855237178950E-006
5.0122477E+004	2.7087823E+002	5.6837063E+001	2.7677692E+002	-1.1850183E+001	1.689149400228052E+001	3.3100274E+000	-9.8545360E-004	5.5867080E-002	2.3559143E-003	1.000000000000000E+000	11	1.3934603E-001	5.0345971E-004	-8.220389130569754E-006	1.8432573E-004	3.5360169E-003	7.4194529E-004	3.6130180E-003	1.1850183E+001	-1.607278387293466E-007
4.4666715E+004	2.7432129E+002	5.6463951E+001	2.8007205E+002	-1.1630836E+001	1.748648048387258E+001	3.3100321E+000	-1.0062676E-003	6.3105159E-002	2.5648847E-003	1.000000000000000E+000	11	1.3006090E-001	4.6438372E-004	-7.739238330592747E-006	-5.6216748E-005	3.4971961E-003	7.1983301E-004	3.5705098E-003	1.1630836E+001	4.811507999770073E-007
3.9814063E+004	2.7766394E+002	5.6305347E+001	2.8331531E+002	-1.1463136E+001	1.794647914569941E+001	3.3100090E+000	-1.0670385E-003	7.0996016E-002	2.8040982E-003	1.000000000000000E+000	11	1.3714059E-001	4.8405642E-004	-7.677588849895175E-006	-5.6216748E-005	3.4592301E-003	7.0147077E-004	3.5296364E-003	1.1463136E+001	6.164948069757260E-008
3.5480996E+004	2.8099448E+002	5.6300644E+001	2.8657922E+002	-1.1329880E+001	1.854149450731347E+001	3.3100584E+000	-9.2839811E-004	7.9672962E-002	3.0750225E-003	1.000000000000000E+000	11	1.2951744E-001	4.5194288E-004	-8.600852901728810E-006	-1.3639758E-004	3.4214356E-003	6.8552600E-004	3.4894366E-003	1.1329880E+001	-9.232640518336357E-007
3.1621143E+004	2.8432126E+002	5.6507755E+001	2.8988223E+002	-1.1240838E+001	1.900049663576647E+001	3.3100493E+000	-9.2932692E-004	8.9070626E-002	3.3846006E-003	1.000000000000000E+000	11	1.3472737E-001	4.6476591E-004	-9.084431147187489E-006	2.3964079E-005	3.3834998E-003	6.7245751E-004	3.4496768E-003	1.1240838E+001	-4.835782454586790E-007
2.8188096E+004	2.8763461E+002	5.6889702E+001	2.9320660E+002	-1.1187830E+001	1.946049039097852E+001	3.3100364E+000	-9.8898343E-004	9.9247761E-002	3.7362897E-003	1.000000000000000E+000	11	1.3928099E-001	4.7502678E-004	-9.097736342249139E-006	-1.3639758E-004	3.3457512E-003	6.6173810E-004	3.4105643E-003	1.1187830E+001	-1.330519506164943E-008
2.5116910E+004	2.9096509E+002	5.7475292E+001	2.9658740E+002	-1.1173973E+001	2.005648836595356E+001	3.3100488E+000	-1.0036660E-003	1.1024851E-001	4.1402797E-003	1.000000000000000E+000	11	1.2953588E-001	4.3675452E-004	-9.093734091454988E-006	-4.5712088E-004	3.3077712E-003	6.5339502E-004	3.3716874E-003	1.1173973E+001	4.002250794150767E-009
2.2389027E+004	2.9434988E+002	5.8268429E+001	3.0006177E+002	-1.1197299E+001	2.051548844107310E+001	3.3100457E+000	-9.2932669E-004	1.2199769E-001	4.6004136E-003	1.000000000000000E+000	11	1.3252878E-001	4.4167167E-004	-9.170130026937436E-006	3.4468737E-004	3.2692081E-003	6.4716046E-004	3.3326473E-003	1.1197299E+001	-7.639593548244794E-008
1.9948783E+004	2.9781696E+002	5.9273125E+001	3.0365811E+002	-1.1256227E+001	2.097547334289993E+001	3.3100536E+000	-9.8415196E-004	1.3460027E-001	5.1285168E-003	1.000000000000000E+000	11	1.3502356E-001	4.4465656E-004	-8.914456724392948E-006	1.8432573E-004	3.2298299E-003	6.4281805E-004	3.2931773E-003	1.1256227E+001	2.556733025444879E-007
1.7786895E+004	3.0136496E+002	6.0469967E+001	3.0737186E+002	-1.1345936E+001	2.143548792475485E+001	3.3100441E+000	-1.0163039E-003	1.4797226E-001	5.7270573E-003	1.000000000000000E+000	11	1.3706309E-001	4.4591943E-004	-9.103306817417939E-006	-5.6216748E-005	3.1898080E-003	6.4004643E-004	3.2533882E-003	1.1345936E+001	-1.888500930249910E-007
1.5847686E+004	3.0500571E+002	6.1859726E+001	3.1121555E+002	-1.1464931E+001	2.189548058659420E+001	3.3100441E+000	-1.0019933E-003	1.6234776E-001	6.4141587E-003	1.000000000000000E+000	11	1.3872834E-001	4.4576285E-004	-8.836778667412646E-006	1.0414491E-004	3.1490924E-003	6.3868309E-004	3.2132070E-003	1.1464931E+001	2.665281500052928E-007
1.4121879E+004	3.0878314E+002	6.3496761E+001	3.1524414E+002	-1.1620063E+001	2.235447831507190E+001	3.3100502E+000	-1.0315429E-003	1.7749089E-001	7.2008735E-003	1.000000000000000E+000	11	1.4005068E-001	4.4426101E-004	-8.672195546363254E-006	-2.1657841E-004	3.1071308E-003	6.3893624E-004	3.1721445E-003	1.1620063E+001	1.645831210493923E-007
1.2590932E+004	3.1266547E+002	6.5277542E+001	3.1940704E+002	-1.1792681E+001	2.295047847673413E+001	3.3100486E+000	-1.0399066E-003	1.9364151E-001	8.0879247E-003	1.000000000000000E+000	11	1.2934254E-001	4.0494581E-004	-8.619804296962671E-006	-5.6216748E-005	3.0647211E-003	6.3984498E-004	3.1308013E-003	1.1792681E+001	5.239124940058267E-008
1.1217711E+004	3.1679398E+002	6.7289772E+001	3.2386160E+002	-1.1991890E+001	2.340947580520879E+001	3.3100605E+000	-1.0350748E-003	2.1084674E-001	9.1021927E-003	1.000000000000000E+000	11	1.3010144E-001	4.0171924E-004	-8.863125641304780E-006	-1.3639758E-004	3.0203550E-003	6.4154947E-004	3.0877388E-003	1.1991890E+001	-2.433213443421092E-007
1.0002229E+004	3.2106595E+002	6.9481056E+001	3.2849805E+002	-1.2210935E+001	2.386947236038395E+001	3.3100665E+000	-8.8342407E-004	2.2901128E-001	1.0245287E-002	1.000000000000000E+000	11	1.3069116E-001	3.9784456E-004	-8.936087913157987E-006	1.0414491E-004	2.9752858E-003	6.4387394E-004	3.0441582E-003	1.2210935E+001	-7.296227185320699E-008
8.9149297E+003	3.2555109E+002	7.1864265E+001	3.3338864E+002	-1.2448209E+001	2.435190377000254E+001	3.3100719E+000	-9.8025019E-004	2.4842151E-001	1.1542864E-002	1.000000000000000E+000	11	1.3113828E-001	3.9334956E-004	-9.256926547959058E-006	-3.7694006E-004	2.9289876E-003	6.4656377E-004	2.9995022E-003	1.2448209E+001	-3.208386348010710E-007
7.9439976E+003	3.3030283E+002	7.4408592E+001	3.3858026E+002	-1.2695318E+001	2.487800467497436E+001	3.3100734E+000	-1.0295004E-003	2.6925138E-001	1.3004116E-002	1.000000000000000E+000	11	1.3148083E-001	3.8832988E-004	-9.461377310162384E-006	-1.3639758E-004	2.8813034E-003	6.4908236E-004	2.9535093E-003	1.2695318E+001	-2.044507622033254E-007
7.0822334E+003	3.3525842E+002	7.7117111E+001	3.4401346E+002	-1.2954010E+001	2.545487880904693E+001	3.3100867E+000	-9.7058626E-004	2.9140642E-001	1.4643665E-002	1.000000000000000E+000	11	1.3172683E-001	3.8291185E-004	-9.280144161822844E-006	-1.3639758E-004	2.8328844E-003	6.5162824E-004	2.9068631E-003	1.2954010E+001	1.812331483395395E-007
6.3077344E+003	3.4053571E+002	7.9969902E+001	3.4979959E+002	-1.3215624E+001	2.608955107917427E+001	3.3100924E+000	-1.1112727E-003	3.1551513E-001	1.6490534E-002	1.000000000000000E+000	11	1.3192645E-001	3.7714865E-004	-9.794140805803989E-006	2.6450655E-004	2.7830696E-003	6.5356382E-004	2.8587799E-003	1.3215624E+001	-5.139966439811448E-007
5.6210552E+003	3.4616275E+002	8.2968422E+001	3.5596686E+002	-1.3478417E+001	2.679029233913752E+001	3.3100765E+000	-1.1584780E-003	3.4126318E-001	1.8539412E-002	1.000000000000000E+000	11	1.3206348E-001	3.7099936E-004	-9.926022928259852E-006	-3.7694006E-004	2.7318774E-003	6.5477745E-004	2.8092503E-003	1.3478417E+001	-1.318821224558635E-007
5.0116035E+003	3.5208060E+002	8.6066574E+001	3.6244751E+002	-1.3736641E+001	2.755071240194229E+001	3.3100979E+000	-1.1462122E-003	3.6898515E-001	2.0805957E-002	1.000000000000000E+000	11	1.3215210E-001	3.6461031E-004	-1.026882582572095E-005	2.3964079E-005	2.6801054E-003	6.5515534E-004	2.7590203E-003	1.3736641E+001	-3.428028974610961E-007
4.4664292E+003	3.5840085E+002	8.9227905E+001	3.6934100E+002	-1.3980213E+001	2.831069694471080E+001	3.3101118E+000	-1.0752192E-003	3.9935488E-001	2.3308016E-002	1.000000000000000E+000	11	1.3222495E-001	3.5800235E-004	-1.069462462536386E-005	-5.6216748E-005	2.6273259E-003	6.5410224E-004	2.7075249E-003	1.3980213E+001	-4.257987996429105E-007
3.9812742E+003	3.6502905E+002	9.2483391E+001	3.7656259E+002	-1.4217235E+001	2.907069396747102E+001	3.3100822E+000	-1.1506733E-003	4.3224928E-001	2.6072785E-002	1.000000000000000E+000	11	1.3226363E-001	3.5123943E-004	-1.115602587359111E-005	3.4468737E-004	2.5742641E-003	6.5221294E-004	2.6556011E-003	1.4217235E+001	-4.614012482272503E-007
3.5465955E+003	3.7221579E+002	9.5876076E+001	3.8436548E+002	-1.4444369E+001	3.008194844215177E+001	3.3100848E+000	-1.3567813E-004	4.6805647E-001	2.9122589E-002	1.000000000000000E+000	12	1.3416079E-001	3.4904483E-004	-1.185118204912255E-005	-1.3639758E-004	2.5194518E-003	6.4896530E-004	2.6016904E-003	1.4444369E+001	-6.951561755314400E-007
3.1610112E+003	3.7971796E+002	9.9073959E+001	3.9243008E+002	-1.4623290E+001	3.084170165158866E+001	3.3100896E+000	-1.5499900E-004	5.0819993E-001	3.2391351E-002	1.000000000000000E+000	12	1.3432573E-001	3.4229213E-004	-1.190736667159379E-005	4.2486819E-004	2.4656788E-003	6.4333162E-004	2.5482245E-003	1.4623290E+001	-5.618462247123905E-008
2.8172952E+003	3.8762241E+002	1.0222099E+002	4.0087436E+002	-1.4773294E+001	3.160196931436076E+001	3.3100843E+000	-1.6684152E-004	5.5264682E-001	3.5934474E-002	1.000000000000000E+000	12	1.3435543E-001	3.3515596E-004	-1.223700810889325E-005	-2.1657841E-004	2.4120833E-003	6.3609733E-004	2.4945473E-003	1.4773294E+001	-3.296414372994664E-007
