EC-Lab ASCII FILE
Nb header lines : 60                          

Potentio Electrochemical Impedance Spectroscopy

Run on channel : 9 (SN 41381)
User : 
CE vs. WE compliance from -10 V to 10 V
Electrode connection : standard
Ewe ctrl range : min = -5.00 V, max = 5.00 V
Acquisition started on : 12/03/2020 16:53:14
Technique started on : 12/03/2020 16:53:15
Saved on :
	File : DE_206_9_30.mpr
	Directory : P:\Chemistry\Data\VMP3\Kyler\DOE\DE_206\
	Host : 10.0.4.64
Device : VMP3 (SN 1432)
Address : USB
EC-Lab for windows v11.33 (software)
Internet server v11.32 (firmware)
Command interpretor v11.33 (firmware)
Electrode material : 
Initial state : 
Electrolyte : 
Comments : 
Electrode surface area : 0.001 cm²
Characteristic mass : 0.001 g
Equivalent Weight : 0.000 g/eq.
Density : 0.000 g/cm3
Record Analogic IN 1
Cycle Definition : Charge/Discharge alternance
Mode                Single sine         
E (V)               0.0000              
vs.                 Eoc                 
tE (h:m:s)          0:00:0.0000         
record              0                   
dI                  1.000               
unit dI             mA                  
dt (s)              0.000               
fi                  1.000               
unit fi             MHz                 
ff                  1.000               
unit ff             Hz                  
Nd                  20                  
Points              per decade          
spacing             Logarithmic         
Va (mV)             128.0               
pw                  0.50                
Na                  3                   
corr                0                   
E range min (V)     -5.000              
E range max (V)     5.000               
I Range             Auto                
Bandwidth           5                   
nc cycles           0                   
goto Ns'            0                   
nr cycles           0                   
inc. cycle          1                   

freq/Hz	Re(Z)/Ohm	-Im(Z)/Ohm	|Z|/Ohm	Phase(Z)/deg	time/s	<Ewe>/V	<I>/mA	Cs/µF	Cp/µF	cycle number	I Range	|Ewe|/V	|I|/A	(Q-Qo)/mA.h	Analog IN 1/V	Re(Y)/Ohm-1	Im(Y)/Ohm-1	|Y|/Ohm-1	Phase(Y)/deg	dq/mA.h	
1.0000186E+006	1.3442499E+002	7.0283630E+001	1.5169003E+002	-2.7602661E+001	1.644475518056424E+000	3.3402064E+000	-1.2960591E-004	2.2644247E-003	4.8612972E-004	1.000000000000000E+000	11	4.7529189E-004	3.1333100E-006	4.074299155203739E-007	1.6283807E-003	5.8420589E-003	3.0545001E-003	6.5923911E-003	2.7602661E+001	4.074299155203739E-007
8.9124669E+005	1.4600444E+002	7.1989128E+001	1.6278738E+002	-2.6246119E+001	2.239492453023558E+000	3.3397145E+000	-1.2474320E-003	2.4805919E-003	4.8511827E-004	1.000000000000000E+000	11	1.8850791E-004	1.1580007E-006	1.451134971874934E-007	1.3075040E-003	5.5096573E-003	2.7165983E-003	6.1429823E-003	2.6246119E+001	-2.623164183328805E-007
7.9433269E+005	1.4910928E+002	6.7662979E+001	1.6374327E+002	-2.4407650E+001	2.835478747991147E+000	3.3394623E+000	-1.8160393E-003	2.9611920E-003	5.0564052E-004	1.000000000000000E+000	11	1.4873026E-003	9.0831372E-006	-1.519711462794172E-007	1.4679424E-003	5.5613187E-003	2.5236213E-003	6.1071212E-003	2.4407650E+001	-2.970846434669107E-007
7.0794981E+005	1.5543861E+002	6.6808517E+001	1.6918788E+002	-2.3258347E+001	3.430482829600805E+000	3.3393116E+000	-2.1682030E-003	3.3650058E-003	5.2469992E-004	1.000000000000000E+000	11	3.5905596E-003	2.1222322E-005	-5.927235318283945E-007	1.8690383E-003	5.4302574E-003	2.3339598E-003	5.9105889E-003	2.3258347E+001	-4.407523855489772E-007
6.3095681E+005	1.6215976E+002	6.6152390E+001	1.7513402E+002	-2.2192797E+001	4.026493017881876E+000	3.3392501E+000	-2.3413941E-003	3.8130714E-003	5.4403272E-004	1.000000000000000E+000	11	6.6082464E-003	3.7732512E-005	-8.475868992108089E-007	1.7086000E-003	5.2869120E-003	2.1567733E-003	5.7099131E-003	2.2192797E+001	-2.548633673824144E-007
5.6234225E+005	1.6860228E+002	6.4792427E+001	1.8062334E+002	-2.1021345E+001	4.622487846208969E+000	3.3391721E+000	-2.4754361E-003	4.3681259E-003	5.6207716E-004	1.000000000000000E+000	11	1.0663450E-002	5.9036945E-005	-1.189950458360221E-006	1.6283807E-003	5.1679192E-003	1.9859876E-003	5.5363830E-003	2.1021345E+001	-3.423635591494125E-007
5.0120619E+005	1.7464552E+002	6.3581039E+001	1.8585910E+002	-2.0004423E+001	5.218493714492070E+000	3.3391407E+000	-2.6143254E-003	4.9943170E-003	5.8447197E-004	1.000000000000000E+000	11	1.5766598E-002	8.4830921E-005	-1.606557268609726E-006	1.6283807E-003	5.0557987E-003	1.8406024E-003	5.3804200E-003	2.0004423E+001	-4.166068102495047E-007
4.4668572E+005	1.8058530E+002	6.2189503E+001	1.9099367E+002	-1.9002552E+001	5.813478569412837E+000	3.3391418E+000	-2.6171200E-003	5.7292925E-003	6.0743134E-004	1.000000000000000E+000	11	2.1914037E-002	1.1473698E-004	-2.104042599230701E-006	1.7086000E-003	4.9504475E-003	1.7048224E-003	5.2357758E-003	1.9002552E+001	-4.974853306209754E-007
3.9810347E+005	1.8600925E+002	6.0767315E+001	1.9568369E+002	-1.8091686E+001	6.409490224410547E+000	3.3391187E+000	-2.6769629E-003	6.5789130E-003	6.3443190E-004	1.000000000000000E+000	11	2.9114902E-002	1.4878553E-004	-2.437007375027558E-006	1.6283807E-003	4.8576393E-003	1.5869412E-003	5.1102880E-003	1.8091686E+001	-3.329647757968562E-007
3.5480997E+005	1.9115369E+002	5.8933723E+001	2.0003229E+002	-1.7134815E+001	7.004480465984670E+000	3.3390849E+000	-2.8760680E-003	7.6113278E-003	6.6067517E-004	1.000000000000000E+000	11	3.7397385E-002	1.8695673E-004	-3.142661967856434E-006	1.4679424E-003	4.7772997E-003	1.4728674E-003	4.9991929E-003	1.7134815E+001	-7.056545928288767E-007
3.1622997E+005	1.9600691E+002	5.7113853E+001	2.0415852E+002	-1.6245432E+001	7.600488334283000E+000	3.3390596E+000	-2.8701017E-003	8.8120233E-003	6.8964175E-004	1.000000000000000E+000	11	4.6811253E-002	2.2928875E-004	-3.076535461312031E-006	1.8690383E-003	4.7025820E-003	1.3702709E-003	4.8981546E-003	1.6245432E+001	6.612650654440364E-008
2.8183453E+005	2.0047829E+002	5.5158863E+001	2.0792798E+002	-1.5383513E+001	8.196487455948954E+000	3.3389955E+000	-3.0690201E-003	1.0237893E-002	7.2046911E-004	1.000000000000000E+000	11	5.7305668E-002	2.7560344E-004	-3.186298093776309E-006	1.3877231E-003	4.6370472E-003	1.2758201E-003	4.8093577E-003	1.5383513E+001	-1.097626324642784E-007
2.5118764E+005	2.0469595E+002	5.3207005E+001	2.1149803E+002	-1.4570560E+001	8.792475804249989E+000	3.3389599E+000	-3.1236403E-003	1.1908391E-002	7.5366441E-004	1.000000000000000E+000	11	6.8992727E-002	3.2620979E-004	-3.278208512033517E-006	1.3877231E-003	4.5761112E-003	1.1894772E-003	4.7281762E-003	1.4570560E+001	-9.191041825720771E-008
2.2387173E+005	2.0865704E+002	5.1181087E+001	2.1484242E+002	-1.3781871E+001	9.388480899244314E+000	3.3389897E+000	-2.8934001E-003	1.3890292E-002	7.8829774E-004	1.000000000000000E+000	11	8.1818953E-002	3.8083238E-004	-3.411674871955054E-006	1.6283807E-003	4.5205676E-003	1.1088414E-003	4.6545742E-003	1.3781871E+001	-1.334663599215372E-007
1.9954350E+005	2.1233266E+002	4.9283016E+001	2.1797701E+002	-1.3067143E+001	9.984480927552795E+000	3.3389194E+000	-3.1950404E-003	1.6183978E-002	8.2729134E-004	1.000000000000000E+000	11	9.5727295E-002	4.3916237E-004	-4.666780105530051E-006	1.2272848E-003	4.4688466E-003	1.0372321E-003	4.5876401E-003	1.3067143E+001	-1.255105233574997E-006
1.7783180E+005	2.1580899E+002	4.7382774E+001	2.2094942E+002	-1.2383308E+001	1.057949748911778E+001	3.3389130E+000	-3.2202082E-003	1.8888185E-002	8.6865132E-004	1.000000000000000E+000	11	1.1079090E-001	5.0143106E-004	-4.700161027874047E-006	1.7086000E-003	4.4206260E-003	9.7058772E-004	4.5259227E-003	1.2383308E+001	-3.338092234399576E-008
1.5848613E+005	2.1910423E+002	4.5526752E+001	2.2378416E+002	-1.1738220E+001	1.103949023099267E+001	3.3389616E+000	-3.0173727E-003	2.2057801E-002	9.1292866E-004	1.000000000000000E+000	11	1.2692621E-001	5.6718139E-004	-4.894963623942911E-006	9.0640807E-004	4.3751411E-003	9.0909231E-004	4.4685914E-003	1.1738220E+001	-1.948025960688637E-007
1.4125594E+005	2.2222310E+002	4.3772953E+001	2.2649321E+002	-1.1143321E+001	1.163547513927915E+001	3.3389065E+000	-3.2354945E-003	2.5739942E-002	9.6141052E-004	1.000000000000000E+000	11	1.2899691E-001	5.6953984E-004	-5.302800106065762E-006	1.3075040E-003	4.3319040E-003	8.5328764E-004	4.4151433E-003	1.1143321E+001	-4.078364821228508E-007
1.2590930E+005	2.2516255E+002	4.2009521E+001	2.2904797E+002	-1.0568404E+001	1.223248554099700E+001	3.3389223E+000	-3.2189032E-003	3.0089473E-002	1.0121786E-003	1.000000000000000E+000	11	1.2978850E-001	5.6664331E-004	-5.348315761246744E-006	1.1470657E-003	4.2918376E-003	8.0074614E-004	4.3658977E-003	1.0568404E+001	-4.551565518098253E-008
1.1220494E+005	2.2793701E+002	4.0352238E+001	2.3148128E+002	-1.0039195E+001	1.282749279591371E+001	3.3390157E+000	-2.8356058E-003	3.5151228E-002	1.0681790E-003	1.000000000000000E+000	11	1.2974381E-001	5.6049379E-004	-6.596841847051918E-006	1.5481616E-003	4.2538592E-003	7.5307098E-004	4.3200040E-003	1.0039195E+001	-1.248526085805174E-006
1.0000371E+005	2.3056139E+002	3.8722057E+001	2.3379041E+002	-9.5336733E+000	1.342247935748310E+001	3.3389537E+000	-3.1489925E-003	4.1100353E-002	1.1274805E-003	1.000000000000000E+000	11	1.2973525E-001	5.5492116E-004	-7.271828468355428E-006	1.4679424E-003	4.2182589E-003	7.0844323E-004	4.2773355E-003	9.5336733E+000	-6.749866213035096E-007
8.9129305E+004	2.3305956E+002	3.7163734E+001	2.3600403E+002	-9.0601206E+000	1.401748597240658E+001	3.3389401E+000	-3.2107006E-003	4.8048545E-002	1.1914618E-003	1.000000000000000E+000	11	1.2960739E-001	5.4917450E-004	-8.983140888536582E-006	1.3075040E-003	4.1843508E-003	6.6723762E-004	4.2372160E-003	9.0601206E+000	-1.711312420181155E-006
7.9433273E+004	2.3542645E+002	3.5695282E+001	2.3811713E+002	-8.6215029E+000	1.461447384077474E+001	3.3389683E+000	-3.2024975E-003	5.6131527E-002	1.2613838E-003	1.000000000000000E+000	11	1.2952539E-001	5.4395664E-004	-9.836706289821046E-006	1.3877231E-003	4.1521592E-003	6.2954903E-004	4.1996138E-003	8.6215029E+000	-8.535654012844632E-007
7.0794977E+004	2.3759366E+002	3.4316483E+001	2.4005910E+002	-8.2185946E+000	1.521049146910082E+001	3.3389988E+000	-3.0501850E-003	6.5511100E-002	1.3387026E-003	1.000000000000000E+000	11	1.2935054E-001	5.3882791E-004	-9.253957012855809E-006	1.7888192E-003	4.1228593E-003	5.9547898E-004	4.1656410E-003	8.2185946E+000	5.827492769652364E-007
6.3093828E+004	2.3969209E+002	3.2984287E+001	2.4195096E+002	-7.8353224E+000	1.567049301092629E+001	3.3389683E+000	-3.1322138E-003	7.6476172E-002	1.4212996E-003	1.000000000000000E+000	11	1.4061007E-001	5.8115111E-004	-9.533219090869858E-006	1.2272848E-003	4.0944824E-003	5.6344614E-004	4.1330690E-003	7.8353224E+000	-2.792620780140488E-007
5.6237012E+004	2.4166939E+002	3.1794569E+001	2.4375189E+002	-7.4949179E+000	1.626648943926557E+001	3.3389962E+000	-3.1241977E-003	8.9011259E-002	1.5144497E-003	1.000000000000000E+000	11	1.3041386E-001	5.3502707E-004	-1.035590582528372E-005	1.6283807E-003	4.0674820E-003	5.3512712E-004	4.1025323E-003	7.4949179E+000	-8.226867344138655E-007
5.0122477E+004	2.4354579E+002	3.0660986E+001	2.4546822E+002	-7.1754527E+000	1.672549751438783E+001	3.3389807E+000	-3.1238247E-003	1.0356225E-001	1.6157835E-003	1.000000000000000E+000	11	1.3984244E-001	5.6969671E-004	-1.072321835033007E-005	1.7888192E-003	4.0419418E-003	5.0885679E-004	4.0738471E-003	7.1754527E+000	-3.673125250463474E-007
4.4666715E+004	2.4530545E+002	2.9628674E+001	2.4708829E+002	-6.8869824E+000	1.732048154264339E+001	3.3389864E+000	-3.1588736E-003	1.2026075E-001	1.7291951E-003	1.000000000000000E+000	11	1.3007666E-001	5.2643800E-004	-1.151532723372737E-005	1.4679424E-003	4.0179347E-003	4.8529729E-004	4.0471363E-003	6.8869824E+000	-7.921088833973039E-007
3.9814063E+004	2.4697363E+002	2.8699593E+001	2.4863556E+002	-6.6283321E+000	1.777948031111737E+001	3.3389552E+000	-3.2267321E-003	1.3928615E-001	1.8558074E-003	1.000000000000000E+000	11	1.3745415E-001	5.5283384E-004	-1.241047019058735E-005	1.3075040E-003	3.9950674E-003	4.6424716E-004	4.0219510E-003	6.6283321E+000	-8.951429568599753E-007
3.5480996E+004	2.4856883E+002	2.7917418E+001	2.5013165E+002	-6.4081850E+000	1.837449809940881E+001	3.3390160E+000	-3.0805739E-003	1.6067529E-001	2.0015307E-003	1.000000000000000E+000	11	1.2959318E-001	5.1809987E-004	-1.395520818805542E-005	1.7888192E-003	3.9729155E-003	4.4620858E-004	3.9978945E-003	6.4081850E+000	-1.544737997468069E-006
3.1621143E+004	2.5010942E+002	2.7206112E+001	2.5158476E+002	-6.2080450E+000	1.883448980122921E+001	3.3389940E+000	-3.2043620E-003	1.8500185E-001	2.1634176E-003	1.000000000000000E+000	11	1.3507962E-001	5.3691497E-004	-1.436474138722082E-005	1.0668464E-003	3.9514946E-003	4.2983110E-004	3.9748037E-003	6.2080450E+000	-4.095331991654051E-007
2.8188096E+004	2.5157756E+002	2.6605635E+001	2.5298048E+002	-6.0368876E+000	1.929348307635519E+001	3.3389914E+000	-3.1750922E-003	2.1221729E-001	2.3472209E-003	1.000000000000000E+000	11	1.3991599E-001	5.5307028E-004	-1.482647499840015E-005	1.1470657E-003	3.9309529E-003	4.1571871E-004	3.9528739E-003	6.0368876E+000	-4.617336111793213E-007
2.5116910E+004	2.5301550E+002	2.6159883E+001	2.5436427E+002	-5.9029741E+000	1.988949579800828E+001	3.3390045E+000	-3.1141313E-003	2.4222451E-001	2.5619904E-003	1.000000000000000E+000	11	1.2961143E-001	5.0955045E-004	-1.605406280728575E-005	1.4679424E-003	3.9105234E-003	4.0431845E-004	3.9313696E-003	5.9029741E+000	-1.227587808885600E-006
2.2389027E+004	2.5442719E+002	2.5792181E+001	2.5573117E+002	-5.7885003E+000	2.034849261978525E+001	3.3390002E+000	-3.1956006E-003	2.7561119E-001	2.8035329E-003	1.000000000000000E+000	11	1.3286594E-001	5.1955314E-004	-1.695723633969384E-005	1.4679424E-003	3.8904173E-003	3.9438528E-004	3.9103562E-003	5.7885003E+000	-9.031735324080931E-007
1.9948783E+004	2.5580811E+002	2.5533129E+001	2.5707922E+002	-5.7000189E+000	2.080747728163260E+001	3.3389919E+000	-3.2079048E-003	3.1246379E-001	3.0822922E-003	1.000000000000000E+000	11	1.3560748E-001	5.2749296E-004	-1.763707642670023E-005	1.8690383E-003	3.8706183E-003	3.8634034E-004	3.8898515E-003	5.7000189E+000	-6.798400870063935E-007
1.7786895E+004	2.5713501E+002	2.5413708E+001	2.5838782E+002	-5.6444459E+000	2.126747541010263E+001	3.3390033E+000	-3.2198359E-003	3.5208863E-001	3.4059947E-003	1.000000000000000E+000	11	1.3786554E-001	5.3356052E-004	-1.772381780476361E-005	1.5481616E-003	3.8513867E-003	3.8064833E-004	3.8701515E-003	5.6444459E+000	-8.674137806338042E-008
1.5847686E+004	2.5848141E+002	2.5397552E+001	2.5972617E+002	-5.6116858E+000	2.172747295195586E+001	3.3390088E+000	-3.1187914E-003	3.9542344E-001	3.7810702E-003	1.000000000000000E+000	11	1.3974380E-001	5.3804286E-004	-1.765946366447355E-005	1.3075040E-003	3.8317565E-003	3.7649606E-004	3.8502088E-003	5.6116858E+000	6.435414029005865E-008
1.4121879E+004	2.5983527E+002	2.5511297E+001	2.6108466E+002	-5.6074753E+000	2.232347247362486E+001	3.3390143E+000	-3.1394870E-003	4.4176888E-001	4.2179120E-003	1.000000000000000E+000	11	1.2937793E-001	4.9554015E-004	-1.793057069601976E-005	1.4679424E-003	3.8118467E-003	3.7425695E-004	3.8301754E-003	5.6074753E+000	-2.711070315462080E-007
1.2590932E+004	2.6121817E+002	2.5747250E+001	2.6248401E+002	-5.6292372E+000	2.278349505548249E+001	3.3390162E+000	-3.2211426E-003	4.9094337E-001	4.7237556E-003	1.000000000000000E+000	11	1.3051243E-001	4.9722049E-004	-1.877471353621190E-005	1.6283807E-003	3.7913832E-003	3.7370177E-004	3.8097559E-003	5.6292372E+000	-8.441428401921355E-007
1.1217711E+004	2.6261472E+002	2.6110657E+001	2.6390955E+002	-5.6780133E+000	2.324348745067255E+001	3.3390038E+000	-3.2917985E-003	5.4337305E-001	5.3189206E-003	1.000000000000000E+000	11	1.3142869E-001	4.9800659E-004	-1.950558756646933E-005	1.6283807E-003	3.7705859E-003	3.7489322E-004	3.7891772E-003	5.6780133E+000	-7.308740302574320E-007
1.0002229E+004	2.6405356E+002	2.6553516E+001	2.6538531E+002	-5.7424216E+000	2.370348056583316E+001	3.3390052E+000	-3.2243112E-003	5.9924066E-001	5.9991754E-003	1.000000000000000E+000	11	1.3214630E-001	4.9794128E-004	-1.997730642376700E-005	1.7888192E-003	3.7491967E-003	3.7702333E-004	3.7681060E-003	5.7424216E+000	-4.717188572976755E-007
8.9149297E+003	2.6557153E+002	2.7146606E+001	2.6695538E+002	-5.8364778E+000	2.418590301543009E+001	3.3390472E+000	-3.1678241E-003	6.5763766E-001	6.8004928E-003	1.000000000000000E+000	11	1.3272822E-001	4.9719249E-004	-2.012663494697901E-005	1.4679424E-003	3.7265259E-003	3.8092386E-004	3.7459442E-003	5.8364778E+000	-1.493285232120096E-007
7.9439976E+003	2.6708273E+002	2.7839796E+001	2.6852979E+002	-5.9508266E+000	2.471200034709182E+001	3.3390424E+000	-3.1385547E-003	7.1963948E-001	7.7350326E-003	1.000000000000000E+000	11	1.3317749E-001	4.9595052E-004	-2.097100757619612E-005	2.1096959E-003	3.7039141E-003	3.8608341E-004	3.7239818E-003	5.9508266E+000	-8.443726292171052E-007
7.0822334E+003	2.6865967E+002	2.8647980E+001	2.7018277E+002	-6.0866194E+000	2.528886506782146E+001	3.3390503E+000	-3.1961612E-003	7.8443307E-001	8.8191880E-003	1.000000000000000E+000	11	1.3353151E-001	4.9422658E-004	-2.128875332583549E-005	1.6283807E-003	3.6803337E-003	3.9244493E-004	3.7011984E-003	6.0866194E+000	-3.177457496393695E-007
6.3077344E+003	2.7038361E+002	2.9574436E+001	2.7199622E+002	-6.2421718E+000	2.592356344460859E+001	3.3390424E+000	-3.3240505E-003	8.5315961E-001	1.0086430E-002	1.000000000000000E+000	11	1.3381815E-001	4.9198535E-004	-2.176606912283427E-005	1.4679424E-003	3.6547245E-003	3.9975211E-004	3.6765218E-003	6.2421718E+000	-4.773157969987829E-007
5.6210552E+003	2.7221387E+002	3.0626730E+001	2.7393137E+002	-6.4193416E+000	2.662428675786941E+001	3.3390720E+000	-3.2105139E-003	9.2448878E-001	1.1556315E-002	1.000000000000000E+000	11	1.3403822E-001	4.8931316E-004	-2.285448535108379E-005	1.9492576E-003	3.6276614E-003	4.0814749E-004	3.6505496E-003	6.4193416E+000	-1.088416228249523E-006
5.0116035E+003	2.7413785E+002	3.1763393E+001	2.7597186E+002	-6.6091909E+000	2.738468711405585E+001	3.3390689E+000	-3.2047355E-003	9.9980789E-001	1.3244657E-002	1.000000000000000E+000	11	1.3420123E-001	4.8628589E-004	-2.367417950177979E-005	1.7086000E-003	3.5994768E-003	4.1705879E-004	3.6235577E-003	6.6091909E+000	-8.196941506959961E-007
4.4664292E+003	2.7617923E+002	3.2976418E+001	2.7814099E+002	-6.8090081E+000	2.814470976348821E+001	3.3390727E+000	-3.1911260E-003	1.0805782E+000	1.5189139E-002	1.000000000000000E+000	11	1.3433267E-001	4.8296610E-004	-2.466731387420118E-005	1.8690383E-003	3.5699408E-003	4.2625892E-004	3.5952989E-003	6.8090081E+000	-9.931343724213849E-007
3.9812742E+003	2.7838565E+002	3.4292412E+001	2.8048981E+002	-7.0224957E+000	2.890470966625435E+001	3.3390765E+000	-3.2453763E-003	1.1657355E+000	1.7424563E-002	1.000000000000000E+000	11	1.3442774E-001	4.7926072E-004	-2.499223916239377E-005	1.9492576E-003	3.5384467E-003	4.3587692E-004	3.5651920E-003	7.0224957E+000	-3.249252881925919E-007
3.5465955E+003	2.8077533E+002	3.5696526E+001	2.8303537E+002	-7.2454605E+000	2.966493127567810E+001	3.3390739E+000	-3.2228190E-003	1.2571368E+000	1.9996455E-002	1.000000000000000E+000	11	1.3450278E-001	4.7521546E-004	-2.566946493938707E-005	1.4679424E-003	3.5049149E-003	4.4559932E-004	3.5331273E-003	7.2454605E+000	-6.772257769933066E-007
3.1610112E+003	2.8331531E+002	3.7111057E+001	2.8573553E+002	-7.4626021E+000	3.042469315178460E+001	3.3390541E+000	-3.3098813E-003	1.3567218E+000	2.2885948E-002	1.000000000000000E+000	11	1.3455771E-001	4.7091697E-004	-2.609629569988788E-005	1.3075040E-003	3.4700965E-003	4.5454281E-004	3.4997398E-003	7.4626021E+000	-4.268307605008096E-007
2.8172952E+003	2.8603436E+002	3.8609196E+001	2.8862836E+002	-7.6873770E+000	3.118395457448787E+001	3.3390632E+000	-3.2826629E-003	1.4631774E+000	2.6181862E-002	1.000000000000000E+000	11	1.3459450E-001	4.6632459E-004	-2.671666387076322E-005	1.9492576E-003	3.4335249E-003	4.6346054E-004	3.4646629E-003	7.6873770E+000	-6.203681708753319E-007
