EC-Lab ASCII FILE
Nb header lines : 60                          

Potentio Electrochemical Impedance Spectroscopy

Run on channel : 5 (SN 41380)
User : 
CE vs. WE compliance from -10 V to 10 V
Electrode connection : standard
Ewe ctrl range : min = -10.00 V, max = 10.00 V
Acquisition started on : 12/03/2020 16:53:50
Technique started on : 12/03/2020 16:53:51
Saved on :
	File : DE_206_5_30.mpr
	Directory : P:\Chemistry\Data\VMP3\Kyler\DOE\DE_206\
	Host : 10.0.4.64
Device : VMP3 (SN 1432)
Address : USB
EC-Lab for windows v11.33 (software)
Internet server v11.32 (firmware)
Command interpretor v11.33 (firmware)
Electrode material : 
Initial state : 
Electrolyte : 
Comments : 
Electrode surface area : 0.001 cm²
Characteristic mass : 0.001 g
Equivalent Weight : 0.000 g/eq.
Density : 0.000 g/cm3
Record Analogic IN 1
Cycle Definition : Charge/Discharge alternance
Mode                Single sine         
E (V)               0.0000              
vs.                 Eoc                 
tE (h:m:s)          0:00:0.0000         
record              0                   
dI                  1.000               
unit dI             mA                  
dt (s)              0.000               
fi                  1.000               
unit fi             MHz                 
ff                  1.000               
unit ff             Hz                  
Nd                  20                  
Points              per decade          
spacing             Logarithmic         
Va (mV)             128.0               
pw                  0.50                
Na                  3                   
corr                0                   
E range min (V)     -10.000             
E range max (V)     10.000              
I Range             Auto                
Bandwidth           5                   
nc cycles           0                   
goto Ns'            0                   
nr cycles           0                   
inc. cycle          1                   

freq/Hz	Re(Z)/Ohm	-Im(Z)/Ohm	|Z|/Ohm	Phase(Z)/deg	time/s	<Ewe>/V	<I>/mA	Cs/µF	Cp/µF	cycle number	I Range	|Ewe|/V	|I|/A	(Q-Qo)/mA.h	Analog IN 1/V	Re(Y)/Ohm-1	Im(Y)/Ohm-1	|Y|/Ohm-1	Phase(Y)/deg	dq/mA.h	
1.0000186E+006	6.7449059E+001	1.9226381E+001	7.0135788E+001	-1.5910224E+001	1.645472104806686E+000	3.3218462E+000	2.2373847E-003	8.2777925E-003	6.2205712E-004	1.000000000000000E+000	11	4.1873357E-004	5.9703266E-006	1.001016071086067E-006	8.6577918E-004	1.3711864E-002	3.9085727E-003	1.4258056E-002	1.5910224E+001	1.001016071086067E-006
8.9124669E+005	6.9618919E+001	1.7801508E+001	7.1858803E+001	-1.4343165E+001	2.241486213082680E+000	3.3212547E+000	-5.6309585E-004	1.0031490E-002	6.1562896E-004	1.000000000000000E+000	11	8.5683825E-004	1.1923915E-005	8.590780479995980E-007	1.5868786E-003	1.3482404E-002	3.4474409E-003	1.3916180E-002	1.4343165E+001	-1.419380230864690E-007
7.9433269E+005	7.2413742E+001	1.6578770E+001	7.4287315E+001	-1.2895346E+001	2.836472401366336E+000	3.3209398E+000	-1.6651781E-003	1.2085522E-002	6.0192263E-004	1.000000000000000E+000	11	1.2443026E-003	1.6749866E-005	6.148346070626253E-007	1.4266343E-003	1.3121746E-002	3.0041593E-003	1.3461248E-002	1.2895346E+001	-2.442434409369728E-007
7.0794981E+005	7.4769592E+001	1.6596508E+001	7.6589401E+001	-1.2514963E+001	3.432498109672451E+000	3.3207612E+000	-2.2717610E-003	1.3545684E-002	6.3605845E-004	1.000000000000000E+000	11	1.3341755E-003	1.7419845E-005	5.962324117192313E-008	1.3465121E-003	1.2746404E-002	2.8293023E-003	1.3056637E-002	1.2514963E+001	-5.552113658907022E-007
6.3095681E+005	7.6986633E+001	1.5870490E+001	7.8605431E+001	-1.1648128E+001	4.028486297960626E+000	3.3206768E+000	-2.5419141E-003	1.5893890E-002	6.4789667E-004	1.000000000000000E+000	11	8.6133997E-004	1.0957767E-005	-1.348118440259390E-007	1.1862677E-003	1.2459775E-002	2.5685334E-003	1.2721768E-002	1.1648128E+001	-1.944350851978622E-007
5.6234225E+005	7.8808022E+001	1.5805474E+001	8.0377342E+001	-1.1340598E+001	4.624487392982701E+000	3.3205931E+000	-2.8466054E-003	1.7906548E-002	6.9240417E-004	1.000000000000000E+000	11	3.9665881E-004	4.9349583E-006	-3.187752147172836E-007	1.1061456E-003	1.2198407E-002	2.4464722E-003	1.2441317E-002	1.1340598E+001	-1.839633706913446E-007
5.0120619E+005	8.1141937E+001	1.5904194E+001	8.2685898E+001	-1.1089649E+001	5.221486727969022E+000	3.3205647E+000	-2.8736752E-003	1.9966045E-002	7.3867344E-004	1.000000000000000E+000	11	2.6107405E-003	3.1574193E-005	-1.067639745837369E-006	2.0676113E-003	1.1868135E-002	2.3262091E-003	1.2093960E-002	1.1089649E+001	-7.488645311200848E-007
4.4668572E+005	8.2943901E+001	1.5551916E+001	8.4389290E+001	-1.0619613E+001	5.816477102896897E+000	3.3205404E+000	-2.9420063E-003	2.2910478E-002	7.7808544E-004	1.000000000000000E+000	11	5.8814208E-003	6.9693924E-005	-1.119778827586237E-006	1.1061456E-003	1.1646884E-002	2.1837819E-003	1.1849845E-002	1.0619613E+001	-5.213908174886870E-008
3.9810347E+005	8.4481171E+001	1.5353191E+001	8.5864944E+001	-1.0300237E+001	6.411472571169725E+000	3.3205144E+000	-3.0392744E-003	2.6039073E-002	8.3251309E-004	1.000000000000000E+000	11	1.0224553E-002	1.1907715E-004	-1.809962903094452E-006	1.4266343E-003	1.1458510E-002	2.0824131E-003	1.1646196E-002	1.0300237E+001	-6.901840755082148E-007
3.5480997E+005	8.6016739E+001	1.4993366E+001	8.7313690E+001	-9.8877449E+000	7.007479772815714E+000	3.3204718E+000	-3.2732042E-003	2.9917492E-002	8.8218320E-004	1.000000000000000E+000	11	1.5698770E-002	1.7979735E-004	-2.248314283713828E-006	1.3465121E-003	1.1282837E-002	1.9666834E-003	1.1452958E-002	9.8877449E+000	-4.383513806193756E-007
3.1622997E+005	8.7418236E+001	1.4663802E+001	8.8639580E+001	-9.5223179E+000	7.603484681138070E+000	3.3204358E+000	-3.3437745E-003	3.4321837E-002	9.3930867E-004	1.000000000000000E+000	11	2.2288077E-002	2.5144609E-004	-3.149296852889367E-006	1.1862677E-003	1.1126195E-002	1.8663420E-003	1.1281642E-002	9.5223179E+000	-9.009825691755397E-007
2.8183453E+005	8.8670723E+001	1.4282612E+001	8.9813644E+001	-9.1503067E+000	8.199492789426586E+000	3.3203988E+000	-3.2857112E-003	3.9538324E-002	9.9988235E-004	1.000000000000000E+000	11	2.9954970E-002	3.3352361E-004	-3.841556543523135E-006	1.2663900E-003	1.0992479E-002	1.7706103E-003	1.1134165E-002	9.1503067E+000	-6.922596906337681E-007
2.5118764E+005	8.9835457E+001	1.3865609E+001	9.0899200E+001	-8.7740536E+000	8.794476871000370E+000	3.3203342E+000	-3.5763998E-003	4.5696497E-002	1.0632629E-003	1.000000000000000E+000	11	3.8795643E-002	4.2679851E-004	-4.931100585417071E-006	1.3465121E-003	1.0872456E-002	1.6781038E-003	1.1001197E-002	8.7740536E+000	-1.089544041893936E-006
2.2387173E+005	9.0921974E+001	1.3477527E+001	9.1915443E+001	-8.4316587E+000	9.389496259303996E+000	3.3203545E+000	-3.3489948E-003	5.2748568E-002	1.1341071E-003	1.000000000000000E+000	11	4.8685413E-002	5.2967609E-004	-4.904937588528911E-006	1.2663900E-003	1.0761972E-002	1.5952664E-003	1.0879564E-002	8.4316587E+000	2.616299688816051E-008
1.9954350E+005	9.1938988E+001	1.3075911E+001	9.2864182E+001	-8.0945368E+000	9.985474954271922E+000	3.3203166E+000	-3.2926097E-003	6.0997296E-002	1.2093667E-003	1.000000000000000E+000	11	5.9649542E-002	6.4233097E-004	-4.393189714649149E-006	1.5067564E-003	1.0661130E-002	1.5162664E-003	1.0768414E-002	8.0945368E+000	5.117478738797623E-007
1.7783180E+005	9.2880135E+001	1.2688210E+001	9.3742790E+001	-7.7789359E+000	1.058148975591757E+001	3.3202701E+000	-3.6749656E-003	7.0535921E-002	1.2922167E-003	1.000000000000000E+000	11	7.1610451E-002	7.6390355E-004	-4.109619383388134E-006	1.3465121E-003	1.0569321E-002	1.4438585E-003	1.0667487E-002	7.7789359E+000	2.835703312610142E-007
1.5848613E+005	9.3800972E+001	1.2323850E+001	9.4607079E+001	-7.4848194E+000	1.117647911750828E+001	3.3203232E+000	-3.1299915E-003	8.1485905E-002	1.3827002E-003	1.000000000000000E+000	11	8.4472649E-002	8.9287874E-004	-4.925600862285743E-006	1.5067564E-003	1.0479971E-002	1.3768895E-003	1.0570033E-002	7.4848194E+000	-8.159814788976087E-007
1.4125594E+005	9.4653854E+001	1.1955519E+001	9.5405907E+001	-7.1987820E+000	1.177149338574964E+001	3.3202634E+000	-3.6176473E-003	9.4242103E-002	1.4798964E-003	1.000000000000000E+000	11	9.8303996E-002	1.0303764E-003	-6.572662736024035E-006	1.2663900E-003	1.0398909E-002	1.3134632E-003	1.0481532E-002	7.1987820E+000	-1.647061873738292E-006
1.2590930E+005	9.5471642E+001	1.1602068E+001	9.6174019E+001	-6.9288206E+000	1.236747642737464E+001	3.3202674E+000	-3.5175702E-003	1.0894992E-001	1.5855583E-003	1.000000000000000E+000	11	1.1309058E-001	1.1758953E-003	-6.047104439458861E-006	1.2663900E-003	1.0321882E-002	1.2543533E-003	1.0397819E-002	6.9288206E+000	5.255582965651734E-007
1.1220494E+005	9.6242287E+001	1.1269554E+001	9.6899849E+001	-6.6786733E+000	1.282749628924648E+001	3.3203785E+000	-2.4145476E-003	1.2586397E-001	1.7024277E-003	1.000000000000000E+000	11	1.2906788E-001	1.3319720E-003	-7.170521792244270E-006	1.1061456E-003	1.0249902E-002	1.2002190E-003	1.0319933E-002	6.6786733E+000	-1.123417352785408E-006
1.0000371E+005	9.7001854E+001	1.0944691E+001	9.7617348E+001	-6.4374404E+000	1.342349082420697E+001	3.3202894E+000	-3.2517046E-003	1.4541209E-001	1.8279044E-003	1.000000000000000E+000	11	1.2955654E-001	1.3271876E-003	-5.709462796215020E-006	1.6670007E-003	1.0179491E-002	1.1485489E-003	1.0244081E-002	6.4374404E+000	1.461058996029250E-006
8.9129305E+004	9.7713768E+001	1.0646365E+001	9.8292046E+001	-6.2181110E+000	1.401847967915819E+001	3.3203106E+000	-3.1045857E-003	1.6772518E-001	1.9677242E-003	1.000000000000000E+000	11	1.2977046E-001	1.3202539E-003	-7.300264095861671E-006	1.0260234E-003	1.0113909E-002	1.1019569E-003	1.0173763E-002	6.2181110E+000	-1.590801299646652E-006
7.9433273E+004	9.8389267E+001	1.0362481E+001	9.8933456E+001	-6.0122986E+000	1.461448981412104E+001	3.3203051E+000	-3.3351604E-003	1.9335435E-001	2.1212657E-003	1.000000000000000E+000	11	1.2970433E-001	1.3110259E-003	-8.358195995886086E-006	1.5868786E-003	1.0052205E-002	1.0587110E-003	1.0107804E-002	6.0122986E+000	-1.057931900024415E-006
7.0794977E+004	9.9039574E+001	1.0101933E+001	9.9553436E+001	-5.8239684E+000	1.521048186908592E+001	3.3203478E+000	-2.8458242E-003	2.2254260E-001	2.2914463E-003	1.000000000000000E+000	11	1.2972173E-001	1.3030362E-003	-1.160158129061650E-005	7.8565703E-004	9.9930093E-003	1.0192764E-003	1.0044857E-002	5.8239684E+000	-3.243385294730412E-006
6.3093828E+004	9.9653183E+001	9.8667727E+000	1.0014045E+002	-5.6544900E+000	1.580647395076812E+001	3.3203254E+000	-3.1200848E-003	2.5565726E-001	2.4819286E-003	1.000000000000000E+000	11	1.2955244E-001	1.2937074E-003	-1.103712623805687E-005	1.1862677E-003	9.9373851E-003	9.8391157E-004	9.9859750E-003	5.6544900E+000	5.644550525596256E-007
5.6237012E+004	1.0024445E+002	9.6672211E+000	1.0070951E+002	-5.5083690E+000	1.640149488564930E+001	3.3203461E+000	-3.0338324E-003	2.9274955E-001	2.6974822E-003	1.000000000000000E+000	11	1.2941577E-001	1.2850402E-003	-1.255926092106125E-005	1.8272450E-003	9.8836962E-003	9.5314876E-004	9.9295489E-003	5.5083690E+000	-1.522134683004373E-006
5.0122477E+004	1.0080064E+002	9.4969826E+000	1.0124703E+002	-5.3822627E+000	1.699748947398621E+001	3.3203528E+000	-2.9333881E-003	3.3435050E-001	2.9417695E-003	1.000000000000000E+000	11	1.2936339E-001	1.2777005E-003	-1.391310914221685E-005	1.0260234E-003	9.8332856E-003	9.2644797E-004	9.8768324E-003	5.3822627E+000	-1.353848221155608E-006
4.4666715E+004	1.0134631E+002	9.3542595E+000	1.0177709E+002	-5.2734561E+000	1.745749242915190E+001	3.3203707E+000	-2.8342458E-003	3.8091379E-001	3.2176992E-003	1.000000000000000E+000	11	1.4071363E-001	1.3825669E-003	-1.495999664594678E-005	1.4266343E-003	9.7838063E-003	9.0304483E-004	9.8253936E-003	5.2734561E+000	-1.046887503729926E-006
3.9814063E+004	1.0186578E+002	9.2485962E+000	1.0228477E+002	-5.1877737E+000	1.805449797751498E+001	3.3203416E+000	-3.1770323E-003	4.3222293E-001	3.5337636E-003	1.000000000000000E+000	11	1.3045633E-001	1.2754228E-003	-1.576958849378732E-005	1.0260234E-003	9.7365780E-003	8.8400318E-004	9.7766258E-003	5.1877737E+000	-8.095918478405426E-007
3.5480996E+004	1.0238139E+002	9.1810837E+000	1.0279223E+002	-5.1243100E+000	1.851349218600080E+001	3.3203659E+000	-3.0566049E-003	4.8857403E-001	3.8976041E-003	1.000000000000000E+000	11	1.4001343E-001	1.3621013E-003	-1.689703547483077E-005	1.5868786E-003	9.6894801E-003	8.6890714E-004	9.7283619E-003	5.1243100E+000	-1.127446981043451E-006
3.1621143E+004	1.0288284E+002	9.1560583E+000	1.0328946E+002	-5.0856400E+000	1.910849221426179E+001	3.3203688E+000	-2.8695406E-003	5.4971051E-001	4.3195561E-003	1.000000000000000E+000	11	1.3010851E-001	1.2596494E-003	-1.587241920508030E-005	1.6670007E-003	9.6434169E-003	8.5821591E-004	9.6815303E-003	5.0856400E+000	1.024616269750470E-006
2.8188096E+004	1.0337501E+002	9.1731977E+000	1.0378121E+002	-5.0709786E+000	1.956849223611061E+001	3.3203797E+000	-2.8669205E-003	6.1550790E-001	4.8088105E-003	1.000000000000000E+000	11	1.3760605E-001	1.3259245E-003	-1.640942246540605E-005	9.4590132E-004	9.5979413E-003	8.5169339E-004	9.6356552E-003	5.0709786E+000	-5.370032603257440E-007
2.5116910E+004	1.0386488E+002	9.2199841E+000	1.0427331E+002	-5.0727935E+000	2.016448495772784E+001	3.3203750E+000	-2.9259273E-003	6.8726426E-001	5.3732591E-003	1.000000000000000E+000	11	1.2962700E-001	1.2431466E-003	-1.866648662874811E-005	1.3465121E-003	9.5526194E-003	8.4797660E-004	9.5901825E-003	5.0727935E+000	-2.257064163342068E-006
2.2389027E+004	1.0435826E+002	9.3163691E+000	1.0477328E+002	-5.1014395E+000	2.062349431289476E+001	3.3203762E+000	-2.9753963E-003	7.6302409E-001	6.0329605E-003	1.000000000000000E+000	11	1.3525063E-001	1.2908885E-003	-1.807838860787969E-005	7.8565703E-004	9.5066112E-003	8.4868318E-004	9.5444182E-003	5.1014395E+000	5.880980208684285E-007
1.9948783E+004	1.0485580E+002	9.4609709E+000	1.0528176E+002	-5.1557450E+000	2.108247542797471E+001	3.3203762E+000	-3.0293497E-003	8.4327263E-001	6.8097813E-003	1.000000000000000E+000	11	1.4022982E-001	1.3319479E-003	-1.825518161361106E-005	1.4266343E-003	9.4598923E-003	8.5355085E-004	9.4983215E-003	5.1557450E+000	-1.767930057313694E-007
1.7786895E+004	1.0536747E+002	9.6430969E+000	1.0580781E+002	-5.2290707E+000	2.167848857628996E+001	3.3203852E+000	-2.9922060E-003	9.2790496E-001	7.7072796E-003	1.000000000000000E+000	11	1.2966610E-001	1.2254871E-003	-1.749404928352063E-005	1.1862677E-003	9.4117662E-003	8.6135289E-004	9.4510987E-003	5.2290707E+000	7.611323300904262E-007
1.5847686E+004	1.0588995E+002	9.8841410E+000	1.0635026E+002	-5.3327374E+000	2.213748366475920E+001	3.3203807E+000	-2.9541177E-003	1.0160506E+000	8.7763947E-003	1.000000000000000E+000	11	1.3300326E-001	1.2506153E-003	-1.744038563899489E-005	1.3465121E-003	9.3621947E-003	8.7390019E-004	9.4028926E-003	5.3327374E+000	5.366364452574134E-008
1.4121879E+004	1.0642966E+002	1.0161494E+001	1.0691364E+002	-5.4538488E+000	2.259648453994305E+001	3.3203790E+000	-2.9974282E-003	1.1090984E+000	1.0018875E-002	1.000000000000000E+000	11	1.3579324E-001	1.2701207E-003	-1.866297455664284E-005	1.0260234E-003	9.3110017E-003	8.8897860E-004	9.3533434E-003	5.4538488E+000	-1.222588917647954E-006
1.2590932E+004	1.0699300E+002	1.0489759E+001	1.0750598E+002	-5.5994720E+000	2.305549114840687E+001	3.3203855E+000	-2.9505659E-003	1.2050269E+000	1.1472618E-002	1.000000000000000E+000	11	1.3809358E-001	1.2845199E-003	-1.865859203324524E-005	1.3465121E-003	9.2574218E-003	9.0761209E-004	9.3018077E-003	5.5994720E+000	4.382523397602914E-009
1.1217711E+004	1.0759576E+002	1.0866402E+001	1.0814308E+002	-5.7669101E+000	2.351448570351931E+001	3.3203776E+000	-3.0506367E-003	1.3056601E+000	1.3182694E-002	1.000000000000000E+000	11	1.3999774E-001	1.2945603E-003	-1.967650426618962E-005	1.0260234E-003	9.2002088E-003	9.2915521E-004	9.2470087E-003	5.7669101E+000	-1.017912232944379E-006
1.0002229E+004	1.0822739E+002	1.1274562E+001	1.0881307E+002	-5.9473214E+000	2.410948607846512E+001	3.3203824E+000	-2.9634538E-003	1.4113139E+000	1.5151681E-002	1.000000000000000E+000	11	1.2939870E-001	1.1891834E-003	-2.160453044127725E-005	1.3465121E-003	9.1406079E-003	9.5222052E-004	9.1900723E-003	5.9473214E+000	-1.928026175087626E-006
8.9149297E+003	1.0890091E+002	1.1750731E+001	1.0953304E+002	-6.1585565E+000	2.459191935471608E+001	3.3204205E+000	-2.6270221E-003	1.5192783E+000	1.7485447E-002	1.000000000000000E+000	11	1.3051043E-001	1.1915165E-003	-2.197832024495518E-005	1.1061456E-003	9.0769762E-003	9.7943260E-004	9.1296649E-003	6.1585565E+000	-3.737898036779382E-007
7.9439976E+003	1.0961971E+002	1.2261840E+001	1.1030337E+002	-6.3824592E+000	2.511798740638187E+001	3.3204424E+000	-2.5080952E-003	1.6338996E+000	2.0191060E-002	1.000000000000000E+000	11	1.3138227E-001	1.1910994E-003	-2.168629127566884E-005	1.2663900E-003	9.0097161E-003	1.0078087E-003	9.0659065E-003	6.3824592E+000	2.920289692863474E-007
7.0822334E+003	1.1039330E+002	1.2813346E+001	1.1113444E+002	-6.6206927E+000	2.569488887378247E+001	3.3204434E+000	-2.5346070E-003	1.7538294E+000	2.3313912E-002	1.000000000000000E+000	11	1.3206294E-001	1.1883170E-003	-2.322425461303727E-005	1.1061456E-003	8.9381039E-003	1.0374454E-003	8.9981109E-003	6.6206927E+000	-1.537963337368435E-006
6.3077344E+003	1.1122977E+002	1.3412039E+001	1.1203547E+002	-6.8755064E+000	2.632956359724631E+001	3.3204460E+000	-2.5840823E-003	1.8812735E+000	2.6960656E-002	1.000000000000000E+000	11	1.3259771E-001	1.1835333E-003	-2.300144286114179E-005	1.1061456E-003	8.8615557E-003	1.0685226E-003	8.9257443E-003	6.8755064E+000	2.228117518954779E-007
5.6210552E+003	1.1213796E+002	1.4039824E+001	1.1301345E+002	-7.1363745E+000	2.703027448387002E+001	3.3204739E+000	-2.3279302E-003	2.0166969E+000	3.1124590E-002	1.000000000000000E+000	11	1.3300395E-001	1.1768860E-003	-2.388384250187341E-005	1.7471228E-003	8.7799570E-003	1.0992624E-003	8.8485042E-003	7.1363745E+000	-8.823996407316160E-007
5.0116035E+003	1.1311372E+002	1.4693132E+001	1.1406403E+002	-7.4011083E+000	2.779069764001179E+001	3.3204844E+000	-2.3443617E-003	2.1613696E+000	3.5864141E-002	1.000000000000000E+000	11	1.3330662E-001	1.1686999E-003	-2.357147041232222E-005	1.1061456E-003	8.6939652E-003	1.1293199E-003	8.7670060E-003	7.4011083E+000	3.123720895511936E-007
4.4664292E+003	1.1418143E+002	1.5373042E+001	1.1521168E+002	-7.6680188E+000	2.854969375606015E+001	3.3205011E+000	-2.2625867E-003	2.3179276E+000	4.1269243E-002	1.000000000000000E+000	11	1.3354710E-001	1.1591455E-003	-2.489078951193409E-005	1.1862677E-003	8.6020604E-003	1.1581554E-003	8.6796759E-003	7.6680188E+000	-1.319319099611879E-006
3.9812742E+003	1.1531921E+002	1.6066162E+001	1.1643299E+002	-7.9313412E+000	2.930968371215567E+001	3.3204978E+000	-2.2646429E-003	2.4882035E+000	4.7375966E-002	1.000000000000000E+000	11	1.3370834E-001	1.1483716E-003	-2.590485420464150E-005	1.1862677E-003	8.5064732E-003	1.1851137E-003	8.5886307E-003	7.9313412E+000	-1.014064692707406E-006
3.5465955E+003	1.1657017E+002	1.6772896E+001	1.1777068E+002	-8.1879034E+000	3.006896673486335E+001	3.3204811E+000	-2.3749811E-003	2.6754723E+000	5.4267790E-002	1.000000000000000E+000	11	1.3382684E-001	1.1363340E-003	-2.550186038505571E-005	1.7471228E-003	8.4045222E-003	1.2092990E-003	8.4910775E-003	8.1879034E+000	4.029938195857935E-007
3.1610112E+003	1.1791611E+002	1.7459978E+001	1.1920177E+002	-8.4226542E+000	3.082867823763809E+001	3.3204880E+000	-2.3508954E-003	2.8837020E+000	6.1868902E-002	1.000000000000000E+000	11	1.3390973E-001	1.1233871E-003	-2.518011334493510E-005	1.1862677E-003	8.2986569E-003	1.2287919E-003	8.3891377E-003	8.4226542E+000	3.217470401206024E-007
2.8172952E+003	1.1935404E+002	1.8125546E+001	1.2072250E+002	-8.6351690E+000	3.158795328703127E+001	3.3204825E+000	-2.4199751E-003	3.1167121E+000	7.0259072E-002	1.000000000000000E+000	11	1.3395484E-001	1.1096095E-003	-2.505420136535799E-005	1.0260234E-003	8.1895618E-003	1.2436971E-003	8.2834596E-003	8.6351690E+000	1.259119795771152E-007
