EC-Lab ASCII FILE
Nb header lines : 60                          

Potentio Electrochemical Impedance Spectroscopy

Run on channel : 7 (SN 41379)
User : 
CE vs. WE compliance from -10 V to 10 V
Electrode connection : standard
Ewe ctrl range : min = -10.00 V, max = 10.00 V
Acquisition started on : 12/03/2020 16:53:31
Technique started on : 12/03/2020 16:53:33
Saved on :
	File : DE_206_7_30.mpr
	Directory : P:\Chemistry\Data\VMP3\Kyler\DOE\DE_206\
	Host : 10.0.4.64
Device : VMP3 (SN 1432)
Address : USB
EC-Lab for windows v11.33 (software)
Internet server v11.32 (firmware)
Command interpretor v11.33 (firmware)
Electrode material : 
Initial state : 
Electrolyte : 
Comments : 
Electrode surface area : 0.001 cm²
Characteristic mass : 0.001 g
Equivalent Weight : 0.000 g/eq.
Density : 0.000 g/cm3
Record Analogic IN 1
Cycle Definition : Charge/Discharge alternance
Mode                Single sine         
E (V)               0.0000              
vs.                 Eoc                 
tE (h:m:s)          0:00:0.0000         
record              0                   
dI                  1.000               
unit dI             mA                  
dt (s)              0.000               
fi                  1.000               
unit fi             MHz                 
ff                  1.000               
unit ff             Hz                  
Nd                  20                  
Points              per decade          
spacing             Logarithmic         
Va (mV)             128.0               
pw                  0.50                
Na                  3                   
corr                0                   
E range min (V)     -10.000             
E range max (V)     10.000              
I Range             Auto                
Bandwidth           5                   
nc cycles           0                   
goto Ns'            0                   
nr cycles           0                   
inc. cycle          1                   

freq/Hz	Re(Z)/Ohm	-Im(Z)/Ohm	|Z|/Ohm	Phase(Z)/deg	time/s	<Ewe>/V	<I>/mA	Cs/µF	Cp/µF	cycle number	I Range	|Ewe|/V	|I|/A	(Q-Qo)/mA.h	Analog IN 1/V	Re(Y)/Ohm-1	Im(Y)/Ohm-1	|Y|/Ohm-1	Phase(Y)/deg	dq/mA.h	
1.0000186E+006	1.1910130E+002	7.5998581E+001	1.4128307E+002	-3.2541962E+001	2.963471607392421E+000	3.3328311E+000	-6.9165393E-004	2.0941442E-003	6.0595077E-004	1.000000000000000E+000	11	1.8527803E-004	1.3113959E-006	-3.897608819898558E-005	9.2617015E-004	5.9667286E-003	3.8073717E-003	7.0779892E-003	3.2541962E+001	-3.897608819898558E-005
8.9124669E+005	1.2515401E+002	7.1842789E+001	1.4430840E+002	-2.9857336E+001	3.559479209041456E+000	3.3322318E+000	-1.7709498E-003	2.4856448E-003	6.1605882E-004	1.000000000000000E+000	11	1.1416533E-003	7.9112051E-006	-3.929376146342848E-005	1.3269359E-003	6.0098218E-003	3.4498484E-003	6.9296039E-003	2.9857336E+001	-3.176732644428982E-007
7.9433269E+005	1.3099159E+002	7.2844856E+001	1.4988385E+002	-2.9078581E+001	4.154480863973731E+000	3.3319139E+000	-2.1848474E-003	2.7505453E-003	6.4969109E-004	1.000000000000000E+000	11	2.7652718E-003	1.8449431E-005	-3.967007693668903E-005	1.4872423E-003	5.8308747E-003	3.2425688E-003	6.6718329E-003	2.9078581E+001	-3.763154732605497E-007
7.0794981E+005	1.3868713E+002	7.3026802E+001	1.5673875E+002	-2.7769402E+001	4.750479265610920E+000	3.3317242E+000	-2.4711338E-003	3.0784730E-003	6.6826260E-004	1.000000000000000E+000	11	5.2328277E-003	3.3385666E-005	-4.021848191774117E-005	1.0063233E-003	5.6452528E-003	2.9725523E-003	6.3800430E-003	2.7769402E+001	-5.484049810521407E-007
6.3095681E+005	1.4607397E+002	7.3372383E+001	1.6346594E+002	-2.6670197E+001	5.346490760595771E+000	3.3316269E+000	-2.4776438E-003	3.4378574E-003	6.9262565E-004	1.000000000000000E+000	11	8.6379852E-003	5.2842723E-005	-4.050894259446300E-005	1.4070892E-003	5.4666125E-003	2.7458577E-003	6.1174822E-003	2.6670197E+001	-2.904606767218255E-007
5.6234225E+005	1.5321767E+002	7.3462601E+001	1.6991882E+002	-2.5616116E+001	5.942476815573173E+000	3.3315282E+000	-2.6854295E-003	3.8525932E-003	7.2011648E-004	1.000000000000000E+000	11	1.3046284E-002	7.6779514E-005	-4.099806218525333E-005	1.3269359E-003	5.3067161E-003	2.5443879E-003	5.8851633E-003	2.5616116E+001	-4.891195907903294E-007
5.0120619E+005	1.6053410E+002	7.3287567E+001	1.7647171E+002	-2.4537806E+001	6.539491430594353E+000	3.3315108E+000	-2.5613524E-003	4.3328474E-003	7.4728084E-004	1.000000000000000E+000	11	1.8522492E-002	1.0496012E-004	-4.146850569790109E-005	1.0063233E-003	5.1548630E-003	2.3533152E-003	5.6666308E-003	2.4537806E+001	-4.704435126477575E-007
4.4668572E+005	1.6752599E+002	7.2864754E+001	1.8268614E+002	-2.3506437E+001	7.134475138824200E+000	3.3314888E+000	-2.6658950E-003	4.8899064E-003	7.7790103E-004	1.000000000000000E+000	11	2.5017805E-002	1.3694419E-004	-4.197887037466454E-005	1.3269359E-003	5.0196215E-003	2.1832641E-003	5.4738689E-003	2.3506437E+001	-5.103646767634575E-007
3.9810347E+005	1.7425223E+002	7.2269691E+001	1.8864450E+002	-2.2525831E+001	7.729482980415924E+000	3.3314495E+000	-2.5894390E-003	5.5318195E-003	8.1188045E-004	1.000000000000000E+000	11	3.2537594E-002	1.7248101E-004	-4.196514075187002E-005	8.4601698E-004	4.8965486E-003	2.0308036E-003	5.3009763E-003	2.2525831E+001	1.372962279452247E-008
3.5480997E+005	1.8081219E+002	7.1052628E+001	1.9427179E+002	-2.1453024E+001	8.324494795378996E+000	3.3314238E+000	-2.6004144E-003	6.3131219E-003	8.4447151E-004	1.000000000000000E+000	11	4.1155607E-002	2.1184552E-004	-4.202501846741244E-005	1.4872423E-003	4.7908025E-003	1.8826113E-003	5.1474278E-003	2.1453024E+001	-5.987771554241851E-008
3.1622997E+005	1.8707137E+002	6.9683464E+001	1.9962836E+002	-2.0430195E+001	8.919478316936875E+000	3.3313713E+000	-2.7479285E-003	7.2224969E-003	8.8003994E-004	1.000000000000000E+000	11	5.0895821E-002	2.5495287E-004	-4.267024499417090E-005	1.0063233E-003	4.6942136E-003	1.7485790E-003	5.0093085E-003	2.0430195E+001	-6.452265267584562E-007
2.8183453E+005	1.9300803E+002	6.8143501E+001	2.0468423E+002	-1.9446110E+001	9.514475491858320E+000	3.3313265E+000	-2.7815951E-003	8.2870787E-003	9.1850513E-004	1.000000000000000E+000	11	6.1756212E-002	3.0171455E-004	-4.332171156233764E-005	1.1666296E-003	4.6068770E-003	1.6265059E-003	4.8855743E-003	1.9446110E+001	-6.514665681667489E-007
2.5118764E+005	1.9867068E+002	6.6389870E+001	2.0946994E+002	-1.8478106E+001	1.010948370679398E+001	3.3312943E+000	-2.8022430E-003	9.5437719E-003	9.5869455E-004	1.000000000000000E+000	11	7.3798232E-002	3.5230941E-004	-4.416180445751504E-005	1.1666296E-003	4.5278328E-003	1.5130680E-003	4.7739549E-003	1.8478106E+001	-8.400928951773958E-007
2.2387173E+005	2.0398599E+002	6.4470924E+001	2.1393173E+002	-1.7539434E+001	1.070549136176123E+001	3.3313136E+000	-2.6227310E-003	1.1026990E-002	1.0014616E-003	1.000000000000000E+000	11	8.6966902E-002	4.0651707E-004	-4.497392260276744E-005	1.4872423E-003	4.4570751E-003	1.4086837E-003	4.6743886E-003	1.7539434E+001	-8.121181452524026E-007
1.9954350E+005	2.0909473E+002	6.2503822E+001	2.1823688E+002	-1.6642765E+001	1.130248632348957E+001	3.3312652E+000	-2.7408535E-003	1.2760743E-002	1.0467257E-003	1.000000000000000E+000	11	1.0131511E-001	4.6424379E-004	-4.548581088072044E-005	1.0864765E-003	4.3902253E-003	1.3123518E-003	4.5821769E-003	1.6642765E+001	-5.118882779529992E-007
1.7783180E+005	2.1390004E+002	6.0491261E+001	2.2228905E+002	-1.5790984E+001	1.176147525195847E+001	3.3312528E+000	-2.7198333E-003	1.4795106E-002	1.0956384E-003	1.000000000000000E+000	11	1.1679995E-001	5.2544178E-004	-4.593114795219844E-005	9.2617015E-004	4.3288716E-003	1.2242115E-003	4.4986471E-003	1.5790984E+001	-4.453370714780020E-007
1.5848613E+005	2.1843047E+002	5.8446400E+001	2.2611469E+002	-1.4979962E+001	1.222149226049078E+001	3.3312728E+000	-2.6311008E-003	1.7181898E-002	1.1479662E-003	1.000000000000000E+000	11	1.3336354E-001	5.8980490E-004	-4.622035555931810E-005	1.0063233E-003	4.2722407E-003	1.1431422E-003	4.4225347E-003	1.4979962E+001	-2.892076071196568E-007
1.4125594E+005	2.2271808E+002	5.6359951E+001	2.2973853E+002	-1.4200873E+001	1.281749487543129E+001	3.3312566E+000	-2.7003011E-003	1.9991381E-002	1.2031406E-003	1.000000000000000E+000	11	1.2976320E-001	5.6482997E-004	-4.660263595243123E-005	1.2467828E-003	4.2197607E-003	1.0678320E-003	4.3527745E-003	1.4200873E+001	-3.822803931131306E-007
1.2590930E+005	2.2681155E+002	5.4347424E+001	2.3323190E+002	-1.3474868E+001	1.341447311712545E+001	3.3312814E+000	-2.6593765E-003	2.3258589E-002	1.2628896E-003	1.000000000000000E+000	11	1.2992024E-001	5.5704318E-004	-4.699602765823935E-005	6.0555746E-004	4.1695507E-003	9.9908642E-004	4.2875782E-003	1.3474868E+001	-3.933917058081171E-007
1.1220494E+005	2.3066785E+002	5.2316914E+001	2.3652635E+002	-1.2778851E+001	1.401047450545593E+001	3.3312976E+000	-2.4869340E-003	2.7112281E-002	1.3264510E-003	1.000000000000000E+000	11	1.2969659E-001	5.4833887E-004	-4.664751995013224E-005	1.4070892E-003	4.1231387E-003	9.3515380E-004	4.2278585E-003	1.2778851E+001	3.485077081071070E-007
1.0000371E+005	2.3430887E+002	5.0355991E+001	2.3965886E+002	-1.2129108E+001	1.460648426707485E+001	3.3312931E+000	-2.7069976E-003	3.1604785E-002	1.3953019E-003	1.000000000000000E+000	11	1.2968393E-001	5.4111885E-004	-4.688548573878729E-005	1.4872423E-003	4.0794509E-003	8.7672652E-004	4.1725975E-003	1.2129108E+001	-2.379657886550479E-007
8.9129305E+004	2.3776591E+002	4.8435310E+001	2.4264915E+002	-1.1514181E+001	1.520248784203432E+001	3.3312953E+000	-2.6750027E-003	3.6866978E-002	1.4689403E-003	1.000000000000000E+000	11	1.2962507E-001	5.3420779E-004	-4.821392810444922E-005	9.2617015E-004	4.0382389E-003	8.2262995E-004	4.1211764E-003	1.1514181E+001	-1.328442365661935E-006
7.9433273E+004	2.4097575E+002	4.6580418E+001	2.4543645E+002	-1.0940300E+001	1.579849264372024E+001	3.3313243E+000	-2.6372396E-003	4.3014444E-002	1.5493265E-003	1.000000000000000E+000	11	1.2949920E-001	5.2762823E-004	-4.855278663951301E-005	8.4601698E-004	4.0003248E-003	7.7325955E-004	4.0743747E-003	1.0940300E+001	-3.388585350637904E-007
7.0794977E+004	2.4403027E+002	4.4790546E+001	2.4810677E+002	-1.0400593E+001	1.639348320526187E+001	3.3313391E+000	-2.5286044E-003	5.0191633E-002	1.6357873E-003	1.000000000000000E+000	11	1.2930106E-001	5.2115088E-004	-4.971151125083735E-005	1.1666296E-003	3.9642998E-003	7.2762754E-004	4.0305229E-003	1.0400593E+001	-1.158724611324331E-006
6.3093828E+004	2.4693155E+002	4.3075634E+001	2.5066052E+002	-9.8953114E+000	1.685347904046648E+001	3.3313375E+000	-2.5189305E-003	5.8560070E-002	1.7293904E-003	1.000000000000000E+000	11	1.4041641E-001	5.6018558E-004	-4.958220065617267E-005	1.0063233E-003	3.9301100E-003	6.8558258E-004	3.9894595E-003	9.8953114E+000	1.293105946646776E-007
5.6237012E+004	2.4968146E+002	4.1477596E+001	2.5310318E+002	-9.4319582E+000	1.744848008206463E+001	3.3313203E+000	-2.6643991E-003	6.8231404E-002	1.8323831E-003	1.000000000000000E+000	11	1.3036978E-001	5.1508553E-004	-5.004953006343062E-005	1.1666296E-003	3.8975442E-003	6.4746803E-004	3.9509577E-003	9.4319582E+000	-4.673294072579480E-007
5.0122477E+004	2.5222305E+002	3.9958492E+001	2.5536865E+002	-9.0022793E+000	1.790849421059829E+001	3.3313382E+000	-2.5764110E-003	7.9465479E-002	1.9456357E-003	1.000000000000000E+000	11	1.3960327E-001	5.4667349E-004	-5.001469588050592E-005	3.6509795E-004	3.8676716E-003	6.1273674E-004	3.9159073E-003	9.0022793E+000	3.483418292469462E-008
4.4666715E+004	2.5467078E+002	3.8560467E+001	2.5757352E+002	-8.6099262E+000	1.850447522554896E+001	3.3313513E+000	-2.5717604E-003	9.2404649E-002	2.0709804E-003	1.000000000000000E+000	11	1.3000755E-001	5.0473958E-004	-5.124266636109981E-005	1.0063233E-003	3.8386341E-003	5.8121909E-004	3.8823867E-003	8.6099262E+000	-1.227970480593891E-006
3.9814063E+004	2.5700076E+002	3.7260723E+001	2.5968781E+002	-8.2494287E+000	1.896449351406773E+001	3.3313837E+000	-2.4653573E-003	1.0728336E-001	2.2086750E-003	1.000000000000000E+000	11	1.3719776E-001	5.2831811E-004	-5.165071929654267E-005	1.4872423E-003	3.8109329E-003	5.5252016E-004	3.8507776E-003	8.2494287E+000	-4.080529354428606E-007
3.5480996E+004	2.5921194E+002	3.6077831E+001	2.6171060E+002	-7.9236803E+000	1.956047330235015E+001	3.3313394E+000	-2.6482157E-003	1.2433229E-001	2.3627738E-003	1.000000000000000E+000	11	1.2965234E-001	4.9540348E-004	-5.324212074490929E-005	1.5673955E-003	3.7845336E-003	5.2674179E-004	3.8210144E-003	7.9236803E+000	-1.591401448366620E-006
3.1621143E+004	2.6130042E+002	3.5020638E+001	2.6363678E+002	-7.6335449E+000	2.002049209756660E+001	3.3313363E+000	-2.6273816E-003	1.4372043E-001	2.5360314E-003	1.000000000000000E+000	11	1.3495904E-001	5.1191280E-004	-5.398236809441308E-005	1.4070892E-003	3.7594829E-003	5.0386257E-004	3.7930976E-003	7.6335449E+000	-7.402473495037905E-007
2.8188096E+004	2.6331100E+002	3.4080048E+001	2.6550732E+002	-7.3747301E+000	2.048049321272993E+001	3.3313420E+000	-2.5600414E-003	1.6567393E-001	2.7296161E-003	1.000000000000000E+000	11	1.3963996E-001	5.2593637E-004	-5.481053845804106E-005	1.5673955E-003	3.7352184E-003	4.8344510E-004	3.7663744E-003	7.3747301E+000	-8.281703636279760E-007
2.5116910E+004	2.6525748E+002	3.3281116E+001	2.6733716E+002	-7.1513724E+000	2.107547948099091E+001	3.3313394E+000	-2.5765963E-003	1.9039521E-001	2.9507549E-003	1.000000000000000E+000	11	1.2953834E-001	4.8455046E-004	-5.548436233236195E-005	8.4601698E-004	3.7114958E-003	4.6567104E-004	3.7405950E-003	7.1513724E+000	-6.738238743208893E-007
2.2389027E+004	2.6713104E+002	3.2573982E+001	2.6910974E+002	-6.9523292E+000	2.153547843618435E+001	3.3313532E+000	-2.5354866E-003	2.1822980E-001	3.1973997E-003	1.000000000000000E+000	11	1.3264351E-001	4.9289747E-004	-5.599827897871708E-005	1.0864765E-003	3.6886334E-003	4.4979231E-004	3.7159561E-003	6.9523292E+000	-5.139166463551269E-007
1.9948783E+004	2.6894016E+002	3.2005703E+001	2.7083792E+002	-6.7866678E+000	2.199448349801241E+001	3.3313434E+000	-2.6015248E-003	2.4927363E-001	3.4810652E-003	1.000000000000000E+000	11	1.3525844E-001	4.9940730E-004	-5.639176712902695E-005	7.6586381E-004	3.6663737E-003	4.3632335E-004	3.6922451E-003	6.7866678E+000	-3.934881503098753E-007
1.7786895E+004	2.7072101E+002	3.1571980E+001	2.7255579E+002	-6.6518903E+000	2.245347503977246E+001	3.3313448E+000	-2.6080350E-003	2.8341198E-001	3.8028660E-003	1.000000000000000E+000	11	1.3740960E-001	5.0415221E-004	-5.718505562079028E-005	1.1666296E-003	3.6442750E-003	4.2500201E-004	3.6689737E-003	6.6518903E+000	-7.932884917633329E-007
1.5847686E+004	2.7249963E+002	3.1276846E+001	2.7428870E+002	-6.5476184E+000	2.291249074161169E+001	3.3313558E+000	-2.5955711E-003	3.2109338E-001	4.1750474E-003	1.000000000000000E+000	11	1.3920118E-001	5.0749880E-004	-5.790736360758173E-005	6.8571063E-004	3.6220138E-003	4.1572595E-004	3.6457938E-003	6.5476184E+000	-7.223079867914428E-007
1.4121879E+004	2.7419281E+002	3.1087946E+001	2.7594955E+002	-6.4685650E+000	2.337247924346593E+001	3.3313553E+000	-2.6240326E-003	3.6252305E-001	4.6010851E-003	1.000000000000000E+000	11	1.4064507E-001	5.0967676E-004	-5.789833483971314E-005	7.6586381E-004	3.6007806E-003	4.0825605E-004	3.6238506E-003	6.4685650E+000	9.028767868586650E-009
1.2590932E+004	2.7592023E+002	3.1004835E+001	2.7765674E+002	-6.4113660E+000	2.396748391169240E+001	3.3313572E+000	-2.5693423E-003	4.0769261E-001	5.0836457E-003	1.000000000000000E+000	11	1.2937853E-001	4.6596574E-004	-5.832747590425222E-005	6.0555746E-004	3.5790445E-003	4.0217309E-004	3.6015694E-003	6.4113660E+000	-4.291410645390837E-007
1.1217711E+004	2.7767374E+002	3.1077232E+001	2.7940741E+002	-6.3859658E+000	2.442647910685628E+001	3.3313704E+000	-2.5416249E-003	4.5653448E-001	5.6478404E-003	1.000000000000000E+000	11	1.3023189E-001	4.6610032E-004	-5.829371367163266E-005	1.2467828E-003	3.5567961E-003	3.9807646E-004	3.5790030E-003	6.3859658E+000	3.376223261956289E-008
1.0002229E+004	2.7942191E+002	3.1258055E+001	2.8116483E+002	-6.3829627E+000	2.488548728861497E+001	3.3313749E+000	-2.3766239E-003	5.0905108E-001	6.2916316E-003	1.000000000000000E+000	11	1.3090867E-001	4.6559403E-004	-5.848727409001367E-005	1.4070892E-003	3.5345852E-003	3.9540304E-004	3.5566327E-003	6.3829627E+000	-1.935604183810093E-007
8.9149297E+003	2.8125870E+002	3.1553167E+001	2.8302307E+002	-6.4009957E+000	2.536791965825250E+001	3.3314245E+000	-2.3243520E-003	5.6579518E-001	7.0323665E-003	1.000000000000000E+000	11	1.3144337E-001	4.6442632E-004	-5.908766069139165E-005	1.4872423E-003	3.5112544E-003	3.9391208E-004	3.5332809E-003	6.4009957E+000	-6.003866013779802E-007
7.9439976E+003	2.8310889E+002	3.1985380E+001	2.8491000E+002	-6.4458909E+000	2.589398432322196E+001	3.3314161E+000	-2.4205253E-003	6.2636793E-001	7.8943642E-003	1.000000000000000E+000	11	1.3185944E-001	4.6281086E-004	-5.897996904779050E-005	1.0063233E-003	3.4876920E-003	3.9403618E-004	3.5098803E-003	6.4458909E+000	1.076916436011538E-007
7.0822334E+003	2.8502997E+002	3.2519581E+001	2.8687909E+002	-6.5088339E+000	2.647085728397360E+001	3.3314168E+000	-2.5133498E-003	6.9104278E-001	8.8796746E-003	1.000000000000000E+000	11	1.3218677E-001	4.6077519E-004	-5.940307787830170E-005	1.4070892E-003	3.4633211E-003	3.9513651E-004	3.4857891E-003	6.5088339E+000	-4.231088305112050E-007
6.3077344E+003	2.8701624E+002	3.3175205E+001	2.8892719E+002	-6.5933595E+000	2.710555072742864E+001	3.3314047E+000	-2.6796530E-003	7.6055938E-001	1.0027289E-002	1.000000000000000E+000	11	1.3245647E-001	4.5844237E-004	-6.028599494191965E-005	1.4070892E-003	3.4381885E-003	3.9740815E-004	3.4610797E-003	6.5933595E+000	-8.829170636179523E-007
5.6210552E+003	2.8911334E+002	3.3934601E+001	2.9109805E+002	-6.6944466E+000	2.780628340071416E+001	3.3314381E+000	-2.5951988E-003	8.3437163E-001	1.1338782E-002	1.000000000000000E+000	11	1.3264945E-001	4.5568650E-004	-6.047509005796383E-005	1.3269359E-003	3.4118467E-003	4.0046460E-004	3.4352685E-003	6.6944466E+000	-1.890951160441720E-007
5.0116035E+003	2.9132288E+002	3.4773159E+001	2.9339084E+002	-6.8067889E+000	2.856668613020156E+001	3.3314366E+000	-2.5529719E-003	9.1327024E-001	1.2829049E-002	1.000000000000000E+000	11	1.3280298E-001	4.5264870E-004	-6.113907222021428E-005	1.2467828E-003	3.3843983E-003	4.0397179E-004	3.4084227E-003	6.8067889E+000	-6.639821622504518E-007
4.4664292E+003	2.9363907E+002	3.5694283E+001	2.9580057E+002	-6.9307775E+000	2.932670600630081E+001	3.3314395E+000	-2.5555769E-003	9.9829990E-001	1.4536516E-002	1.000000000000000E+000	11	1.3291904E-001	4.4935360E-004	-6.156398865463942E-005	1.2467828E-003	3.3559524E-003	4.0794411E-004	3.3806560E-003	6.9307775E+000	-4.249164344251403E-007
3.9812742E+003	2.9606573E+002	3.6722591E+001	2.9833450E+002	-7.0705843E+000	3.008570014901488E+001	3.3314354E+000	-2.6005940E-003	1.0885910E+000	1.6493939E-002	1.000000000000000E+000	11	1.3300934E-001	4.4583963E-004	-6.249819571308317E-005	1.4872423E-003	3.3264516E-003	4.1259726E-004	3.3519422E-003	7.0705843E+000	-9.342070584437566E-007
3.5465955E+003	2.9867795E+002	3.7778576E+001	3.0105771E+002	-7.2088318E+000	3.084496762507479E+001	3.3314395E+000	-2.6104532E-003	1.1878536E+000	1.8704865E-002	1.000000000000000E+000	11	1.3307709E-001	4.4203180E-004	-6.269326265114998E-005	1.2467828E-003	3.2953662E-003	4.1681764E-004	3.3216223E-003	7.2088318E+000	-1.950669380668048E-007
3.1610112E+003	3.0142978E+002	3.8864098E+001	3.0392487E+002	-7.3467579E+000	3.160466648783040E+001	3.3314424E+000	-2.6007802E-003	1.2955242E+000	2.1184111E-002	1.000000000000000E+000	11	1.3312545E-001	4.3802094E-004	-6.290266110017668E-005	7.6586381E-004	3.2632751E-003	4.2074226E-004	3.2902870E-003	7.3467579E+000	-2.093984490267000E-007
2.8172952E+003	3.0435947E+002	3.9976616E+001	3.0697363E+002	-7.4827781E+000	3.236393407054129E+001	3.3314431E+000	-2.6245911E-003	1.4131287E+000	2.3965785E-002	1.000000000000000E+000	11	1.3315874E-001	4.3377909E-004	-6.316746251888940E-005	1.6475486E-003	3.2298672E-003	4.2423245E-004	3.2576087E-003	7.4827781E+000	-2.648014187127200E-007
