EC-Lab ASCII FILE
Nb header lines : 60                          

Potentio Electrochemical Impedance Spectroscopy

Run on channel : 3 (SN 20921)
User : 
CE vs. WE compliance from -10 V to 10 V
Electrode connection : standard
Ewe ctrl range : min = -10.00 V, max = 10.00 V
Acquisition started on : 12/03/2020 16:54:21
Technique started on : 12/03/2020 16:54:22
Saved on :
	File : DE_206_3_30.mpr
	Directory : P:\Chemistry\Data\VMP3\Kyler\DOE\DE_206\
	Host : 10.0.4.64
Device : VMP3 (SN 1432)
Address : USB
EC-Lab for windows v11.33 (software)
Internet server v11.32 (firmware)
Command interpretor v11.33 (firmware)
Electrode material : 
Initial state : 
Electrolyte : 
Comments : 
Electrode surface area : 0.001 cm²
Characteristic mass : 0.001 g
Equivalent Weight : 0.000 g/eq.
Density : 0.000 g/cm3
Record Analogic IN 1
Cycle Definition : Charge/Discharge alternance
Mode                Single sine         
E (V)               0.0000              
vs.                 Eoc                 
tE (h:m:s)          0:00:0.0000         
record              0                   
dI                  1.000               
unit dI             mA                  
dt (s)              0.000               
fi                  1.000               
unit fi             MHz                 
ff                  1.000               
unit ff             Hz                  
Nd                  20                  
Points              per decade          
spacing             Logarithmic         
Va (mV)             128.0               
pw                  0.50                
Na                  3                   
corr                0                   
E range min (V)     -10.000             
E range max (V)     10.000              
I Range             Auto                
Bandwidth           5                   
nc cycles           0                   
goto Ns'            0                   
nr cycles           0                   
inc. cycle          1                   

freq/Hz	Re(Z)/Ohm	-Im(Z)/Ohm	|Z|/Ohm	Phase(Z)/deg	time/s	<Ewe>/V	<I>/mA	Cs/µF	Cp/µF	cycle number	I Range	|Ewe|/V	|I|/A	(Q-Qo)/mA.h	Analog IN 1/V	Re(Y)/Ohm-1	Im(Y)/Ohm-1	|Y|/Ohm-1	Phase(Y)/deg	dq/mA.h	
1.0000186E+006	1.1295161E+002	6.4755035E+001	1.3019708E+002	-2.9825602E+001	1.949490332539426E+000	3.3107824E+000	-2.3319530E-003	2.4577545E-003	6.0797133E-004	1.000000000000000E+000	11	4.0933341E-003	3.1439522E-005	-8.243531251256274E-007	-2.3782176E-004	6.6633085E-003	3.8200677E-003	7.6806638E-003	2.9825602E+001	-8.243531251256274E-007
8.9124669E+005	1.1776037E+002	6.3161922E+001	1.3362984E+002	-2.8207319E+001	2.544472867477452E+000	3.3111982E+000	-1.6467916E-003	2.8272674E-003	6.3164154E-004	1.000000000000000E+000	11	5.9165335E-003	4.4275544E-005	-1.064348610962144E-006	-7.7488192E-005	6.5946579E-003	3.5371094E-003	7.4833585E-003	2.8207319E+001	-2.399954858365164E-007
7.9433269E+005	1.2346268E+002	6.2252941E+001	1.3826953E+002	-2.6758373E+001	3.140483855822822E+000	3.3115597E+000	-1.2369249E-003	3.2185321E-003	6.5241597E-004	1.000000000000000E+000	11	8.4093753E-003	6.0818715E-005	-1.236482846954068E-006	-3.1798857E-004	6.4577721E-003	3.2561687E-003	7.2322511E-003	2.6758373E+001	-1.721342359919239E-007
7.0794981E+005	1.2965239E+002	6.1681995E+001	1.4357719E+002	-2.5442722E+001	3.736485777451890E+000	3.3118753E+000	-8.9117524E-004	3.6446785E-003	6.7267480E-004	1.000000000000000E+000	11	1.1628189E-002	8.0989106E-005	-1.314614272391837E-006	2.6785929E-006	6.2894057E-003	2.9921785E-003	6.9648945E-003	2.5442722E+001	-7.813142543776982E-008
6.3095681E+005	1.3561554E+002	6.1316296E+001	1.4883301E+002	-2.4329306E+001	4.331473699043272E+000	3.3121393E+000	-6.2464044E-004	4.1138134E-003	6.9822901E-004	1.000000000000000E+000	11	1.5594640E-002	1.0477944E-004	-1.185626281018712E-006	-2.3782176E-004	6.1222487E-003	2.7680718E-003	6.7189396E-003	2.4329306E+001	1.289879913731258E-007
5.6234225E+005	1.4141396E+002	6.1001789E+001	1.5401015E+002	-2.3333937E+001	4.926490340643795E+000	3.3123627E+000	-3.8047219E-004	4.6395604E-003	7.2788593E-004	1.000000000000000E+000	11	2.0311289E-002	1.3188280E-004	-1.170224288991044E-006	8.2845378E-005	5.9620221E-003	2.5718398E-003	6.4930785E-003	2.3333937E+001	1.540199202766719E-008
5.0120619E+005	1.4707230E+002	6.0608681E+001	1.5907127E+002	-2.2396622E+001	5.523488448961871E+000	3.3125331E+000	-2.6136948E-004	5.2392473E-003	7.6059776E-004	1.000000000000000E+000	11	2.5803154E-002	1.6221128E-004	-1.279205015490233E-006	-7.7488192E-005	5.8122911E-003	2.3952525E-003	6.2864902E-003	2.2396622E+001	-1.089807264991882E-007
4.4668572E+005	1.5252058E+002	6.0020855E+001	1.6390556E+002	-2.1480940E+001	6.118473170587095E+000	3.3126476E+000	-2.4664364E-004	5.9363004E-003	7.9603621E-004	1.000000000000000E+000	11	3.2068424E-002	1.9565184E-004	-1.169477422418519E-006	-1.5765498E-004	5.6772903E-003	2.2341628E-003	6.1010742E-003	2.1480940E+001	1.097275930717136E-007
3.9810347E+005	1.5767073E+002	5.9345428E+001	1.6846941E+002	-2.0625751E+001	6.713474238844356E+000	3.3127015E+000	-1.3201460E-004	6.7365402E-003	8.3592895E-004	1.000000000000000E+000	11	3.9157465E-002	2.3243071E-004	-1.272889245144648E-006	8.2845378E-005	5.5553191E-003	2.0909572E-003	5.9357961E-003	2.0625751E+001	-1.034118227261288E-007
3.5480997E+005	1.6269618E+002	5.8494282E+001	1.7289195E+002	-1.9775072E+001	7.308487973787123E+000	3.3127208E+000	-2.2576669E-004	7.6685082E-003	8.7778503E-004	1.000000000000000E+000	11	4.7154482E-002	2.7273959E-004	-1.471675245862166E-006	2.6785929E-006	5.4428680E-003	1.9568785E-003	5.7839593E-003	1.9775072E+001	-1.987860007175186E-007
3.1622997E+005	1.6743651E+002	5.7541538E+001	1.7704805E+002	-1.8965891E+001	7.903495068690972E+000	3.3127286E+000	-1.5493778E-004	8.7465271E-003	9.2388154E-004	1.000000000000000E+000	11	5.6135643E-002	3.1706446E-004	-1.333174000860405E-006	-7.7488192E-005	5.3415569E-003	1.8356893E-003	5.6481841E-003	1.8965891E+001	1.385012450017610E-007
2.8183453E+005	1.7195975E+002	5.6505829E+001	1.8100571E+002	-1.8190479E+001	8.499496110336622E+000	3.3127453E+000	-1.9929511E-004	9.9938465E-003	9.7394543E-004	1.000000000000000E+000	11	6.6172138E-002	3.6558040E-004	-1.761547352522030E-006	-1.5765498E-004	5.2485853E-003	1.7246807E-003	5.5246875E-003	1.8190479E+001	-4.283733516616242E-007
2.5118764E+005	1.7629129E+002	5.5406075E+001	1.8479300E+002	-1.7447258E+001	9.094480351923266E+000	3.3127239E+000	-2.5073762E-004	1.1435745E-002	1.0280358E-003	1.000000000000000E+000	11	7.7345237E-002	4.1855068E-004	-2.184217335201134E-006	1.6301216E-004	5.1624975E-003	1.6225061E-003	5.4114605E-003	1.7447258E+001	-4.226699826791040E-007
2.2387173E+005	1.8043137E+002	5.4306580E+001	1.8842686E+002	-1.6750845E+001	9.689487233554246E+000	3.3127434E+000	-2.7906650E-004	1.3090867E-002	1.0873958E-003	1.000000000000000E+000	11	8.9654803E-002	4.7580691E-004	-2.495967311711866E-006	8.2845378E-005	5.0819032E-003	1.5295610E-003	5.3070989E-003	1.6750845E+001	-3.117499765107320E-007
1.9954350E+005	1.8437076E+002	5.3192104E+001	1.9189053E+002	-1.6093178E+001	1.028649142189533E+001	3.3127556E+000	-1.6499749E-004	1.4994618E-002	1.1521861E-003	1.000000000000000E+000	11	1.0308659E-001	5.3721562E-004	-2.537082553135406E-006	3.2334571E-004	5.0070845E-003	1.4445749E-003	5.2113044E-003	1.6093178E+001	-4.111524142354023E-008
1.7783180E+005	1.8812245E+002	5.2120758E+001	1.9520920E+002	-1.5485798E+001	1.074548221702571E+001	3.3127601E+000	-2.2221770E-004	1.7171174E-002	1.2241113E-003	1.000000000000000E+000	11	1.1761331E-001	6.0249883E-004	-2.179564776842502E-006	-7.7488192E-005	4.9367379E-003	1.3677609E-003	5.1227096E-003	1.5485798E+001	3.575177762929041E-007
1.5848613E+005	1.9173969E+002	5.1119812E+001	1.9843726E+002	-1.4928411E+001	1.120549722554279E+001	3.3127878E+000	-1.2771426E-004	1.9644439E-002	1.3036821E-003	1.000000000000000E+000	11	1.3323866E-001	6.7143975E-004	-2.573595944486442E-006	-7.7488192E-005	4.8692897E-003	1.2982036E-003	5.0393762E-003	1.4928411E+001	-3.940311676439403E-007
1.4125594E+005	1.9525429E+002	5.0151230E+001	2.0159212E+002	-1.4405079E+001	1.180249501389335E+001	3.3128586E+000	-7.9442143E-005	2.2466313E-002	1.3904261E-003	1.000000000000000E+000	11	1.2972431E-001	6.4349890E-004	-2.219830611719064E-006	-7.7488192E-005	4.8045586E-003	1.2340549E-003	4.9605113E-003	1.4405079E+001	3.537653327673779E-007
1.2590930E+005	1.9860210E+002	4.9263950E+001	2.0462094E+002	-1.3931231E+001	1.239948994890437E+001	3.3129084E+000	-8.3170016E-005	2.5658609E-002	1.4872755E-003	1.000000000000000E+000	11	1.2968917E-001	6.3380203E-004	-2.571361285762072E-006	-3.1798857E-004	4.7433339E-003	1.1766007E-003	4.8870854E-003	1.3931231E+001	-3.515306740430081E-007
1.1220494E+005	2.0184904E+002	4.8462418E+001	2.0758527E+002	-1.3500738E+001	1.299447560383123E+001	3.3129554E+000	-3.5847097E-006	2.9268676E-002	1.5952184E-003	1.000000000000000E+000	11	1.2970978E-001	6.2485063E-004	-2.845052131091102E-006	-3.1798857E-004	4.6841810E-003	1.1246362E-003	4.8172977E-003	1.3500738E+001	-2.736908453290301E-007
1.0000371E+005	2.0501266E+002	4.7739243E+001	2.1049757E+002	-1.3108297E+001	1.358947309877840E+001	3.3129647E+000	-4.7200036E-005	3.3337150E-002	1.7146888E-003	1.000000000000000E+000	11	1.2982118E-001	6.1673479E-004	-3.404237546209414E-006	-7.7488192E-005	4.6268613E-003	1.0774108E-003	4.7506485E-003	1.3108297E+001	-5.591854151183117E-007
8.9129305E+004	2.0805684E+002	4.7097725E+001	2.1332098E+002	-1.2755048E+001	1.418548632707098E+001	3.3129973E+000	-3.5643738E-005	3.7914008E-002	1.8481294E-003	1.000000000000000E+000	11	1.2946244E-001	6.0689030E-004	-2.392627541355776E-006	1.6301216E-004	4.5720907E-003	1.0349819E-003	4.6877712E-003	1.2755048E+001	1.011610004853638E-006
7.9433273E+004	2.1101682E+002	4.6557659E+001	2.1609190E+002	-1.2442108E+001	1.478048248865525E+001	3.3130150E+000	-8.0582795E-006	4.3035470E-002	1.9977072E-003	1.000000000000000E+000	11	1.2945761E-001	5.9908588E-004	-2.859698911570983E-006	-7.7488192E-005	4.5189764E-003	9.9704368E-004	4.6276608E-003	1.2442108E+001	-4.670713702152068E-007
7.0794977E+004	2.1389902E+002	4.6173382E+001	2.1882590E+002	-1.2181261E+001	1.537648865030496E+001	3.3130305E+000	-3.3966255E-005	4.8688456E-002	2.1677637E-003	1.000000000000000E+000	11	1.2942335E-001	5.9144438E-004	-1.837066442911035E-006	-1.5765498E-004	4.4669528E-003	9.6426025E-004	4.5698429E-003	1.2181261E+001	1.022632468659948E-006
6.3093828E+004	2.1672379E+002	4.5863674E+001	2.2152353E+002	-1.1948798E+001	1.583648992548115E+001	3.3130407E+000	8.7185035E-006	5.5000219E-002	2.3575579E-003	1.000000000000000E+000	11	1.4075026E-001	6.3537387E-004	-2.279608321963880E-006	-3.9815533E-004	4.4163843E-003	9.3460723E-004	4.5141932E-003	1.1948798E+001	-4.425418790528459E-007
5.6237012E+004	2.1951230E+002	4.5718933E+001	2.2422281E+002	-1.1765088E+001	1.643147800708539E+001	3.3130710E+000	-5.5773988E-005	6.1901595E-002	2.5735607E-003	1.000000000000000E+000	11	1.3039376E-001	5.8153656E-004	-3.413836839133485E-006	2.4317895E-004	4.3661562E-003	9.0936135E-004	4.4598496E-003	1.1765088E+001	-1.134228517169605E-006
5.0122477E+004	2.2224168E+002	4.5702671E+001	2.2689227E+002	-1.1620532E+001	1.689049482889823E+001	3.3130836E+000	4.9162460E-005	6.9477789E-002	2.8189656E-003	1.000000000000000E+000	11	1.3996741E-001	6.1688927E-004	-2.907348023926413E-006	3.2334571E-004	4.3170406E-003	8.8777347E-004	4.4073779E-003	1.1620532E+001	5.064888152070728E-007
4.4666715E+004	2.2496181E+002	4.5842846E+001	2.2958524E+002	-1.1518061E+001	1.748547200384201E+001	3.3131053E+000	2.5118728E-005	7.7725686E-002	3.0989870E-003	1.000000000000000E+000	11	1.3006550E-001	5.6652381E-004	-3.596204734636962E-006	1.6301216E-004	4.2679650E-003	8.6972845E-004	4.3556807E-003	1.1518061E+001	-6.888567107105494E-007
3.9814063E+004	2.2766998E+002	4.6145428E+001	2.3229942E+002	-1.1457811E+001	1.794449018561863E+001	3.3131027E+000	4.8416492E-005	8.6627334E-002	3.4183464E-003	1.000000000000000E+000	11	1.3764146E-001	5.9251743E-004	-3.300942957247672E-006	2.6785929E-006	4.2189998E-003	8.5513055E-004	4.3047890E-003	1.1457811E+001	2.952617773892901E-007
3.5480996E+004	2.3038060E+002	4.6590961E+001	2.3504454E+002	-1.1432997E+001	1.854149354729452E+001	3.3131275E+000	4.6179881E-005	9.6277028E-002	3.7829070E-003	1.000000000000000E+000	11	1.2974571E-001	5.5200479E-004	-2.601389731461596E-006	1.6301216E-004	4.1700914E-003	8.4333745E-004	4.2545130E-003	1.1432997E+001	6.995532257860759E-007
3.1621143E+004	2.3312177E+002	4.7209442E+001	2.3785393E+002	-1.1448135E+001	1.900049479576410E+001	3.3131192E+000	4.4502744E-005	1.0661387E-001	4.2000143E-003	1.000000000000000E+000	11	1.3539924E-001	5.6925375E-004	-2.827274307351217E-006	-7.7488192E-005	4.1206162E-003	8.3446520E-004	4.2042611E-003	1.1448135E+001	-2.258845758896212E-007
2.8188096E+004	2.3591003E+002	4.7998726E+001	2.4074348E+002	-1.1500533E+001	1.945949255090090E+001	3.3131034E+000	3.2574211E-005	1.1763179E-001	4.6760053E-003	1.000000000000000E+000	11	1.4038825E-001	5.8314455E-004	-3.260407364958357E-006	-3.9815533E-004	4.0704026E-003	8.2817214E-004	4.1537988E-003	1.1500533E+001	-4.331330576071402E-007
2.5116910E+004	2.3875262E+002	4.8957359E+001	2.4372041E+002	-1.1588137E+001	2.005549585921108E+001	3.3131289E+000	3.3132303E-005	1.2943029E-001	5.2226158E-003	1.000000000000000E+000	11	1.2965372E-001	5.3197728E-004	-2.564758873665899E-006	-2.3782176E-004	4.0194290E-003	8.2420302E-004	4.1030622E-003	1.1588137E+001	6.956484912924580E-007
2.2389027E+004	2.4166066E+002	5.0073643E+001	2.4679393E+002	-1.1706394E+001	2.051449009435601E+001	3.3131239E+000	2.3253762E-005	1.4196318E-001	5.8442010E-003	1.000000000000000E+000	11	1.3293093E-001	5.3863128E-004	-2.514679004766448E-006	-1.5765498E-004	3.9676833E-003	8.2212948E-004	4.0519633E-003	1.1706394E+001	5.007986889945156E-008
1.9948783E+004	2.4467497E+002	5.1379524E+001	2.5001140E+002	-1.1859282E+001	2.097447288953117E+001	3.3131220E+000	3.3505556E-005	1.5527932E-001	6.5580420E-003	1.000000000000000E+000	11	1.3567387E-001	5.4267072E-004	-2.893039551235335E-006	-2.3782176E-004	3.9144428E-003	8.2199747E-004	3.9998177E-003	1.1859282E+001	-3.783605464688868E-007
1.7786895E+004	2.4777388E+002	5.2853420E+001	2.5334834E+002	-1.2041468E+001	2.143449080470600E+001	3.3131194E+000	1.4866163E-005	1.6929609E-001	7.3681250E-003	1.000000000000000E+000	11	1.3791592E-001	5.4437271E-004	-3.188019072318032E-006	2.4317895E-004	3.8602853E-003	8.2344952E-004	3.9471346E-003	1.2041468E+001	-2.949795210826978E-007
1.5847686E+004	2.5101857E+002	5.4472187E+001	2.5686093E+002	-1.2243616E+001	2.189349447985296E+001	3.3131285E+000	3.9283350E-005	1.8436542E-001	8.2914978E-003	1.000000000000000E+000	11	1.3974108E-001	5.4403400E-004	-3.656199032154594E-006	2.6785929E-006	3.8046064E-003	8.2561711E-004	3.8931572E-003	1.2243616E+001	-4.681799598365614E-007
1.4121879E+004	2.5445178E+002	5.6273720E+001	2.6060016E+002	-1.2470618E+001	2.248847314811428E+001	3.3131285E+000	-4.8879581E-005	2.0027281E-001	9.3386462E-003	1.000000000000000E+000	11	1.2931573E-001	4.9622275E-004	-4.003933071719883E-006	8.2845378E-005	3.7467624E-003	8.2862168E-004	3.8372963E-003	1.2470618E+001	-3.477340395652895E-007
1.2590932E+004	2.5797705E+002	5.8243706E+001	2.6447021E+002	-1.2722416E+001	2.294749756992678E+001	3.3131270E+000	-3.6950383E-005	2.1702674E-001	1.0525864E-002	1.000000000000000E+000	11	1.3035730E-001	4.9289974E-004	-4.134935047521139E-006	2.6785929E-006	3.6883112E-003	8.3271321E-004	3.7811440E-003	1.2722416E+001	-1.310019758012561E-007
1.1217711E+004	2.6174036E+002	6.0359901E+001	2.6860999E+002	-1.2985947E+001	2.340648247170611E+001	3.3131230E+000	-6.7330744E-005	2.3505387E-001	1.1869164E-002	1.000000000000000E+000	11	1.3117032E-001	4.8833003E-004	-3.643966084451272E-006	-3.9815533E-004	3.6276581E-003	8.3657372E-004	3.7228698E-003	1.2985947E+001	4.909689630698669E-007
1.0002229E+004	2.6565503E+002	6.2634697E+001	2.7293900E+002	-1.3266601E+001	2.386648750692257E+001	3.3131282E+000	9.0884178E-006	2.5404364E-001	1.3378491E-002	1.000000000000000E+000	11	1.3178405E-001	4.8283336E-004	-3.153884614222786E-006	2.6785929E-006	3.5660451E-003	8.4078277E-004	3.6638223E-003	1.3266601E+001	4.900814702284860E-007
8.9149297E+003	2.6984253E+002	6.5039070E+001	2.7756995E+002	-1.3551305E+001	2.434890080985497E+001	3.3131509E+000	1.1884283E-005	2.7449086E-001	1.5070638E-002	1.000000000000000E+000	11	1.3227713E-001	4.7655424E-004	-3.328702966759819E-006	3.2334571E-004	3.5023983E-003	8.4416906E-004	3.6026954E-003	1.3551305E+001	-1.748183525370325E-007
7.9439976E+003	2.7423254E+002	6.7546593E+001	2.8242880E+002	-1.3837161E+001	2.487499131483492E+001	3.3131623E+000	1.9525456E-005	2.9660439E-001	1.6965494E-002	1.000000000000000E+000	11	1.3261688E-001	4.6955864E-004	-3.278972716790223E-006	-7.7488192E-005	3.4379617E-003	8.4680907E-004	3.5407154E-003	1.3837161E+001	4.973024996959614E-008
7.0822334E+003	2.7889120E+002	7.0245232E+001	2.8760162E+002	-1.4137216E+001	2.545186675558216E+001	3.3131611E+000	-4.8911188E-006	3.1991386E-001	1.9084645E-002	1.000000000000000E+000	11	1.3288197E-001	4.6203483E-004	-2.922922993694859E-006	1.6301216E-004	3.3717249E-003	8.4924739E-004	3.4770318E-003	1.4137216E+001	3.560497230953638E-007
6.3077344E+003	2.8385333E+002	7.3006813E+001	2.9309164E+002	-1.4423794E+001	2.608656145233545E+001	3.3131697E+000	-1.7021675E-004	3.4560764E-001	2.1443874E-002	1.000000000000000E+000	11	1.3307267E-001	4.5403093E-004	-3.357169573392538E-006	4.8367929E-004	3.3043583E-003	8.4987783E-004	3.4119021E-003	1.4423794E+001	-4.342465796976787E-007
5.6210552E+003	2.8911832E+002	7.5886200E+001	2.9891156E+002	-1.4706939E+001	2.678726324564195E+001	3.3131773E+000	-1.3741279E-004	3.7311220E-001	2.4048038E-002	1.000000000000000E+000	11	1.3320193E-001	4.4562321E-004	-3.288500357171870E-006	2.6785929E-006	3.2358635E-003	8.4933173E-004	3.3454711E-003	1.4706939E+001	6.866921622066776E-008
5.0116035E+003	2.9465707E+002	7.8783218E+001	3.0500751E+002	-1.4969171E+001	2.754767293513578E+001	3.3131647E+000	-1.5362892E-004	4.0309715E-001	2.6894042E-002	1.000000000000000E+000	11	1.3328369E-001	4.3698493E-004	-3.085820813774868E-006	-1.5765498E-004	3.1673480E-003	8.4686198E-004	3.2786077E-003	1.4969171E+001	2.026795433970016E-007
4.4664292E+003	3.0052856E+002	8.1756645E+001	3.1145074E+002	-1.5218613E+001	2.830670163784816E+001	3.3131821E+000	-1.1225126E-004	4.3584955E-001	3.0033365E-002	1.000000000000000E+000	11	1.3332897E-001	4.2809008E-004	-3.087617389244972E-006	4.0351250E-004	3.0981826E-003	8.4283843E-004	3.2107807E-003	1.5218613E+001	-1.796575470103385E-009
3.9812742E+003	3.0675626E+002	8.4706139E+001	3.1823660E+002	-1.5436692E+001	2.906669295395113E+001	3.3131859E+000	-1.2287546E-004	4.7193608E-001	3.3435874E-002	1.000000000000000E+000	11	1.3335982E-001	4.1905872E-004	-2.840855115317633E-006	-4.7832212E-004	3.0289576E-003	8.3640119E-004	3.1423161E-003	1.5436692E+001	2.467622739273390E-007
3.5465955E+003	3.1339999E+002	8.7688072E+001	3.2543625E+002	-1.5631409E+001	2.982692555003450E+001	3.3131759E+000	-1.9127996E-004	5.1176190E-001	3.7154991E-002	1.000000000000000E+000	11	1.3336131E-001	4.0979244E-004	-2.541921222516167E-006	2.6785929E-006	2.9591511E-003	8.2795869E-004	3.0727985E-003	1.5631409E+001	2.989338928014655E-007
3.1610112E+003	3.2036679E+002	9.0632568E+001	3.3294016E+002	-1.5796341E+001	3.058669539947732E+001	3.3131747E+000	-1.5530713E-004	5.5553293E-001	4.1166697E-002	1.000000000000000E+000	11	1.3335550E-001	4.0053893E-004	-2.284161578031166E-006	-7.7488192E-005	2.8901151E-003	8.1762078E-004	3.0035428E-003	1.5796341E+001	2.577596444850009E-007
2.8172952E+003	3.2771448E+002	9.3399414E+001	3.4076419E+002	-1.5907680E+001	3.134695418222691E+001	3.3131692E+000	-1.8289243E-004	6.0484433E-001	4.5438506E-002	1.000000000000000E+000	11	1.3334173E-001	3.9130205E-004	-2.261767570935060E-006	-7.1882247E-004	2.8221996E-003	8.0433371E-004	2.9345807E-003	1.5907680E+001	2.239400709610601E-008
