EC-Lab ASCII FILE
Nb header lines : 60                          

Potentio Electrochemical Impedance Spectroscopy

Run on channel : 10 (SN 41749)
User : 
CE vs. WE compliance from -10 V to 10 V
Electrode connection : standard
Ewe ctrl range : min = -5.00 V, max = 5.00 V
Acquisition started on : 12/03/2020 16:53:05
Technique started on : 12/03/2020 16:53:07
Saved on :
	File : DE_206_10_30.mpr
	Directory : P:\Chemistry\Data\VMP3\Kyler\DOE\DE_206\
	Host : 10.0.4.64
Device : VMP3 (SN 1432)
Address : USB
EC-Lab for windows v11.33 (software)
Internet server v11.32 (firmware)
Command interpretor v11.33 (firmware)
Electrode material : 
Initial state : 
Electrolyte : 
Comments : 
Electrode surface area : 0.001 cm²
Characteristic mass : 0.001 g
Equivalent Weight : 0.000 g/eq.
Density : 0.000 g/cm3
Record Analogic IN 1
Cycle Definition : Charge/Discharge alternance
Mode                Single sine         
E (V)               0.0000              
vs.                 Eoc                 
tE (h:m:s)          0:00:0.0000         
record              0                   
dI                  1.000               
unit dI             mA                  
dt (s)              0.000               
fi                  1.000               
unit fi             MHz                 
ff                  1.000               
unit ff             Hz                  
Nd                  20                  
Points              per decade          
spacing             Logarithmic         
Va (mV)             128.0               
pw                  0.50                
Na                  3                   
corr                0                   
E range min (V)     -5.000              
E range max (V)     5.000               
I Range             Auto                
Bandwidth           5                   
nc cycles           0                   
goto Ns'            0                   
nr cycles           0                   
inc. cycle          1                   

freq/Hz	Re(Z)/Ohm	-Im(Z)/Ohm	|Z|/Ohm	Phase(Z)/deg	time/s	<Ewe>/V	<I>/mA	Cs/µF	Cp/µF	cycle number	I Range	|Ewe|/V	|I|/A	(Q-Qo)/mA.h	Analog IN 1/V	Re(Y)/Ohm-1	Im(Y)/Ohm-1	|Y|/Ohm-1	Phase(Y)/deg	dq/mA.h	
1.0000186E+006	5.6088787E+001	-8.4631042E+000	5.6723682E+001	8.5804977E+000	2.621487271127990E+000	3.3049724E+000	1.5969797E-003	-1.8805392E-002	-4.1861320E-004	1.000000000000000E+000	10	1.3740471E-004	2.4223518E-006	-1.181655878231039E-006	4.2513400E-004	1.7432000E-002	-2.6302733E-003	1.7629322E-002	-8.5804977E+000	-1.181655878231039E-006
8.9124669E+005	8.7016426E+001	3.5529213E+001	9.3990334E+001	-2.2210423E+001	3.520477020501858E+000	3.3044038E+000	8.0885366E-004	5.0261635E-003	7.1819342E-004	1.000000000000000E+000	11	4.4006735E-004	4.6820492E-006	-9.778759089737529E-007	5.0530297E-004	9.8499684E-003	4.0217880E-003	1.0639392E-002	2.2210423E+001	2.037799692572864E-007
7.9433269E+005	9.2954094E+001	3.4782242E+001	9.9248520E+001	-2.0515211E+001	4.115492542128777E+000	3.3040948E+000	1.7951919E-004	5.7604993E-003	7.0750120E-004	1.000000000000000E+000	11	1.4280166E-003	1.4388291E-005	-1.003620933383799E-006	5.0530297E-004	9.4367070E-003	3.5310960E-003	1.0075717E-002	2.0515211E+001	-2.574502441004577E-008
7.0794981E+005	9.7092949E+001	3.4114048E+001	1.0291166E+002	-1.9359158E+001	4.711483743769350E+000	3.3039117E+000	-2.3755172E-004	6.5899845E-003	7.2413869E-004	1.000000000000000E+000	11	2.9736280E-003	2.8894958E-005	-8.993883497185177E-007	8.2597876E-004	9.1676610E-003	3.2210995E-003	9.7170724E-003	1.9359158E+001	1.042325836652810E-007
6.3095681E+005	1.0098090E+002	3.3556046E+001	1.0641029E+002	-1.8381695E+001	5.307485105382511E+000	3.3038056E+000	-2.8097306E-004	7.5170896E-003	7.4752216E-004	1.000000000000000E+000	11	5.1885694E-003	4.8760037E-005	-7.018918632432663E-007	5.8547192E-004	8.9180926E-003	2.9634906E-003	9.3975877E-003	1.8381695E+001	1.974964864752514E-007
5.6234225E+005	1.0469972E+002	3.3294544E+001	1.0986610E+002	-1.7640680E+001	5.903489667020040E+000	3.3037467E+000	-2.7519552E-004	8.5005369E-003	7.8066572E-004	1.000000000000000E+000	11	8.1712985E-003	7.4375072E-005	-7.794607689967152E-007	9.8631659E-004	8.6739743E-003	2.7583267E-003	9.1019887E-003	1.7640680E+001	-7.756890575344891E-008
5.0120619E+005	1.0829610E+002	3.2839752E+001	1.1316578E+002	-1.6869423E+001	6.499494362011319E+000	3.3036897E+000	-3.5439627E-004	9.6694957E-003	8.1427925E-004	1.000000000000000E+000	11	1.2000668E-002	1.0604502E-004	-8.000060644766967E-007	4.2513400E-004	8.4563419E-003	2.5643045E-003	8.8365935E-003	1.6869423E+001	-2.054529547998153E-008
4.4668572E+005	1.1154086E+002	3.2236473E+001	1.1610578E+002	-1.6119848E+001	7.095489777013427E+000	3.3036721E+000	-3.1805571E-004	1.1052755E-002	8.5203588E-004	1.000000000000000E+000	11	1.6668577E-002	1.4356371E-004	-8.092491797473890E-007	3.4496505E-004	8.2742050E-003	2.3913321E-003	8.6128358E-003	1.6119848E+001	-9.243115270692214E-009
3.9810347E+005	1.1462856E+002	3.1612059E+001	1.1890765E+002	-1.5417695E+001	7.690496045252075E+000	3.3036761E+000	-1.9207675E-004	1.2646531E-002	8.9383498E-004	1.000000000000000E+000	11	2.2238193E-002	1.8702071E-004	-8.446208447502512E-007	5.0530297E-004	8.1072440E-003	2.2358010E-003	8.4098876E-003	1.5417695E+001	-3.537166500286227E-008
3.5480997E+005	1.1739870E+002	3.0802166E+001	1.2137228E+002	-1.4701458E+001	8.285482553503243E+000	3.3036451E+000	-3.3258996E-004	1.4562738E-002	9.3792169E-004	1.000000000000000E+000	11	2.8691260E-002	2.3639055E-004	-1.059817733918155E-006	9.0614770E-004	7.9693757E-003	2.0909433E-003	8.2391137E-003	1.4701458E+001	-2.151968891679038E-007
3.1622997E+005	1.2011355E+002	2.9967123E+001	1.2379536E+002	-1.4008736E+001	8.881487301812740E+000	3.3036089E+000	-3.4637770E-004	1.6794693E-002	9.8413206E-004	1.000000000000000E+000	11	3.6172122E-002	2.9219285E-004	-1.533396194308605E-006	6.6564087E-004	7.8376019E-003	1.9554030E-003	8.0778468E-003	1.4008736E+001	-4.735784603904500E-007
2.8183453E+005	1.2257873E+002	2.9060656E+001	1.2597645E+002	-1.3337300E+001	9.476492876739940E+000	3.3035674E+000	-5.4689770E-004	1.9432135E-002	1.0340763E-003	1.000000000000000E+000	11	4.4638958E-002	3.5434368E-004	-1.966561174118801E-006	2.6479611E-004	7.7238958E-003	1.8311617E-003	7.9379920E-003	1.3337300E+001	-4.331649798101960E-007
2.5118764E+005	1.2490918E+002	2.8099949E+001	1.2803090E+002	-1.2678368E+001	1.007249583836528E+001	3.3035374E+000	-5.3254765E-004	2.2548432E-002	1.0861700E-003	1.000000000000000E+000	11	5.4186393E-002	4.2322904E-004	-1.498938468121600E-006	9.0614770E-004	7.6201721E-003	1.7142571E-003	7.8106145E-003	1.2678368E+001	4.676227059972007E-007
2.2387173E+005	1.2710130E+002	2.7098495E+001	1.2995795E+002	-1.2035483E+001	1.066748317333986E+001	3.3034835E+000	-7.4909610E-004	2.6234673E-002	1.1406709E-003	1.000000000000000E+000	11	6.4799652E-002	4.9862015E-004	-1.065733617658326E-006	3.4496505E-004	7.5256545E-003	1.6044992E-003	7.6947967E-003	1.2035483E+001	4.332048504632742E-007
1.9954350E+005	1.2910570E+002	2.6119785E+001	1.3172139E+002	-1.1437314E+001	1.126448445502319E+001	3.3035038E+000	-4.2632202E-004	3.0536059E-002	1.2007139E-003	1.000000000000000E+000	11	7.6427571E-002	5.8022141E-004	-9.016121823612290E-007	4.2513400E-004	7.4410252E-003	1.5054176E-003	7.5917812E-003	1.1437314E+001	1.641214352970970E-007
1.7783180E+005	1.3101993E+002	2.5116774E+001	1.3340567E+002	-1.0852054E+001	1.185949413661729E+001	3.3035030E+000	-4.0246081E-004	3.5632547E-002	1.2630658E-003	1.000000000000000E+000	11	8.9095004E-002	6.6785020E-004	-7.616269318079706E-007	1.8462716E-004	7.3618805E-003	1.4112868E-003	7.4959332E-003	1.0852054E+001	1.399852505532584E-007
1.5848613E+005	1.3281972E+002	2.4157751E+001	1.3499879E+002	-1.0308484E+001	1.245649464495364E+001	3.3034534E+000	-6.9634686E-004	4.1569270E-002	1.3311458E-003	1.000000000000000E+000	11	1.0273206E-001	7.6098507E-004	1.087157673302702E-007	3.4496505E-004	7.2879060E-003	1.3255518E-003	7.4074734E-003	1.0308484E+001	8.703426991382407E-007
1.4125594E+005	1.3450461E+002	2.3208660E+001	1.3649223E+002	-9.7899408E+000	1.291648730679299E+001	3.3034673E+000	-5.5191590E-004	4.8547104E-002	1.4036137E-003	1.000000000000000E+000	11	1.1738589E-001	8.6001883E-004	1.655696047673700E-007	5.0530297E-004	7.2197351E-003	1.2457594E-003	7.3264241E-003	9.7899408E+000	5.685383743709988E-008
1.2590930E+005	1.3608865E+002	2.2292789E+001	1.3790247E+002	-9.3030415E+000	1.337647876868141E+001	3.3034773E+000	-4.8911438E-004	5.6701943E-002	1.4817765E-003	1.000000000000000E+000	11	1.3311854E-001	9.6530939E-004	2.663351667563094E-007	5.8547192E-004	7.1561239E-003	1.1722503E-003	7.2515020E-003	9.3030415E+000	1.007655619889394E-007
1.1220494E+005	1.3760939E+002	2.1393204E+001	1.3926239E+002	-8.8366508E+000	1.397148298358661E+001	3.3034353E+000	-8.0294127E-004	6.6302866E-002	1.5646467E-003	1.000000000000000E+000	11	1.2996303E-001	9.3322416E-004	-1.025073561757583E-006	2.4289257E-005	7.0954575E-003	1.1030829E-003	7.1806898E-003	8.8366508E+000	-1.291408728513893E-006
1.0000371E+005	1.3903078E+002	2.0546661E+001	1.4054082E+002	-8.4066067E+000	1.456649685182492E+001	3.3035004E+000	-2.6809089E-004	7.7457368E-002	1.6555424E-003	1.000000000000000E+000	11	1.2972838E-001	9.2306553E-004	-9.110890564220932E-007	2.6479611E-004	7.0389193E-003	1.0402466E-003	7.1153706E-003	8.4066067E+000	1.139845053354900E-007
8.9129305E+004	1.4036610E+002	1.9713577E+001	1.4174367E+002	-7.9945598E+000	1.516148293341394E+001	3.3035030E+000	-3.5418826E-004	9.0580389E-002	1.7520953E-003	1.000000000000000E+000	11	1.2969732E-001	9.1501320E-004	7.859696192301473E-007	4.2513400E-004	6.9864234E-003	9.8120130E-004	7.0549888E-003	7.9945598E+000	1.697058675652241E-006
7.9433273E+004	1.4162248E+002	1.8927458E+001	1.4288168E+002	-7.6123157E+000	1.575647682839190E+001	3.3034678E+000	-7.3398807E-004	1.0585842E-001	1.8576198E-003	1.000000000000000E+000	11	1.2962461E-001	9.0721640E-004	1.369714406006905E-006	6.6564087E-004	6.9371182E-003	9.2712691E-004	6.9987979E-003	7.6123157E+000	5.837447867767574E-007
7.0794977E+004	1.4280951E+002	1.8188616E+001	1.4396312E+002	-7.2582722E+000	1.635247370999423E+001	3.3035228E+000	-3.2045817E-004	1.2359988E-001	1.9729442E-003	1.000000000000000E+000	11	1.2955464E-001	8.9991553E-004	-2.846660825258974E-007	5.8547192E-004	6.8905614E-003	8.7760109E-004	6.9462233E-003	7.2582722E+000	-1.654380488532802E-006
6.3093828E+004	1.4392538E+002	1.7477936E+001	1.4498274E+002	-6.9239516E+000	1.694848376497976E+001	3.3035343E+000	-2.3995120E-004	1.4432551E-001	2.0974460E-003	1.000000000000000E+000	11	1.2942933E-001	8.9272228E-004	-1.862744266731574E-006	6.6564087E-004	6.8470705E-003	8.3149091E-004	6.8973727E-003	6.9239516E+000	-1.578078184205676E-006
5.6237012E+004	1.4499507E+002	1.6839012E+001	1.4596959E+002	-6.6243744E+000	1.754549632666749E+001	3.3035378E+000	-2.6287299E-004	1.6806655E-001	2.2366073E-003	1.000000000000000E+000	11	1.2931225E-001	8.8588480E-004	-3.121406564173715E-006	5.8547192E-004	6.8050046E-003	7.9029973E-004	6.8507418E-003	6.6243744E+000	-1.258662297442142E-006
5.0122477E+004	1.4599355E+002	1.6224079E+001	1.4689226E+002	-6.3411894E+000	1.800449181513977E+001	3.3035271E+000	-3.7841423E-004	1.9571656E-001	2.3875355E-003	1.000000000000000E+000	11	1.4026771E-001	9.5490203E-004	-3.385480567296327E-006	5.0530297E-004	6.7660594E-003	7.5190369E-004	6.8077105E-003	6.3411894E+000	-2.640740031226114E-007
4.4666715E+004	1.4692152E+002	1.5674725E+001	1.4775531E+002	-6.0897217E+000	1.860049360347330E+001	3.3035438E+000	-2.9902757E-004	2.2731924E-001	2.5582905E-003	1.000000000000000E+000	11	1.3029084E-001	8.8180142E-004	-2.067616512994088E-006	5.0530297E-004	6.7297546E-003	7.1798230E-004	6.7679463E-003	6.0897217E+000	1.317864054302239E-006
3.9814063E+004	1.4783719E+002	1.5176839E+001	1.4861417E+002	-5.8614025E+000	1.906049231861834E+001	3.3035297E+000	-3.2548970E-004	2.6339185E-001	2.7469108E-003	1.000000000000000E+000	11	1.3936552E-001	9.3776739E-004	-1.583592468174175E-006	1.8462716E-004	6.6936542E-003	6.8716484E-004	6.7288335E-003	5.8614025E+000	4.840240448199136E-007
3.5480996E+004	1.4865796E+002	1.4742418E+001	1.4938718E+002	-5.6635079E+000	1.965647845363128E+001	3.3035452E+000	-3.1561276E-004	3.0426753E-001	2.9632372E-003	1.000000000000000E+000	11	1.3005152E-001	8.7056687E-004	-1.730426240549099E-006	2.6479611E-004	6.6613392E-003	6.6060538E-004	6.6940151E-003	5.6635079E+000	-1.468337723749249E-007
3.1621143E+004	1.4948856E+002	1.4379195E+001	1.5017853E+002	-5.4943357E+000	2.011647362212534E+001	3.3035643E+000	-1.5198895E-004	3.5003218E-001	3.2089390E-003	1.000000000000000E+000	11	1.3712347E-001	9.1306976E-004	-1.087181468906541E-006	6.6564087E-004	6.6281492E-003	6.3755683E-004	6.6587417E-003	5.4943357E+000	6.432447716425587E-007
2.8188096E+004	1.5025742E+002	1.4051375E+001	1.5091299E+002	-5.3424973E+000	2.071247759708785E+001	3.3035669E+000	-1.8590757E-004	4.0182370E-001	3.4835332E-003	1.000000000000000E+000	11	1.2957796E-001	8.5862697E-004	-2.163349869332807E-006	8.2597876E-004	6.5975492E-003	6.1697210E-004	6.6263345E-003	5.3424973E+000	-1.076168400426266E-006
2.5116910E+004	1.5101689E+002	1.3798635E+001	1.5164598E+002	-5.2207031E+000	2.117249399228604E+001	3.3035641E+000	-1.8702574E-004	4.5921686E-001	3.8021409E-003	1.000000000000000E+000	11	1.3481215E-001	8.8899257E-004	-2.485886266450204E-006	1.0445821E-004	6.5669501E-003	6.0003187E-004	6.5943059E-003	5.2207031E+000	-3.225363971173972E-007
2.2389027E+004	1.5175928E+002	1.3611012E+001	1.5236842E+002	-5.1250410E+000	2.163249028081191E+001	3.3035796E+000	-2.1181078E-004	5.2226931E-001	4.1675935E-003	1.000000000000000E+000	11	1.3939825E-001	9.1487617E-004	-3.015977342249243E-006	6.6564087E-004	6.5368013E-003	5.8627373E-004	6.5630395E-003	5.1250410E+000	-5.300910757990398E-007
1.9948783E+004	1.5248160E+002	1.3469797E+001	1.5307538E+002	-5.0482450E+000	2.222847900245688E+001	3.3035653E+000	-2.7181979E-004	5.9230131E-001	4.5862119E-003	1.000000000000000E+000	11	1.2950107E-001	8.4599544E-004	-1.239163826074218E-006	6.6564087E-004	6.5073883E-003	5.7484448E-004	6.5327291E-003	5.0482450E+000	1.776813516175025E-006
1.7786895E+004	1.5317628E+002	1.3409825E+001	1.5376215E+002	-5.0032063E+000	2.268849595761276E+001	3.3035457E+000	-3.4189096E-004	6.6726279E-001	5.0750962E-003	1.000000000000000E+000	11	1.3253227E-001	8.6193037E-004	-9.340403511030470E-007	3.4496505E-004	6.4787716E-003	5.6718441E-004	6.5035513E-003	5.0032063E+000	3.051234749711713E-007
1.5847686E+004	1.5388332E+002	1.3404132E+001	1.5446600E+002	-4.9782305E+000	2.314848685948527E+001	3.3035669E+000	-2.3622427E-004	7.4923074E-001	5.6419228E-003	1.000000000000000E+000	11	1.3508487E-001	8.7452814E-004	-1.319094051071766E-006	1.3069925E-003	6.4494954E-003	5.6178856E-004	6.4739166E-003	4.9782305E+000	-3.850536999687191E-007
1.4121879E+004	1.5459998E+002	1.3466017E+001	1.5518533E+002	-4.9780316E+000	2.360748554792372E+001	3.3035655E+000	-2.4833693E-004	8.3692873E-001	6.3018119E-003	1.000000000000000E+000	11	1.3719904E-001	8.8409800E-004	-1.877620216370108E-006	5.8547192E-004	6.4196019E-003	5.5916223E-004	6.4439080E-003	4.9780316E+000	-5.585261652983415E-007
1.2590932E+004	1.5532683E+002	1.3598198E+001	1.5592093E+002	-5.0032439E+000	2.406648332971963E+001	3.3035610E+000	-2.7796850E-004	9.2956746E-001	7.0702503E-003	1.000000000000000E+000	11	1.3892767E-001	8.9101359E-004	-1.728061597791061E-006	9.8631659E-004	6.3890703E-003	5.5933575E-004	6.4135073E-003	5.0032439E+000	1.495586185790470E-007
1.1217711E+004	1.5606976E+002	1.3793975E+001	1.5667816E+002	-5.0508709E+000	2.452649305827799E+001	3.3035655E+000	-1.9839330E-004	1.0285525E+000	7.9723876E-003	1.000000000000000E+000	11	1.4033723E-001	8.9570385E-004	-1.678454769930492E-006	6.6564087E-004	6.3577266E-003	5.6191749E-004	6.3825105E-003	5.0508709E+000	4.960682786056876E-008
1.0002229E+004	1.5681924E+002	1.4050599E+001	1.5744743E+002	-5.1198831E+000	2.512248409990571E+001	3.3035607E+000	-3.0871929E-004	1.1324747E+000	9.0187630E-003	1.000000000000000E+000	11	1.2939206E-001	8.2181115E-004	-1.016624172585176E-006	1.0445821E-004	6.3259853E-003	5.6679198E-004	6.3513261E-003	5.1198831E+000	6.618305973453162E-007
8.9149297E+003	1.5759225E+002	1.4385760E+001	1.5824750E+002	-5.2157722E+000	2.560490721618407E+001	3.3036098E+000	-6.0718808E-006	1.2409931E+000	1.0255606E-002	1.000000000000000E+000	11	1.3022046E-001	8.2289107E-004	-8.137445603060768E-007	6.6564087E-004	6.2930500E-003	5.7445909E-004	6.3192151E-003	5.2157722E+000	2.028796122790988E-007
7.9439976E+003	1.5841374E+002	1.4774487E+001	1.5910123E+002	-5.3282876E+000	2.613099388114642E+001	3.3036103E+000	-1.2310594E-004	1.3560278E+000	1.1693549E-002	1.000000000000000E+000	11	1.3086936E-001	8.2255405E-004	-1.209506628933013E-006	9.0614770E-004	6.2581478E-003	5.8366725E-004	6.2853065E-003	5.3282876E+000	-3.957620686269367E-007
7.0822334E+003	1.5928101E+002	1.5224457E+001	1.6000694E+002	-5.4598799E+000	2.670786417523050E+001	3.3036253E+000	-9.4406460E-005	1.4760739E+000	1.3363310E-002	1.000000000000000E+000	11	1.3138586E-001	8.2112598E-004	-7.259879164420353E-007	1.1466546E-003	6.2213740E-003	5.9465371E-004	6.2497286E-003	5.4598799E+000	4.835187124909782E-007
6.3077344E+003	1.6019859E+002	1.5753297E+001	1.6097128E+002	-5.6161847E+000	2.734255233869771E+001	3.3036132E+000	-2.6306213E-004	1.6016783E+000	1.5339860E-002	1.000000000000000E+000	11	1.3178952E-001	8.1871450E-004	-9.897143098237899E-007	1.3069925E-003	6.1824676E-003	6.0795952E-004	6.2122880E-003	5.6161847E+000	-2.637263933817546E-007
5.6210552E+003	1.6117410E+002	1.6325008E+001	1.6199876E+002	-5.7836523E+000	2.804326946529909E+001	3.3036580E+000	-1.7067476E-005	1.7343982E+000	1.7612956E-002	1.000000000000000E+000	11	1.3210294E-001	8.1545644E-004	-9.738517737245678E-007	6.6564087E-004	6.1414633E-003	6.2205677E-004	6.1728866E-003	5.7836523E+000	1.586253609922205E-008
5.0116035E+003	1.6221133E+002	1.6940655E+001	1.6309354E+002	-5.9621119E+000	2.880367254145676E+001	3.3036504E+000	-5.8812257E-005	1.8746198E+000	2.0225540E-002	1.000000000000000E+000	11	1.3234198E-001	8.1144838E-004	-1.355189347026883E-006	8.2597876E-004	6.0982844E-003	6.3687866E-004	6.1314506E-003	5.9621119E+000	-3.813375733023148E-007
4.4664292E+003	1.6333714E+002	1.7623219E+001	1.6428513E+002	-6.1580911E+000	2.956270609750936E+001	3.3036408E+000	-1.2180128E-004	2.0219688E+000	2.3267429E-002	1.000000000000000E+000	11	1.3252942E-001	8.0670376E-004	-6.206286761945295E-007	5.8547192E-004	6.0518542E-003	6.5296330E-004	6.0869781E-003	6.1580911E+000	7.345606708323532E-007
3.9812742E+003	1.6454492E+002	1.8324982E+001	1.6556218E+002	-6.3547111E+000	3.032270584026992E+001	3.3036463E+000	-8.3784769E-005	2.1814964E+000	2.6725098E-002	1.000000000000000E+000	11	1.3266775E-001	8.0131675E-004	-7.180413398584481E-007	7.4580981E-004	6.0029151E-003	6.6853059E-004	6.0400269E-003	6.3547111E+000	-9.741266366391861E-008
3.5465955E+003	1.6583447E+002	1.9089060E+001	1.6692952E+002	-6.5663667E+000	3.108294336969266E+001	3.3036578E+000	4.5016421E-007	2.3508446E+000	3.0741619E-002	1.000000000000000E+000	11	1.3277201E-001	7.9537771E-004	-3.783676249650954E-007	7.4580981E-004	5.9512546E-003	6.8504369E-004	5.9905523E-003	6.5663667E+000	3.396737148933527E-007
3.1610112E+003	1.6722192E+002	1.9861198E+001	1.6839726E+002	-6.7733750E+000	3.184270431246841E+001	3.3036757E+000	2.7658492E-005	2.5350626E+000	3.5263833E-002	1.000000000000000E+000	11	1.3284764E-001	7.8889425E-004	-1.495306056571685E-007	5.8547192E-004	5.8968915E-003	7.0038269E-004	5.9383386E-003	6.7733750E+000	2.288370193079269E-007
2.8172952E+003	1.6872212E+002	2.0654476E+001	1.6998166E+002	-6.9792590E+000	3.260292600188404E+001	3.3036547E+000	-8.0616890E-005	2.7351024E+000	4.0382929E-002	1.000000000000000E+000	11	1.3289896E-001	7.8184291E-004	-6.041305628880056E-007	5.0530297E-004	5.8393958E-003	7.1484206E-004	5.8829878E-003	6.9792590E+000	-4.545999572308371E-007
