EC-Lab ASCII FILE
Nb header lines : 60                          

Potentio Electrochemical Impedance Spectroscopy

Run on channel : 11 (SN 41750)
User : 
CE vs. WE compliance from -10 V to 10 V
Electrode connection : standard
Ewe ctrl range : min = -5.00 V, max = 5.00 V
Acquisition started on : 12/03/2020 16:52:56
Technique started on : 12/03/2020 16:52:57
Saved on :
	File : DE_206_11_30.mpr
	Directory : P:\Chemistry\Data\VMP3\Kyler\DOE\DE_206\
	Host : 10.0.4.64
Device : VMP3 (SN 1432)
Address : USB
EC-Lab for windows v11.33 (software)
Internet server v11.32 (firmware)
Command interpretor v11.33 (firmware)
Electrode material : 
Initial state : 
Electrolyte : 
Comments : 
Electrode surface area : 0.001 cm²
Characteristic mass : 0.001 g
Equivalent Weight : 0.000 g/eq.
Density : 0.000 g/cm3
Record Analogic IN 1
Cycle Definition : Charge/Discharge alternance
Mode                Single sine         
E (V)               0.0000              
vs.                 Eoc                 
tE (h:m:s)          0:00:0.0000         
record              0                   
dI                  1.000               
unit dI             mA                  
dt (s)              0.000               
fi                  1.000               
unit fi             MHz                 
ff                  1.000               
unit ff             Hz                  
Nd                  20                  
Points              per decade          
spacing             Logarithmic         
Va (mV)             128.0               
pw                  0.50                
Na                  3                   
corr                0                   
E range min (V)     -5.000              
E range max (V)     5.000               
I Range             Auto                
Bandwidth           5                   
nc cycles           0                   
goto Ns'            0                   
nr cycles           0                   
inc. cycle          1                   

freq/Hz	Re(Z)/Ohm	-Im(Z)/Ohm	|Z|/Ohm	Phase(Z)/deg	time/s	<Ewe>/V	<I>/mA	Cs/µF	Cp/µF	cycle number	I Range	|Ewe|/V	|I|/A	(Q-Qo)/mA.h	Analog IN 1/V	Re(Y)/Ohm-1	Im(Y)/Ohm-1	|Y|/Ohm-1	Phase(Y)/deg	dq/mA.h	
1.0000186E+006	8.2969757E+001	3.4684513E+001	8.9927727E+001	-2.2686781E+001	1.645484131440753E+000	3.3077016E+000	2.1545666E-003	4.5885607E-003	6.8259082E-004	1.000000000000000E+000	11	4.9237325E-004	5.4752109E-006	7.459362470449883E-007	7.8130380E-004	1.0259651E-002	4.2889239E-003	1.1120041E-002	2.2686781E+001	7.459362470449883E-007
8.9124669E+005	8.2014725E+001	3.1639816E+001	8.7906158E+001	-2.1095724E+001	2.241490053100279E+000	3.3070300E+000	-1.1042723E-004	5.6440164E-003	7.3116866E-004	1.000000000000000E+000	11	1.6641650E-004	1.8931154E-006	7.925566665572761E-007	1.1018084E-003	1.0613368E-002	4.0944479E-003	1.1375767E-002	2.1095724E+001	4.662041951228782E-008
7.9433269E+005	8.8581985E+001	3.0940044E+001	9.3829926E+001	-1.9253361E+001	2.837475841428386E+000	3.3066392E+000	-1.1515934E-003	6.4758495E-003	7.0413493E-004	1.000000000000000E+000	11	5.7459611E-004	6.1238043E-006	6.255414888257494E-007	3.8067301E-004	1.0061499E-002	3.5142947E-003	1.0657581E-002	1.9253361E+001	-1.670151777315267E-007
7.0794981E+005	9.1874199E+001	2.9578564E+001	9.6518181E+001	-1.7845776E+001	3.432474216358969E+000	3.3064153E+000	-1.5335028E-003	7.6004723E-003	7.1379991E-004	1.000000000000000E+000	11	1.8806452E-003	1.9484880E-005	3.280906895190835E-007	2.2042071E-004	9.8622330E-003	3.1751106E-003	1.0360742E-002	1.7845776E+001	-2.974507993066658E-007
6.3095681E+005	9.5001862E+001	2.8454988E+001	9.9171768E+001	-1.6674026E+001	4.029497604671633E+000	3.3062840E+000	-1.7823312E-003	8.8646607E-003	7.2979822E-004	1.000000000000000E+000	11	3.8843902E-003	3.9168306E-005	7.214365274949665E-008	8.6142996E-004	9.6595306E-003	2.8932255E-003	1.0083515E-002	1.6674026E+001	-2.559470367695869E-007
5.6234225E+005	9.7795471E+001	2.7719002E+001	1.0164791E+002	-1.5824771E+001	4.625479286332848E+000	3.3061931E+000	-1.9191396E-003	1.0210379E-002	7.5927674E-004	1.000000000000000E+000	11	6.6835992E-003	6.5752451E-005	-3.505339193644533E-007	7.0117763E-004	9.4650267E-003	2.6827529E-003	9.8378807E-003	1.5824771E+001	-4.226775721139499E-007
5.0120619E+005	1.0049657E+002	2.7013437E+001	1.0406386E+002	-1.5045450E+001	5.222490648011444E+000	3.3061507E+000	-1.9258478E-003	1.1755033E-002	7.9210679E-004	1.000000000000000E+000	11	1.0366381E-002	9.9615572E-005	-6.130709173804562E-007	6.0168401E-005	9.2800735E-003	2.4944798E-003	9.6094841E-003	1.5045450E+001	-2.625369980160030E-007
4.4668572E+005	1.0301842E+002	2.6243181E+001	1.0630852E+002	-1.4291703E+001	5.817473636270734E+000	3.3060997E+000	-2.0632152E-003	1.3576929E-002	8.2736742E-004	1.000000000000000E+000	11	1.4944990E-002	1.4058131E-004	-9.320288483949197E-007	6.2105147E-004	9.1154650E-003	2.3220971E-003	9.4065843E-003	1.4291703E+001	-3.189579310144634E-007
3.9810347E+005	1.0529152E+002	2.5482286E+001	1.0833121E+002	-1.3604928E+001	6.413489424594445E+000	3.3060839E+000	-1.9640562E-003	1.5688658E-002	8.6807134E-004	1.000000000000000E+000	11	2.0449053E-002	1.8876420E-004	-1.544078679787668E-006	6.2105147E-004	8.9719379E-003	2.1713569E-003	9.2309508E-003	1.3604928E+001	-6.120498313927479E-007
3.5480997E+005	1.0740398E+002	2.4561987E+001	1.1017670E+002	-1.2881342E+001	7.009479479544098E+000	3.3060548E+000	-2.0702949E-003	1.8262526E-002	9.0762880E-004	1.000000000000000E+000	11	2.6909014E-002	2.4423507E-004	-2.160354707797524E-006	7.0117763E-004	8.8479128E-003	2.0234103E-003	9.0763289E-003	1.2881342E+001	-6.162760280098561E-007
3.1622997E+005	1.0932357E+002	2.3673536E+001	1.1185741E+002	-1.2218496E+001	7.604488681157818E+000	3.3060143E+000	-2.1506262E-003	2.1259544E-002	9.5224951E-004	1.000000000000000E+000	11	3.4394301E-002	3.0748345E-004	-3.074441801507621E-006	1.2620607E-003	8.7374421E-003	1.8920546E-003	8.9399535E-003	1.2218496E+001	-9.140870937100973E-007
2.8183453E+005	1.1115903E+002	2.2829496E+001	1.1347915E+002	-1.1605847E+001	8.200477642792976E+000	3.3059547E+000	-2.2067281E-003	2.4736006E-002	1.0011292E-003	1.000000000000000E+000	11	4.2891089E-002	3.7796449E-004	-3.815611646269746E-006	6.2105147E-004	8.6320238E-003	1.7728182E-003	8.8121919E-003	1.1605847E+001	-7.411698447621248E-007
2.5118764E+005	1.1281030E+002	2.1910580E+001	1.1491839E+002	-1.0991426E+001	8.796488577761920E+000	3.3058932E+000	-2.3903192E-003	2.8917983E-002	1.0512274E-003	1.000000000000000E+000	11	5.2473933E-002	4.5661911E-004	-3.433612184915546E-006	1.0216822E-003	8.5421987E-003	1.6591086E-003	8.7018274E-003	1.0991426E+001	3.819994613541995E-007
2.2387173E+005	1.1439240E+002	2.1036024E+001	1.1631051E+002	-1.0419909E+001	9.392471912753535E+000	3.3059363E+000	-1.8445738E-003	3.3795368E-002	1.1054691E-003	1.000000000000000E+000	11	6.3115336E-002	5.4264517E-004	-3.590180888623258E-006	9.4155606E-004	8.4558884E-003	1.5549834E-003	8.5976757E-003	1.0419909E+001	-1.565687037077117E-007
1.9954350E+005	1.1582407E+002	2.0218262E+001	1.1757549E+002	-9.9017878E+000	9.988481354404939E+000	3.3058789E+000	-2.1450270E-003	3.9449252E-002	1.1665217E-003	1.000000000000000E+000	11	7.4788123E-002	6.3608604E-004	-3.369585510414456E-006	7.0117763E-004	8.3784806E-003	1.4625484E-003	8.5051740E-003	9.9017878E+000	2.205953782088021E-007
1.7783180E+005	1.1719170E+002	1.9392729E+001	1.1878540E+002	-9.3960838E+000	1.058348247598042E+001	3.3058596E+000	-2.2087677E-003	4.6150010E-002	1.2300521E-003	1.000000000000000E+000	11	8.7494113E-002	7.3657295E-004	-2.254256459202022E-006	8.6142996E-004	8.3055943E-003	1.3743989E-003	8.4185433E-003	9.3960838E+000	1.115329051212434E-006
1.5848613E+005	1.1848105E+002	1.8609905E+001	1.1993368E+002	-8.9265575E+000	1.117847893093131E+001	3.3058281E+000	-2.3422204E-003	5.3961590E-002	1.2992441E-003	1.000000000000000E+000	11	1.0115188E-001	8.4339845E-004	-3.539707262327687E-006	5.4092531E-004	8.2369531E-003	1.2937844E-003	8.3379420E-003	8.9265575E+000	-1.285450803125665E-006
1.4125594E+005	1.1968443E+002	1.7860176E+001	1.2100970E+002	-8.4874582E+000	1.163747775272350E+001	3.3058658E+000	-2.0331906E-003	6.3085228E-002	1.3742278E-003	1.000000000000000E+000	11	1.1580039E-001	9.5695123E-004	-4.399879562351594E-006	4.6079917E-004	8.1732972E-003	1.2196784E-003	8.2638003E-003	8.4874582E+000	-8.601723000239068E-007
1.2590930E+005	1.2083363E+002	1.7140081E+001	1.2204322E+002	-8.0734653E+000	1.209749020126765E+001	3.3058484E+000	-2.1250765E-003	7.3747866E-002	1.4546145E-003	1.000000000000000E+000	11	1.3156042E-001	1.0779821E-003	-3.896492164161626E-006	5.4092531E-004	8.1126085E-003	1.1507622E-003	8.1938189E-003	8.0734653E+000	5.033873981899687E-007
1.1220494E+005	1.2193483E+002	1.6450541E+001	1.2303952E+002	-7.6835275E+000	1.269348577622441E+001	3.3058584E+000	-2.0685995E-003	8.6223960E-002	1.5413422E-003	1.000000000000000E+000	11	1.2984404E-001	1.0553035E-003	-2.215598189998774E-006	3.8067301E-004	8.0544986E-003	1.0866530E-003	8.1274696E-003	7.6835275E+000	1.680893974162852E-006
1.0000371E+005	1.2296677E+002	1.5809194E+001	1.2397886E+002	-7.3260312E+000	1.328847767112893E+001	3.3059134E+000	-1.8458639E-003	1.0066865E-001	1.6368860E-003	1.000000000000000E+000	11	1.2970221E-001	1.0461640E-003	-2.234603671243854E-006	4.6079917E-004	8.0000460E-003	1.0285241E-003	8.0658915E-003	7.3260312E+000	-1.900548124508012E-008
8.9129305E+004	1.2394400E+002	1.5195250E+001	1.2487198E+002	-6.9894524E+000	1.388447961947531E+001	3.3059027E+000	-2.0216326E-003	1.1751459E-001	1.7401130E-003	1.000000000000000E+000	11	1.2967028E-001	1.0384257E-003	-2.034740813024756E-006	5.4092531E-004	7.9486892E-003	9.7449101E-004	8.0082016E-003	6.9894524E+000	1.998628582190979E-007
7.9433273E+004	1.2486983E+002	1.4619320E+001	1.2572270E+002	-6.6775894E+000	1.447949234102271E+001	3.3059201E+000	-2.0059773E-003	1.3705362E-001	1.8531793E-003	1.000000000000000E+000	11	1.2968898E-001	1.0315478E-003	-3.414298801107280E-006	1.0216822E-003	7.9000546E-003	9.2491059E-004	7.9540126E-003	6.6775894E+000	-1.379557988082524E-006
7.0794977E+004	1.2574585E+002	1.4083117E+001	1.2653202E+002	-6.3903069E+000	1.507449666262255E+001	3.3059573E+000	-1.7109218E-003	1.5963161E-001	1.9774958E-003	1.000000000000000E+000	11	1.2955120E-001	1.0238610E-003	-3.115724652960327E-006	5.4092531E-004	7.8540342E-003	8.7962567E-004	7.9031382E-003	6.3903069E+000	2.985741481469532E-007
6.3093828E+004	1.2657390E+002	1.3589707E+001	1.2730135E+002	-6.1281314E+000	1.567047786430339E+001	3.3059747E+000	-1.6812853E-003	1.8561931E-001	2.1153262E-003	1.000000000000000E+000	11	1.2947387E-001	1.0170660E-003	-2.898623939972216E-006	1.4029455E-004	7.8104879E-003	8.3857920E-004	7.8553762E-003	6.1281314E+000	2.171007129881114E-007
5.6237012E+004	1.2736470E+002	1.3144778E+001	1.2804121E+002	-5.8923960E+000	1.626648247925914E+001	3.3059695E+000	-1.8125020E-003	2.1530031E-001	2.2690895E-003	1.000000000000000E+000	11	1.2932780E-001	1.0100482E-003	-1.347528055116224E-006	4.6079917E-004	7.7687209E-003	8.0177718E-004	7.8099854E-003	5.8923960E+000	1.551095884855992E-006
5.0122477E+004	1.2810181E+002	1.2727096E+001	1.2873248E+002	-5.6737976E+000	1.672547799439053E+001	3.3059788E+000	-1.6917230E-003	2.4949296E-001	2.4386002E-003	1.000000000000000E+000	11	1.4060195E-001	1.0922026E-003	-2.050064136972651E-006	8.6142996E-004	7.7299904E-003	7.6798553E-004	7.7680470E-003	5.6737976E+000	-7.025360818564271E-007
4.4666715E+004	1.2880537E+002	1.2369973E+001	1.2939799E+002	-5.4856429E+000	1.732049484932213E+001	3.3059988E+000	-1.7234075E-003	2.8804967E-001	2.6323872E-003	1.000000000000000E+000	11	1.3038479E-001	1.0076261E-003	-1.018317052641780E-006	7.0117763E-004	7.6927021E-003	7.3877751E-004	7.7280952E-003	5.4856429E+000	1.031747084330871E-006
3.9814063E+004	1.2948611E+002	1.2057805E+001	1.3004631E+002	-5.3200669E+000	1.778049393781112E+001	3.3060400E+000	-1.3927519E-003	3.3152431E-001	2.8500720E-003	1.000000000000000E+000	11	1.3983996E-001	1.0753090E-003	-1.692545017942191E-006	8.6142996E-004	7.6564439E-003	7.1297155E-004	7.6895682E-003	5.3200669E+000	-6.742279653004112E-007
3.5480996E+004	1.3013072E+002	1.1796106E+001	1.3066428E+002	-5.1795988E+000	1.837547591273324E+001	3.3060427E+000	-1.4635881E-003	3.8026437E-001	3.0991978E-003	1.000000000000000E+000	11	1.3003826E-001	9.9520897E-004	-3.694122433662414E-006	7.8130380E-004	7.6219505E-003	6.9091551E-004	7.6532015E-003	5.1795988E+000	-2.001577415720223E-006
3.1621143E+004	1.3075159E+002	1.1586053E+001	1.3126392E+002	-5.0638208E+000	1.883449438787648E+001	3.3060193E+000	-1.7180063E-003	4.3441722E-001	3.3844442E-003	1.000000000000000E+000	11	1.3752981E-001	1.0477351E-003	-3.111328373415745E-006	1.4029455E-004	7.5885062E-003	6.7242648E-004	7.6182401E-003	5.0638208E+000	5.827940602466693E-007
2.8188096E+004	1.3136122E+002	1.1436567E+001	1.3185812E+002	-4.9757371E+000	1.942948060281924E+001	3.3060210E+000	-1.6658172E-003	4.9369496E-001	3.7139521E-003	1.000000000000000E+000	11	1.2966408E-001	9.8336057E-004	-2.077123476128489E-006	5.4092531E-004	7.5553288E-003	6.5778184E-004	7.5839087E-003	4.9757371E+000	1.034204897287256E-006
2.5116910E+004	1.3195146E+002	1.1333231E+001	1.3243727E+002	-4.9090519E+000	1.988949686466367E+001	3.3060296E+000	-1.5990859E-003	5.5911374E-001	4.0943711E-003	1.000000000000000E+000	11	1.3530752E-001	1.0216725E-003	-1.661713183052295E-006	9.4155606E-004	7.5230468E-003	6.4614991E-004	7.5507443E-003	4.9090519E+000	4.154102930761940E-007
2.2389027E+004	1.3252405E+002	1.1293475E+001	1.3300438E+002	-4.8708811E+000	2.034849392648903E+001	3.3060346E+000	-1.6320798E-003	6.2944430E-001	4.5381687E-003	1.000000000000000E+000	11	1.4030346E-001	1.0548786E-003	-1.924195940227946E-006	3.0054685E-004	7.4913967E-003	6.3840416E-004	7.5185494E-003	4.8708811E+000	-2.624827571756516E-007
1.9948783E+004	1.3310674E+002	1.1301105E+001	1.3358562E+002	-4.8529215E+000	2.094447387478431E+001	3.3060367E+000	-1.6790489E-003	7.0596439E-001	5.0524878E-003	1.000000000000000E+000	11	1.2970708E-001	9.7096589E-004	-4.027416796132457E-006	5.4092531E-004	7.4590002E-003	6.3328841E-004	7.4858358E-003	4.8529215E+000	-2.103220855904510E-006
1.7786895E+004	1.3367928E+002	1.1375395E+001	1.3416240E+002	-4.8638487E+000	2.140449869664735E+001	3.3060460E+000	-1.6559395E-003	7.8659922E-001	5.6548989E-003	1.000000000000000E+000	11	1.3304178E-001	9.9164736E-004	-4.530759811653600E-006	3.8067301E-004	7.4268123E-003	6.3198223E-004	7.4536530E-003	4.8638487E+000	-5.033430155211436E-007
1.5847686E+004	1.3425920E+002	1.1511939E+001	1.3475183E+002	-4.9007907E+000	2.186347826509154E+001	3.3060427E+000	-1.7185619E-003	8.7238020E-001	6.3669789E-003	1.000000000000000E+000	11	1.3588193E-001	1.0083865E-003	-5.027377492905442E-006	5.4092531E-004	7.3939189E-003	6.3398521E-004	7.4210493E-003	4.9007907E+000	-4.966176812518421E-007
1.4121879E+004	1.3486583E+002	1.1701711E+001	1.3537253E+002	-4.9588823E+000	2.232348559363163E+001	3.3060362E+000	-1.7267623E-003	9.6311527E-001	7.1964106E-003	1.000000000000000E+000	11	1.3825597E-001	1.0213001E-003	-4.994107628018052E-006	3.0054685E-004	7.3593734E-003	6.3854025E-004	7.3870230E-003	4.9588823E+000	3.326986488738995E-008
1.2590932E+004	1.3546237E+002	1.1960039E+001	1.3598932E+002	-5.0455894E+000	2.278348638876923E+001	3.3060434E+000	-1.6236922E-003	1.0568897E+000	8.1749531E-003	1.000000000000000E+000	11	1.4018095E-001	1.0308232E-003	-5.756244858854593E-006	4.6079917E-004	7.3250239E-003	6.4673001E-004	7.3535186E-003	5.0455894E+000	-7.621372308365404E-007
1.1217711E+004	1.3611740E+002	1.2273350E+001	1.3666960E+002	-5.1522779E+000	2.337947847045143E+001	3.3060460E+000	-1.7327289E-003	1.1559865E+000	9.3225595E-003	1.000000000000000E+000	11	1.2933820E-001	9.4635674E-004	-7.094049484692126E-006	1.0216822E-003	7.2873523E-003	6.5708155E-004	7.3169162E-003	5.1522779E+000	-1.337804625837533E-006
1.0002229E+004	1.3677551E+002	1.2648799E+001	1.3735915E+002	-5.2836013E+000	2.383848057224532E+001	3.3060536E+000	-1.7265780E-003	1.2579808E+000	1.0667372E-002	1.000000000000000E+000	11	1.3048729E-001	9.4997161E-004	-6.729634701077279E-006	7.0117763E-004	7.2492519E-003	6.7040016E-004	7.2801849E-003	5.2836013E+000	3.644147836148470E-007
8.9149297E+003	1.3747958E+002	1.3081695E+001	1.3810057E+002	-5.4355412E+000	2.432092203520006E+001	3.3060756E+000	-1.5150275E-003	1.3647032E+000	1.2245464E-002	1.000000000000000E+000	11	1.3142565E-001	9.5166621E-004	-7.263619137999033E-006	7.0117763E-004	7.2085392E-003	6.8591931E-004	7.2410996E-003	5.4355412E+000	-5.339844369217541E-007
7.9439976E+003	1.3821271E+002	1.3577263E+001	1.3887799E+002	-5.6104240E+000	2.484699318016646E+001	3.3060877E+000	-1.5545414E-003	1.4756005E+000	1.4103483E-002	1.000000000000000E+000	11	1.3215974E-001	9.5162477E-004	-6.616213220981687E-006	1.1819345E-003	7.1660718E-003	7.0395577E-004	7.2005652E-003	5.6104240E+000	6.474059170173457E-007
7.0822334E+003	1.3901508E+002	1.4140676E+001	1.3973242E+002	-5.8081746E+000	2.542385584756266E+001	3.3060780E+000	-1.5575234E-003	1.5892043E+000	1.6275175E-002	1.000000000000000E+000	11	1.3273615E-001	9.4993087E-004	-6.155385914252191E-006	8.6142996E-004	7.1197953E-003	7.2422874E-004	7.1565351E-003	5.8081746E+000	4.608273067294957E-007
6.3077344E+003	1.3986929E+002	1.4758908E+001	1.4064581E+002	-6.0235200E+000	2.605855217101634E+001	3.3060918E+000	-1.6665610E-003	1.7095921E+000	1.8825537E-002	1.000000000000000E+000	11	1.3320106E-001	9.4706734E-004	-6.647228567149593E-006	1.1018084E-003	7.0708035E-003	7.4610615E-004	7.1100588E-003	6.0235200E+000	-4.918426528974020E-007
5.6210552E+003	1.4079814E+002	1.5416012E+001	1.4163957E+002	-6.2484350E+000	2.675926545765833E+001	3.3061249E+000	-1.4056173E-003	1.8366661E+000	2.1757305E-002	1.000000000000000E+000	11	1.3355060E-001	9.4289047E-004	-6.300624232047186E-006	8.6142996E-004	7.0182318E-003	7.6842739E-004	7.0601739E-003	6.2484350E+000	3.466043351024075E-007
5.0116035E+003	1.4179221E+002	1.6123587E+001	1.4270599E+002	-6.4873962E+000	2.751968685380416E+001	3.3061316E+000	-1.4002118E-003	1.9696169E+000	2.5143206E-002	1.000000000000000E+000	11	1.3381587E-001	9.3770324E-004	-6.604298524474466E-006	6.2105147E-004	6.9625438E-003	7.9173018E-004	7.0074140E-003	6.4873962E+000	-3.036742924272803E-007
4.4664292E+003	1.4287321E+002	1.6884096E+001	1.4386740E+002	-6.7396917E+000	2.827868355652026E+001	3.3061121E+000	-1.4820368E-003	2.1104829E+000	2.9067835E-002	1.000000000000000E+000	11	1.3402595E-001	9.3159353E-004	-7.614070584971665E-006	8.6142996E-004	6.9028116E-003	8.1574236E-004	6.9508450E-003	6.7396917E+000	-1.009772060497199E-006
3.9812742E+003	1.4403709E+002	1.7679291E+001	1.4511803E+002	-6.9975543E+000	2.903768143257184E+001	3.3061371E+000	-1.3524964E-003	2.2611699E+000	3.3559859E-002	1.000000000000000E+000	11	1.3417645E-001	9.2460221E-004	-7.319289233362522E-006	7.8130380E-004	6.8396148E-003	8.3950273E-004	6.8909428E-003	6.9975543E+000	2.947813516091428E-007
3.5465955E+003	1.4531233E+002	1.8501345E+001	1.4648540E+002	-7.2559295E+000	2.979794045531889E+001	3.3061335E+000	-1.3903336E-003	2.4255219E+000	3.8692173E-002	1.000000000000000E+000	11	1.3428482E-001	9.1671135E-004	-7.193238670405763E-006	1.1018084E-003	6.7719510E-003	8.6221314E-004	6.8266192E-003	7.2559295E+000	1.260505629567588E-007
3.1610112E+003	1.4668456E+002	1.9339970E+001	1.4795403E+002	-7.5109739E+000	3.055770662477153E+001	3.3061388E+000	-1.3357216E-003	2.6033845E+000	4.4483230E-002	1.000000000000000E+000	11	1.3436738E-001	9.0816984E-004	-6.887973267229325E-006	5.4092531E-004	6.7008641E-003	8.8349119E-004	6.7588561E-003	7.5109739E+000	3.052654031764381E-007
2.8172952E+003	1.4814757E+002	2.0201351E+001	1.4951855E+002	-7.7649417E+000	3.131792314085760E+001	3.3061373E+000	-1.3584617E-003	2.7964520E+000	5.1047914E-002	1.000000000000000E+000	11	1.3441065E-001	8.9895632E-004	-6.575656517496100E-006	8.6142996E-004	6.6268076E-003	9.0362917E-004	6.6881333E-003	7.7649417E+000	3.123167497332256E-007
