EC-Lab ASCII FILE
Nb header lines : 60                          

Potentio Electrochemical Impedance Spectroscopy

Run on channel : 6 (SN 41300)
User : 
CE vs. WE compliance from -10 V to 10 V
Electrode connection : standard
Ewe ctrl range : min = -10.00 V, max = 10.00 V
Acquisition started on : 12/03/2020 16:53:40
Technique started on : 12/03/2020 16:53:41
Saved on :
	File : DE_206_6_30.mpr
	Directory : P:\Chemistry\Data\VMP3\Kyler\DOE\DE_206\
	Host : 10.0.4.64
Device : VMP3 (SN 1432)
Address : USB
EC-Lab for windows v11.33 (software)
Internet server v11.32 (firmware)
Command interpretor v11.33 (firmware)
Electrode material : 
Initial state : 
Electrolyte : 
Comments : 
Electrode surface area : 0.001 cm²
Characteristic mass : 0.001 g
Equivalent Weight : 0.000 g/eq.
Density : 0.000 g/cm3
Record Analogic IN 1
Cycle Definition : Charge/Discharge alternance
Mode                Single sine         
E (V)               0.0000              
vs.                 Eoc                 
tE (h:m:s)          0:00:0.0000         
record              0                   
dI                  1.000               
unit dI             mA                  
dt (s)              0.000               
fi                  1.000               
unit fi             MHz                 
ff                  1.000               
unit ff             Hz                  
Nd                  20                  
Points              per decade          
spacing             Logarithmic         
Va (mV)             128.0               
pw                  0.50                
Na                  3                   
corr                0                   
E range min (V)     -10.000             
E range max (V)     10.000              
I Range             Auto                
Bandwidth           5                   
nc cycles           0                   
goto Ns'            0                   
nr cycles           0                   
inc. cycle          1                   

freq/Hz	Re(Z)/Ohm	-Im(Z)/Ohm	|Z|/Ohm	Phase(Z)/deg	time/s	<Ewe>/V	<I>/mA	Cs/µF	Cp/µF	cycle number	I Range	|Ewe|/V	|I|/A	(Q-Qo)/mA.h	Analog IN 1/V	Re(Y)/Ohm-1	Im(Y)/Ohm-1	|Y|/Ohm-1	Phase(Y)/deg	dq/mA.h	
1.0000186E+006	-1.1586392E+001	4.5434338E+001	4.6888416E+001	-1.0430630E+002	1.845600087690400E+000	3.3261247E+000	2.1290043E-001	3.5029009E-003	3.2890097E-003	1.000000000000000E+000	9	5.6161167E-005	1.1977621E-006	2.258346860511079E-005	-7.9964736E-004	-5.2700788E-003	2.0665841E-002	2.1327229E-002	1.0430630E+002	2.258346860511079E-005
8.9124669E+005	8.9442780E+001	3.3521446E+001	9.5518051E+001	-2.0545038E+001	3.020473076758208E+000	3.3256636E+000	1.2244381E-003	5.3272056E-003	6.5610604E-004	1.000000000000000E+000	11	6.8217027E-004	7.1417944E-006	4.258003100940186E-005	-5.5914529E-004	9.8033473E-003	3.6741071E-003	1.0469225E-002	2.0545038E+001	1.999656240429107E-005
7.9433269E+005	9.3567139E+001	3.2067516E+001	9.8909729E+001	-1.8917717E+001	3.615485798363807E+000	3.3254685E+000	8.4005733E-004	6.2481635E-003	6.5675745E-004	1.000000000000000E+000	11	1.8213270E-003	1.8414034E-005	4.272395507199245E-005	-6.3931267E-004	9.5641268E-003	3.2778368E-003	1.0110229E-002	1.8917717E+001	1.439240625905876E-007
7.0794981E+005	9.7334724E+001	3.1029564E+001	1.0216106E+002	-1.7681883E+001	4.210489319957560E+000	3.3254011E+000	7.3907356E-004	7.2450596E-003	6.6837855E-004	1.000000000000000E+000	11	3.5897556E-003	3.5138197E-005	4.301235238971478E-005	-2.3847583E-004	9.3260342E-003	2.9730680E-003	9.7884648E-003	1.7681883E+001	2.883973177223302E-007
6.3095681E+005	1.0086478E+002	3.0275059E+001	1.0531042E+002	-1.6707386E+001	4.806473241624190E+000	3.3254066E+000	9.0154581E-004	8.3317365E-003	6.8859337E-004	1.000000000000000E+000	11	6.0745743E-003	5.7682559E-005	4.340938326633775E-005	-7.8141107E-005	9.0948790E-003	2.7298725E-003	9.4957370E-003	1.6707386E+001	3.970308766229711E-007
5.6234225E+005	1.0412096E+002	2.9634192E+001	1.0825600E+002	-1.5887048E+001	5.401480523200007E+000	3.3254166E+000	9.5930474E-004	9.5505053E-003	7.1566302E-004	1.000000000000000E+000	11	9.3201771E-003	8.6093867E-005	4.353194565175206E-005	-2.3847583E-004	8.8845268E-003	2.5286525E-003	9.2373639E-003	1.5887048E+001	1.225623854143098E-007
5.0120619E+005	1.0712532E+002	2.8888874E+001	1.1095225E+002	-1.5092145E+001	5.998474124906352E+000	3.3254528E+000	1.0006696E-003	1.0991909E-002	7.4518163E-004	1.000000000000000E+000	11	1.3391647E-002	1.2069739E-004	4.356616239857982E-005	-2.3847583E-004	8.7020164E-003	2.3467045E-003	9.0128863E-003	1.5092145E+001	3.421674682775448E-008
4.4668572E+005	1.0995954E+002	2.8202642E+001	1.1351868E+002	-1.4385251E+001	6.594485113193514E+000	3.3254957E+000	1.0630877E-003	1.2633633E-002	7.7978201E-004	1.000000000000000E+000	11	1.8277310E-002	1.6100708E-004	4.347827393921529E-005	-4.7897792E-004	8.5329320E-003	2.1885433E-003	8.8091232E-003	1.4385251E+001	-8.788845936452423E-008
3.9810347E+005	1.1248375E+002	2.7374868E+001	1.1576691E+002	-1.3678019E+001	7.190485408151289E+000	3.3255184E+000	1.2201563E-003	1.4604011E-002	8.1659621E-004	1.000000000000000E+000	11	2.3982882E-002	2.0716527E-004	4.355406313353817E-005	-6.3931267E-004	8.3930716E-003	2.0425993E-003	8.6380476E-003	1.3678019E+001	7.578919432287684E-008
3.5480997E+005	1.1480439E+002	2.6565466E+001	1.1783791E+002	-1.3028797E+001	7.787492103205295E+000	3.3255453E+000	1.3893400E-003	1.6885227E-002	8.5816684E-004	1.000000000000000E+000	11	3.0555090E-002	2.5929764E-004	4.438749002685513E-005	-1.5830847E-004	8.2677715E-003	1.9131429E-003	8.4862337E-003	1.3028797E+001	8.334268933169576E-007
3.1622997E+005	1.1700855E+002	2.5688517E+001	1.1979525E+002	-1.2382491E+001	8.382494318095269E+000	3.3255320E+000	1.2602216E-003	1.9591969E-002	9.0090075E-004	1.000000000000000E+000	11	3.8058139E-002	3.1769322E-004	4.486887981532770E-005	-8.7981473E-004	8.1533939E-003	1.7900281E-003	8.3475765E-003	1.2382491E+001	4.813897884725741E-007
2.8183453E+005	1.1902164E+002	2.4808933E+001	1.2157974E+002	-1.1774175E+001	8.978483546437928E+000	3.3255062E+000	1.2041403E-003	2.2762388E-002	9.4778882E-004	1.000000000000000E+000	11	4.6509102E-002	3.8253990E-004	4.473233670337929E-005	-5.5914529E-004	8.0519952E-003	1.6783620E-003	8.2250545E-003	1.1774175E+001	-1.365431119484131E-007
2.5118764E+005	1.2089509E+002	2.3946625E+001	1.2324392E+002	-1.1203991E+001	9.574476854730165E+000	3.3255026E+000	1.2540752E-003	2.6459251E-002	9.9893031E-004	1.000000000000000E+000	11	5.5973213E-002	4.5416612E-004	4.537476393186747E-005	-3.9881055E-004	7.9593509E-003	1.5765701E-003	8.1139905E-003	1.1203991E+001	6.424272284881807E-007
2.2387173E+005	1.2263938E+002	2.3050335E+001	1.2478676E+002	-1.0644680E+001	1.016947445631376E+001	3.3254986E+000	1.3245045E-003	3.0842079E-002	1.0523521E-003	1.000000000000000E+000	11	6.6460952E-002	5.3259620E-004	4.459831893921061E-005	8.2193612E-005	7.8757675E-003	1.4802676E-003	8.0136703E-003	1.0644680E+001	-7.764449926568593E-007
1.9954350E+005	1.2428726E+002	2.2211803E+001	1.2625644E+002	-1.0132556E+001	1.076648547136574E+001	3.3254745E+000	1.1683708E-003	3.5908621E-002	1.1113717E-003	1.000000000000000E+000	11	7.7935256E-002	6.1727746E-004	4.595357989417344E-005	-3.9881055E-004	7.7968570E-003	1.3934030E-003	7.9203881E-003	1.0132556E+001	1.355260954962835E-006
1.7783180E+005	1.2582066E+002	2.1404963E+001	1.2762841E+002	-9.6548834E+000	1.136147675293614E+001	3.3254514E+000	1.1406132E-003	4.1811548E-002	1.1760627E-003	1.000000000000000E+000	11	9.0413481E-002	7.0841186E-004	4.486764662464156E-005	-7.1947998E-004	7.7242660E-003	1.3140738E-003	7.8352457E-003	9.6548834E+000	-1.085933269531880E-006
1.5848613E+005	1.2728784E+002	2.0589867E+001	1.2894238E+002	-9.1884794E+000	1.195748512793216E+001	3.3254437E+000	1.0029249E-003	4.8772536E-002	1.2436296E-003	1.000000000000000E+000	11	1.0383306E-001	8.0526707E-004	4.396975579801579E-005	-4.7897792E-004	7.6558879E-003	1.2384035E-003	7.7554020E-003	9.1884794E+000	-8.978908266257717E-007
1.4125594E+005	1.2868085E+002	1.9844097E+001	1.3020195E+002	-8.7666235E+000	1.241748717645532E+001	3.3254628E+000	1.1970730E-003	5.6778260E-002	1.3188936E-003	1.000000000000000E+000	11	1.1824706E-001	9.0818200E-004	4.364213349842875E-005	-3.1864320E-004	7.5906492E-003	1.1705672E-003	7.6803765E-003	8.7666235E+000	-3.276222995870427E-007
1.2590930E+005	1.3000082E+002	1.9096308E+001	1.3139590E+002	-8.3566284E+000	1.287748877159902E+001	3.3254728E+000	1.2373156E-003	6.6193134E-002	1.3981317E-003	1.000000000000000E+000	11	1.3375002E-001	1.0179162E-003	4.463028123402445E-005	-7.1947998E-004	7.5297831E-003	1.1060782E-003	7.6105874E-003	8.3566284E+000	9.881477355957004E-007
1.1220494E+005	1.3125761E+002	1.8388954E+001	1.3253949E+002	-7.9751277E+000	1.347249367987388E+001	3.3254857E+000	1.1940878E-003	7.7134937E-002	1.4848227E-003	1.000000000000000E+000	11	1.2992936E-001	9.8030677E-004	4.352213747693996E-005	-6.3931267E-004	7.4719498E-003	1.0468066E-003	7.5449212E-003	7.9751277E+000	-1.108143757084487E-006
1.0000371E+005	1.3244388E+002	1.7712681E+001	1.3362305E+002	-7.6173811E+000	1.406848888154491E+001	3.3254979E+000	1.3779871E-003	8.9850336E-002	1.5787943E-003	1.000000000000000E+000	11	1.2978822E-001	9.7130117E-004	4.329783684995770E-005	-3.9881055E-004	7.4176979E-003	9.9202257E-004	7.4837389E-003	7.6173811E+000	-2.243006269822618E-007
8.9129305E+004	1.3357423E+002	1.7075632E+001	1.3466125E+002	-7.2849660E+000	1.466347709644469E+001	3.3255146E+000	1.3627122E-003	1.0457379E-001	1.6814776E-003	1.000000000000000E+000	11	1.2964302E-001	9.6273446E-004	4.171048849433707E-005	-6.3931267E-004	7.3660961E-003	9.4165426E-004	7.4260412E-003	7.2849660E+000	-1.587348355620632E-006
7.9433273E+004	1.3463974E+002	1.6470325E+001	1.3564340E+002	-6.9742761E+000	1.525849608468707E+001	3.3255479E+000	1.6339954E-003	1.2165096E-001	1.7935872E-003	1.000000000000000E+000	11	1.2968495E-001	9.5607270E-004	4.223919874558427E-005	-1.5830847E-004	7.3177228E-003	8.9516857E-004	7.3722717E-003	6.9742761E+000	5.287102512471987E-007
7.0794977E+004	1.3566254E+002	1.5898599E+001	1.3659096E+002	-6.6841331E+000	1.585447395304800E+001	3.3255234E+000	1.3819039E-003	1.4140306E-001	1.9157226E-003	1.000000000000000E+000	11	1.2949686E-001	9.4806316E-004	4.397619015063800E-005	1.6236097E-004	7.2713662E-003	8.5214782E-004	7.3211286E-003	6.6841331E+000	1.736991405053733E-006
6.3093828E+004	1.3663441E+002	1.5368567E+001	1.3749602E+002	-6.4176259E+000	1.645048718134058E+001	3.3255332E+000	1.4068711E-003	1.6413449E-001	2.0506256E-003	1.000000000000000E+000	11	1.2943411E-001	9.4136619E-004	4.395743110530202E-005	-1.5830847E-004	7.2273626E-003	8.1293000E-004	7.2729378E-003	6.4176259E+000	-1.875904533597659E-008
5.6237012E+004	1.3753363E+002	1.4885063E+001	1.3833678E+002	-6.1769953E+000	1.704548736961442E+001	3.3255396E+000	1.4256892E-003	1.9012851E-001	2.2012698E-003	1.000000000000000E+000	11	1.2926079E-001	9.3439216E-004	4.607447614547326E-005	-5.5914529E-004	7.1867676E-003	7.7781331E-004	7.2287358E-003	6.1769953E+000	2.117045040171232E-006
5.0122477E+004	1.3840240E+002	1.4448521E+001	1.3915454E+002	-5.9598055E+000	1.750548389813048E+001	3.3255384E+000	1.3474320E-003	2.1976788E-001	2.3692790E-003	1.000000000000000E+000	11	1.4023571E-001	1.0077695E-003	4.557091034507761E-005	-3.9881055E-004	7.1474132E-003	7.4615428E-004	7.1862550E-003	5.9598055E+000	-5.035658003956425E-007
4.4666715E+004	1.3923190E+002	1.4064363E+001	1.3994044E+002	-5.7681069E+000	1.810047637971002E+001	3.3255434E+000	1.3863749E-003	2.5334716E-001	2.5589964E-003	1.000000000000000E+000	11	1.3039881E-001	9.3181641E-004	4.531457603824694E-005	-4.7897792E-004	7.1097161E-003	7.1818044E-004	7.1458970E-003	5.7681069E+000	-2.563343068306709E-007
3.9814063E+004	1.4003719E+002	1.3730080E+001	1.4070866E+002	-5.5997219E+000	1.855948874817113E+001	3.3255589E+000	1.4469255E-003	2.9114583E-001	2.7721392E-003	1.000000000000000E+000	11	1.3959552E-001	9.9208904E-004	4.590885874908438E-005	-4.7897792E-004	7.0729679E-003	6.9347594E-004	7.1068830E-003	5.5997219E+000	5.942827108374349E-007
3.5480996E+004	1.4078070E+002	1.3440318E+001	1.4142082E+002	-5.4534931E+000	1.915447365641012E+001	3.3255508E+000	1.3975541E-003	3.3374500E-001	3.0144437E-003	1.000000000000000E+000	11	1.3002352E-001	9.1940863E-004	4.731804648579196E-005	-4.7897792E-004	7.0390883E-003	6.7202101E-004	7.0710946E-003	5.4534931E+000	1.409187736707581E-006
3.1621143E+004	1.4152652E+002	1.3218067E+001	1.4214244E+002	-5.3357406E+000	1.961348733157502E+001	3.3255680E+000	1.4487928E-003	3.8078043E-001	3.2927820E-003	1.000000000000000E+000	11	1.3727921E-001	9.6578622E-004	4.808087324640191E-005	-1.5830847E-004	7.0047118E-003	6.5421482E-004	7.0351963E-003	5.3357406E+000	7.628267606099486E-007
2.8188096E+004	1.4223759E+002	1.3055953E+001	1.4283554E+002	-5.2444692E+000	2.020847706650966E+001	3.3255544E+000	1.4152550E-003	4.3245986E-001	3.6131868E-003	1.000000000000000E+000	11	1.2951830E-001	9.0676523E-004	4.706384559229405E-005	-2.3847583E-004	6.9717504E-003	6.3993520E-004	7.0010587E-003	5.2444692E+000	-1.017027654107852E-006
2.5116910E+004	1.4293152E+002	1.2954282E+001	1.4351736E+002	-5.1787271E+000	2.066747559493524E+001	3.3255675E+000	1.4368684E-003	4.8914832E-001	3.9852755E-003	1.000000000000000E+000	11	1.3495760E-001	9.4035728E-004	4.652221840422155E-005	-2.3847583E-004	6.9393553E-003	6.2893308E-004	6.9677979E-003	5.1787271E+000	-5.416271880725009E-007
2.2389027E+004	1.4361790E+002	1.2897274E+001	1.4419585E+002	-5.1315503E+000	2.112647329675383E+001	3.3255751E+000	1.4245715E-003	5.5117178E-001	4.4093779E-003	1.000000000000000E+000	11	1.3975112E-001	9.6917577E-004	4.764594694443015E-005	-4.7897792E-004	6.9072167E-003	6.2028668E-004	6.9350125E-003	5.1315503E+000	1.123728540208599E-006
1.9948783E+004	1.4431703E+002	1.2906059E+001	1.4489297E+002	-5.1102824E+000	2.172249153841403E+001	3.3255703E+000	1.4458121E-003	6.1817306E-001	4.9045901E-003	1.000000000000000E+000	11	1.2965894E-001	8.9486007E-004	4.898337879462653E-005	-5.5914529E-004	6.8742125E-003	6.1475066E-004	6.9016460E-003	5.1102824E+000	1.337431850196381E-006
1.7786895E+004	1.4498831E+002	1.2993870E+001	1.4556940E+002	-5.1211734E+000	2.218249500027741E+001	3.3255799E+000	1.4551284E-003	6.8862295E-001	5.4867901E-003	1.000000000000000E+000	11	1.3285050E-001	9.1262656E-004	4.936779072454556E-005	-1.5830847E-004	6.8421536E-003	6.1319466E-004	6.8695759E-003	5.1211734E+000	3.844119299190236E-007
1.5847686E+004	1.4567755E+002	1.3135873E+001	1.4626859E+002	-5.1524768E+000	2.264149686202290E+001	3.3255813E+000	1.4990987E-003	7.6453143E-001	6.1661075E-003	1.000000000000000E+000	11	1.3556503E-001	9.2682260E-004	4.993639975837323E-005	-4.7897792E-004	6.8091122E-003	6.1398366E-004	6.8367380E-003	5.1524768E+000	5.686090338276681E-007
1.4121879E+004	1.4638763E+002	1.3339177E+001	1.4699413E+002	-5.2065444E+000	2.310147443055757E+001	3.3255787E+000	1.4691015E-003	8.4488696E-001	6.9575561E-003	1.000000000000000E+000	11	1.3781798E-001	9.3757472E-004	4.978507931932129E-005	-4.7897792E-004	6.7749242E-003	6.1734667E-004	6.8029929E-003	5.2065444E+000	-1.513204390519399E-007
1.2590932E+004	1.4711530E+002	1.3617977E+001	1.4774423E+002	-5.2886105E+000	2.356149050573003E+001	3.3255754E+000	1.4210317E-003	9.2821729E-001	7.8859460E-003	1.000000000000000E+000	11	1.3965502E-001	9.4524858E-004	5.057521115465533E-005	-5.5914529E-004	6.7396406E-003	6.2386633E-004	6.7684539E-003	5.2886105E+000	7.901318353340493E-007
1.1217711E+004	1.4787965E+002	1.3945606E+001	1.4853577E+002	-5.3872747E+000	2.415749061407405E+001	3.3255739E+000	1.4355637E-003	1.0173690E+000	8.9679100E-003	1.000000000000000E+000	11	1.2932801E-001	8.7068602E-004	5.123459808160441E-005	2.0262523E-006	6.7026471E-003	6.3208479E-004	6.7323851E-003	5.3872747E+000	6.593869269490803E-007
1.0002229E+004	1.4866388E+002	1.4345773E+001	1.4935445E+002	-5.5118642E+000	2.461649567584391E+001	3.3255835E+000	1.5095334E-003	1.1091732E+000	1.0233188E-002	1.000000000000000E+000	11	1.3043311E-001	8.7331259E-004	5.100873624082649E-005	-1.5830847E-004	6.6645243E-003	6.4311351E-004	6.6954819E-003	5.5118642E+000	-2.258618407779213E-007
8.9149297E+003	1.4948648E+002	1.4807918E+001	1.5021811E+002	-5.6571827E+000	2.509892796547501E+001	3.3256171E+000	1.7273426E-003	1.2056139E+000	1.1715251E-002	1.000000000000000E+000	11	1.3131514E-001	8.7416318E-004	5.175237017516843E-005	-5.5914529E-004	6.6245645E-003	6.5621990E-004	6.6569871E-003	5.6571827E+000	7.436339343419400E-007
7.9439976E+003	1.5036014E+002	1.5330173E+001	1.5113962E+002	-5.8215528E+000	2.562497937711305E+001	3.3256280E+000	1.6884016E-003	1.3068749E+000	1.3445329E-002	1.000000000000000E+000	11	1.3200641E-001	8.7340706E-004	5.181388093674731E-005	1.6236097E-004	6.5822755E-003	6.7110482E-004	6.6163987E-003	5.8215528E+000	6.151076157887643E-008
7.0822334E+003	1.5129907E+002	1.5924644E+001	1.5213483E+002	-6.0084157E+000	2.620188783120830E+001	3.3256280E+000	1.6850487E-003	1.4111727E+000	1.5461882E-002	1.000000000000000E+000	11	1.3255605E-001	8.7130646E-004	5.172879296900909E-005	-3.1864320E-004	6.5370076E-003	6.8803795E-004	6.5731169E-003	6.0084157E+000	-8.508796773822004E-008
6.3077344E+003	1.5230424E+002	1.6567900E+001	1.5320274E+002	-6.2083144E+000	2.683553500790731E+001	3.3256304E+000	1.5425127E-003	1.5229278E+000	1.7810704E-002	1.000000000000000E+000	11	1.3299176E-001	8.6807692E-004	5.236581195484117E-005	2.0262523E-006	6.4890175E-003	7.0588564E-004	6.5272981E-003	6.2083144E+000	6.370189858320792E-007
5.6210552E+003	1.5338380E+002	1.7260155E+001	1.5435188E+002	-6.4204378E+000	2.753625224120333E+001	3.3256502E+000	1.6688369E-003	1.6404295E+000	2.0512711E-002	1.000000000000000E+000	11	1.3331598E-001	8.6371461E-004	5.326548445499652E-005	-7.8141107E-005	6.4380695E-003	7.2447065E-004	6.4787031E-003	6.4204378E+000	8.996725001553482E-007
5.0116035E+003	1.5454681E+002	1.8007042E+001	1.5559233E+002	-6.6458588E+000	2.829666998403991E+001	3.3256559E+000	1.6515086E-003	1.7636038E+000	2.3621606E-002	1.000000000000000E+000	11	1.3356985E-001	8.5846038E-004	5.421216344815932E-005	-6.3931267E-004	6.3838651E-003	7.4381684E-004	6.4270520E-003	6.6458588E+000	9.466789931628024E-007
4.4664292E+003	1.5580931E+002	1.8775942E+001	1.5693654E+002	-6.8713465E+000	2.905669938014034E+001	3.3256547E+000	1.6397706E-003	1.8978329E+000	2.7165223E-002	1.000000000000000E+000	11	1.3376400E-001	8.5234450E-004	5.524235389174060E-005	8.2193612E-005	6.3262344E-003	7.6234859E-004	6.3720024E-003	6.8713465E+000	1.030190443581283E-006
3.9812742E+003	1.5716336E+002	1.9593094E+001	1.5837996E+002	-7.1062331E+000	2.981569066952216E+001	3.3256593E+000	1.6418193E-003	2.0403047E+000	3.1224867E-002	1.000000000000000E+000	11	1.3390104E-001	8.4544183E-004	5.504926765687499E-005	-3.1864320E-004	6.2654298E-003	7.8109273E-004	6.3139303E-003	7.1062331E+000	-1.930862348656123E-007
3.5465955E+003	1.5864815E+002	2.0428183E+001	1.5995795E+002	-7.3372650E+000	3.057596307893982E+001	3.3256614E+000	1.6869094E-003	2.1967406E+000	3.5828330E-002	1.000000000000000E+000	11	1.3400486E-001	8.3775056E-004	5.578301298712763E-005	-3.9881055E-004	6.2004519E-003	7.9839549E-004	6.2516429E-003	7.3372650E+000	7.337453302526362E-007
3.1610112E+003	1.6022392E+002	2.1263800E+001	1.6162875E+002	-7.5597200E+000	3.133568154172099E+001	3.3256595E+000	1.6531857E-003	2.3678448E+000	4.0982433E-002	1.000000000000000E+000	11	1.3407794E-001	8.2954258E-004	5.583362003744636E-005	-7.8141107E-005	6.1332420E-003	8.1396109E-004	6.1870180E-003	7.5597200E+000	5.060705031873251E-008
2.8172952E+003	1.6193921E+002	2.2086803E+001	1.6343848E+002	-7.7666192E+000	3.209594968447345E+001	3.3256698E+000	1.6796426E-003	2.5577314E+000	4.6710234E-002	1.000000000000000E+000	11	1.3412195E-001	8.2062656E-004	5.552286423082458E-005	-2.3847583E-004	6.0623838E-003	8.2684529E-004	6.1185104E-003	7.7666192E+000	-3.107558066217786E-007
