EC-Lab ASCII FILE
Nb header lines : 60                          

Potentio Electrochemical Impedance Spectroscopy

Run on channel : 14 (SN 41308)
User : 
CE vs. WE compliance from -10 V to 10 V
Electrode connection : standard
Ewe ctrl range : min = -5.00 V, max = 5.00 V
Acquisition started on : 12/03/2020 16:52:25
Technique started on : 12/03/2020 16:52:26
Saved on :
	File : DE_206_14_30.mpr
	Directory : P:\Chemistry\Data\VMP3\Kyler\DOE\DE_206\
	Host : 10.0.4.64
Device : VMP3 (SN 1432)
Address : USB
EC-Lab for windows v11.33 (software)
Internet server v11.32 (firmware)
Command interpretor v11.33 (firmware)
Electrode material : 
Initial state : 
Electrolyte : 
Comments : 
Electrode surface area : 0.001 cm²
Characteristic mass : 0.001 g
Equivalent Weight : 0.000 g/eq.
Density : 0.000 g/cm3
Record Analogic IN 1
Cycle Definition : Charge/Discharge alternance
Mode                Single sine         
E (V)               0.0000              
vs.                 Eoc                 
tE (h:m:s)          0:00:0.0000         
record              0                   
dI                  1.000               
unit dI             mA                  
dt (s)              0.000               
fi                  1.000               
unit fi             MHz                 
ff                  1.000               
unit ff             Hz                  
Nd                  20                  
Points              per decade          
spacing             Logarithmic         
Va (mV)             128.0               
pw                  0.50                
Na                  3                   
corr                0                   
E range min (V)     -5.000              
E range max (V)     5.000               
I Range             Auto                
Bandwidth           5                   
nc cycles           0                   
goto Ns'            0                   
nr cycles           0                   
inc. cycle          1                   

freq/Hz	Re(Z)/Ohm	-Im(Z)/Ohm	|Z|/Ohm	Phase(Z)/deg	time/s	<Ewe>/V	<I>/mA	Cs/µF	Cp/µF	cycle number	I Range	|Ewe|/V	|I|/A	(Q-Qo)/mA.h	Analog IN 1/V	Re(Y)/Ohm-1	Im(Y)/Ohm-1	|Y|/Ohm-1	Phase(Y)/deg	dq/mA.h	
1.0000186E+006	-9.7946310E-001	-2.9892330E+000	3.1456099E+000	1.0814209E+002	1.844600087642903E+000	3.2742097E+000	-5.6345414E-002	-5.3241748E-002	-4.8079740E-002	1.000000000000000E+000	9	9.0038586E-005	2.8623570E-005	-2.799850399697284E-006	-1.0060851E-004	-9.8987035E-002	-3.0209953E-001	3.1790337E-001	-1.0814209E+002	-2.799850399697284E-006
8.9124669E+005	-1.0675048E+000	-3.5642152E+000	3.7206447E+000	1.0667329E+002	2.549477774387924E+000	3.2737300E+000	-6.3098870E-002	-5.0102372E-002	-4.5977961E-002	1.000000000000000E+000	9	1.2223280E-004	3.2852586E-005	-1.081473131653264E-005	-1.0060851E-004	-7.7114038E-002	-2.5747055E-001	2.6877064E-001	-1.0667329E+002	-8.014880916835359E-006
7.9433269E+005	-2.6345903E-001	-4.1562624E+000	4.1646042E+000	9.3627037E+001	3.145486202702159E+000	3.2734442E+000	-6.4721934E-002	-4.8207514E-002	-4.8014585E-002	1.000000000000000E+000	9	1.3099080E-004	3.1453361E-005	-1.889056328665295E-005	-2.6082556E-004	-1.5190272E-002	-2.3963790E-001	2.4011886E-001	-9.3627037E+001	-8.075831970120312E-006
7.0794981E+005	8.8006610E-001	-4.0423713E+000	4.1370621E+000	7.7717773E+001	3.363600159791531E+000	3.2733231E+000	-6.0095258E-002	-5.5613656E-002	-5.3096972E-002	1.000000000000000E+000	9	7.9760190E-005	1.9279427E-005	-2.158920923240738E-005	-1.0060851E-004	5.1419895E-002	-2.3618491E-001	2.4171743E-001	-7.7717773E+001	-2.698645945754429E-006
6.3095681E+005	-3.8929662E-001	-4.4078212E+000	4.4249792E+000	9.5047241E+001	3.693600175465690E+000	3.2732446E+000	-6.1457142E-002	-5.7226416E-002	-5.6783479E-002	1.000000000000000E+000	9	4.6518740E-005	1.0512759E-005	-2.475096509444282E-005	-5.0115114E-004	-1.9881921E-002	-2.2511348E-001	2.2598976E-001	-9.5047241E+001	-3.161755862035433E-006
5.6234225E+005	1.5719994E+000	-3.7402761E+000	4.0571971E+000	6.7203491E+001	4.398496395529946E+000	3.2732003E+000	-5.7781912E-002	-7.5668611E-002	-6.4308867E-002	1.000000000000000E+000	9	2.7862689E-004	6.8674723E-005	-3.379947313755434E-005	-1.8071703E-004	9.5499285E-002	-2.2722258E-001	2.4647558E-001	-6.7203491E+001	-9.048508043111519E-006
5.0120619E+005	1.7018238E+000	-3.1966610E+000	3.6214426E+000	6.1970257E+001	4.995477757271146E+000	3.2731819E+000	-5.1867977E-002	-9.9336110E-002	-7.7399313E-002	1.000000000000000E+000	9	6.0975144E-004	1.6837253E-004	-3.960624995954600E-005	-3.4093409E-004	1.2976317E-001	-2.4374369E-001	2.7613306E-001	-6.1970257E+001	-5.806776821991666E-006
4.4668572E+005	2.0004930E+000	-2.8888535E+000	3.5138934E+000	5.5297909E+001	5.591491838888032E+000	3.2731693E+000	-5.5207387E-002	-1.2333675E-001	-8.3361670E-002	1.000000000000000E+000	9	1.0673065E-003	3.0373901E-004	-4.746154643331991E-005	-2.6082556E-004	1.6201673E-001	-2.3396362E-001	2.8458461E-001	-5.5297909E+001	-7.855296473773908E-006
3.9810347E+005	2.1360517E+000	-2.5097406E+000	3.2956812E+000	4.9598743E+001	6.186481573822675E+000	3.2731495E+000	-5.7856526E-002	-1.5929250E-001	-9.2376739E-002	1.000000000000000E+000	9	1.6394057E-003	4.9744063E-004	-5.411651912155341E-005	-3.4093409E-004	1.9666240E-001	-2.3106727E-001	3.0342740E-001	-4.9598743E+001	-6.654972688233501E-006
3.5480997E+005	2.2547889E+000	-2.1767042E+000	3.1340253E+000	4.3990532E+001	6.782491068792297E+000	3.2731340E+000	-5.5393931E-002	-2.0607480E-001	-9.9407405E-002	1.000000000000000E+000	9	2.3545381E-003	7.5128238E-004	-6.220030176747525E-005	-3.4093409E-004	2.2956248E-001	-2.2161260E-001	3.1907848E-001	-4.3990532E+001	-8.083782645921836E-006
3.1622997E+005	2.3301945E+000	-1.8799186E+000	2.9939773E+000	3.8895363E+001	7.377494297077646E+000	3.2731082E+000	-5.5356614E-002	-2.6771829E-001	-1.0555021E-001	1.000000000000000E+000	9	3.2438112E-003	1.0834455E-003	-6.928211487476074E-005	-3.4093409E-004	2.5995320E-001	-2.0972104E-001	3.3400387E-001	-3.8895363E+001	-7.081813107285491E-006
2.8183453E+005	2.3887517E+000	-1.6049075E+000	2.8778226E+000	3.3895584E+001	7.972479258634849E+000	3.2730491E+000	-5.8751985E-002	-3.5186487E-001	-1.0943289E-001	1.000000000000000E+000	9	4.3697143E-003	1.5184098E-003	-8.021033450699825E-005	-1.8071703E-004	2.8843167E-001	-1.9378579E-001	3.4748492E-001	-3.3895584E+001	-1.092821963223751E-005
2.5118764E+005	2.4281259E+000	-1.3457477E+000	2.7761183E+000	2.8996670E+001	8.567494433576940E+000	3.2729967E+000	-5.5319268E-002	-4.7082356E-001	-1.1063934E-001	1.000000000000000E+000	9	5.8073127E-003	2.0918823E-003	-9.286240134670192E-005	-9.8180224E-004	3.1506145E-001	-1.7461747E-001	3.6021519E-001	-2.8996670E+001	-1.265206683970367E-005
2.2387173E+005	2.4631157E+000	-1.1148582E+000	2.7036729E+000	2.4352512E+001	9.163493635220220E+000	3.2729652E+000	-5.7315454E-002	-6.3767773E-001	-1.0842568E-001	1.000000000000000E+000	9	7.7008922E-003	2.8483076E-003	-9.866421879344205E-005	-2.6082556E-004	3.3695856E-001	-1.5251456E-001	3.6986724E-001	-2.4352512E+001	-5.801817446740134E-006
1.9954350E+005	2.4949555E+000	-8.9985222E-001	2.6522701E+000	1.9832785E+001	9.760478810261702E+000	3.2729454E+000	-5.7166178E-002	-8.8636249E-001	-1.0202774E-001	1.000000000000000E+000	9	1.0297679E-002	3.8825909E-003	-9.641775953296262E-005	-2.0499996E-005	3.5467231E-001	-1.2791918E-001	3.7703550E-001	-1.9832785E+001	2.246459260479437E-006
1.7783180E+005	2.5239017E+000	-7.0638055E-001	2.6208880E+000	1.5635679E+001	1.035548923848546E+001	3.2729511E+000	-5.6307968E-002	-1.2669865E+000	-9.2034899E-002	1.000000000000000E+000	9	1.3951552E-002	5.3232159E-003	-9.119438719395030E-005	-4.2104261E-004	3.6743078E-001	-1.0283520E-001	3.8155007E-001	-1.5635679E+001	5.223372339012311E-006
1.5848613E+005	2.5466008E+000	-5.2469635E-001	2.6000926E+000	1.1642184E+001	1.095048924008734E+001	3.2729509E+000	-5.1513311E-002	-1.9139072E+000	-7.7939801E-002	1.000000000000000E+000	9	1.9186333E-002	7.3790955E-003	-8.700769204656697E-005	-8.2158518E-004	3.7668926E-001	-7.7612266E-002	3.8460168E-001	-1.1642184E+001	4.186695147383331E-006
1.4125594E+005	2.5695231E+000	-3.5335174E-001	2.5937052E+000	7.8300023E+000	1.154548646832700E+001	3.2729511E+000	-4.8994657E-002	-3.1886451E+000	-5.9180610E-002	1.000000000000000E+000	9	2.6932471E-002	1.0383783E-002	-9.172314216827767E-005	-4.2104261E-004	3.8195422E-001	-5.2524995E-002	3.8554883E-001	-7.8300023E+000	-4.715450121710695E-006
1.2590930E+005	2.5923977E+000	-1.8995458E-001	2.5993478E+000	4.1907845E+000	1.214249196337187E+001	3.2730012E+000	-3.4461465E-002	-6.6544561E+000	-3.5537209E-002	1.000000000000000E+000	9	4.0402334E-002	1.5543259E-002	-6.759647477945934E-005	-7.4147672E-004	3.8368326E-001	-2.8113894E-002	3.8471189E-001	-4.1907845E+000	2.412666738881833E-005
1.1220494E+005	2.6177807E+000	-3.3939838E-002	2.6180007E+000	7.4280500E-001	1.273748239161796E+001	3.2731807E+000	4.9154948E-002	-4.1792503E+001	-7.0239012E-003	1.000000000000000E+000	9	1.0501438E-001	4.0112432E-002	-1.291219673237453E-004	-1.0060851E-004	3.8193876E-001	-4.9518817E-003	3.8197085E-001	-7.4280500E-001	-6.152549254428596E-005
1.0000371E+005	2.6380463E+000	1.2346421E-001	2.6409338E+000	-2.6795664E+000	1.360548485952313E+001	3.2732432E+000	3.0965390E-002	1.2890297E+001	2.8172804E-002	1.000000000000000E+000	9	1.1747243E-001	4.4481400E-002	-2.515487905358507E-004	-2.0499996E-005	3.7823993E-001	1.7702151E-002	3.7865394E-001	2.6795664E+000	-1.224268232121054E-004
8.9129305E+004	2.6610441E+000	2.7896434E-001	2.6756265E+000	-5.9846091E+000	1.420148158117081E+001	3.2732518E+000	1.1469930E-002	6.4010458E+000	6.9582067E-002	1.000000000000000E+000	9	1.1920019E-001	4.4550385E-002	-3.494791079159412E-004	-3.4093409E-004	3.7170732E-001	3.8967066E-002	3.7374425E-001	5.9846091E+000	-9.793031738009045E-005
7.9433273E+004	2.6865129E+000	4.3404841E-001	2.7213507E+000	-9.1777258E+000	1.479847507618251E+001	3.2734084E+000	4.3446425E-002	4.6161456E+000	1.1743210E-001	1.000000000000000E+000	9	1.2724733E-001	4.6758890E-002	-3.125560032044434E-004	-5.8125966E-004	3.6276042E-001	5.8609650E-002	3.6746457E-001	9.1777258E+000	3.692310471149779E-005
7.0794977E+004	2.7144911E+000	5.9136343E-001	2.7781599E+000	-1.2290100E+001	1.539348358448478E+001	3.2734137E+000	4.2495105E-002	3.8015721E+000	1.7224939E-001	1.000000000000000E+000	9	1.3165377E-001	4.7388840E-002	-3.408932803457396E-004	-1.0060851E-004	3.5170126E-001	7.6619625E-002	3.5995048E-001	1.2290100E+001	-2.833727714129621E-005
6.3093828E+004	2.7457349E+000	7.5207663E-001	2.8468719E+000	-1.5318026E+001	1.599049507945892E+001	3.2734785E+000	4.2774864E-002	3.3540626E+000	2.3407741E-001	1.000000000000000E+000	9	1.3397108E-001	4.7059048E-002	-3.165319419835384E-004	-4.2104261E-004	3.3878392E-001	9.2795357E-002	3.5126275E-001	1.5318026E+001	2.436133836220125E-005
5.6237012E+004	2.7797561E+000	9.1619468E-001	2.9268510E+000	-1.8241980E+001	1.658749750783318E+001	3.2734168E+000	2.4790410E-002	3.0889449E+000	3.0268049E-001	1.000000000000000E+000	9	1.3464943E-001	4.6004876E-002	-2.320959346654515E-004	-5.8125966E-004	3.2449311E-001	1.0695142E-001	3.4166414E-001	1.8241980E+001	8.443600731808691E-005
5.0122477E+004	2.8191853E+000	1.0888675E+000	3.0221579E+000	-2.1118298E+001	1.718347588283359E+001	3.2734659E+000	3.3931766E-002	2.9161680E+000	3.7855443E-001	1.000000000000000E+000	9	1.3409999E-001	4.4372264E-002	-2.090330387269043E-004	-5.0115114E-004	3.0866638E-001	1.1921771E-001	3.3088940E-001	2.1118298E+001	2.306289593854714E-005
4.4666715E+004	2.8615491E+000	1.2701310E+000	3.1307662E+000	-2.3934584E+001	1.777947940447484E+001	3.2734344E+000	1.4809364E-002	2.8053534E+000	4.6172497E-001	1.000000000000000E+000	9	1.3277170E-001	4.2408694E-002	-1.590677594615974E-004	-1.0060851E-004	2.9194427E-001	1.2958276E-001	3.1941062E-001	2.3934584E+001	4.996527926530688E-005
3.9814063E+004	2.9096801E+000	1.4596344E+000	3.2552681E+000	-2.6640528E+001	1.823947414630675E+001	3.2739463E+000	-1.1327647E-002	2.7386692E+000	5.5062282E-001	1.000000000000000E+000	9	1.3715747E-001	4.2134002E-002	-1.408091985695064E-004	-3.4093409E-004	2.7458176E-001	1.3774332E-001	3.0719435E-001	2.6640528E+001	1.825856089209102E-005
3.5480996E+004	2.9623961E+000	1.6626996E+000	3.3971107E+000	-2.9304125E+001	1.869847686143476E+001	3.2734427E+000	2.1600226E-002	2.6978049E+000	6.4627701E-001	1.000000000000000E+000	9	1.3926721E-001	4.0995780E-002	-1.532164898813806E-004	-3.4093409E-004	2.5669873E-001	1.4407691E-001	2.9436779E-001	2.9304125E+001	-1.240729131187415E-005
3.1621143E+004	3.0232008E+000	1.8797612E+000	3.5599501E+000	-3.1872459E+001	1.915848157662549E+001	3.2734444E+000	1.9398788E-002	2.6775641E+000	7.4654746E-001	1.000000000000000E+000	9	1.3953206E-001	3.9194949E-002	-1.401590076738762E-004	-5.8125966E-004	2.3854984E-001	1.4832516E-001	2.8090280E-001	3.1872459E+001	1.305748220750442E-005
2.8188096E+004	3.0885706E+000	2.1115816E+000	3.7413962E+000	-3.4359478E+001	1.961847554511041E+001	3.2734776E+000	3.0722890E-002	2.6739082E+000	8.5171610E-001	1.000000000000000E+000	9	1.3859583E-001	3.7043881E-002	-1.531270338584565E-004	-5.8125966E-004	2.2064298E-001	1.5084831E-001	2.6727989E-001	3.4359478E+001	-1.296802618458038E-005
2.5116910E+004	3.1632981E+000	2.3620827E+000	3.9478970E+000	-3.6749256E+001	2.007748255357728E+001	3.2734272E+000	9.0073105E-003	2.6826179E+000	9.6032315E-001	1.000000000000000E+000	9	1.3689713E-001	3.4675963E-002	-1.381304472260074E-004	-5.0115114E-004	2.0295909E-001	1.5155263E-001	2.5329942E-001	3.6749256E+001	1.499658663244916E-005
2.2389027E+004	3.2473972E+000	2.6330109E+000	4.1807098E+000	-3.9035366E+001	2.053748670881032E+001	3.2734571E+000	3.2308519E-002	2.6998041E+000	1.0708718E+000	1.000000000000000E+000	9	1.3487282E-001	3.2260746E-002	-1.416913339763285E-004	-1.0060851E-004	1.8579556E-001	1.5064426E-001	2.3919383E-001	3.9035366E+001	-3.560886750321094E-006
1.9948783E+004	3.3423636E+000	2.9265835E+000	4.4425540E+000	-4.1205486E+001	2.099747990394826E+001	3.2734323E+000	1.5144943E-002	2.7261064E+000	1.1830394E+000	1.000000000000000E+000	9	1.3274854E-001	2.9881133E-002	-1.104023902447273E-004	-2.6082556E-004	1.6935121E-001	1.4828442E-001	2.2509575E-001	4.1205486E+001	3.128894373160113E-005
1.7786895E+004	3.4595747E+000	3.2323172E+000	4.7346101E+000	-4.3054974E+001	2.162348550700699E+001	3.2735450E+000	-8.0612674E-003	2.7682545E+000	1.2902253E+000	1.000000000000000E+000	10	1.3437602E-001	2.8381644E-002	-6.766363246594038E-005	-5.0115114E-004	1.5433140E-001	1.4419346E-001	2.1121064E-001	4.3054974E+001	4.273875777878695E-005
1.5847686E+004	3.5795860E+000	3.5782852E+000	5.0613794E+000	-4.4989590E+001	2.221849116196972E+001	3.2735443E+000	-7.4253790E-003	2.8065922E+000	1.4027861E+000	1.000000000000000E+000	10	1.3034581E-001	2.5753021E-002	-6.081807139712489E-005	-4.2104261E-004	1.3973172E-001	1.3968095E-001	1.9757460E-001	4.4989590E+001	6.845561068815492E-006
1.4121879E+004	3.7163613E+000	3.9523828E+000	5.4251885E+000	-4.6762840E+001	2.267848811714794E+001	3.2735529E+000	-8.2237981E-003	2.8514688E+000	1.5134113E+000	1.000000000000000E+000	10	1.3500129E-001	2.4884164E-002	-7.544050922793233E-005	-6.6136819E-004	1.2626654E-001	1.3428557E-001	1.8432540E-001	4.6762840E+001	-1.462243783080744E-005
1.2590932E+004	3.8695965E+000	4.3564324E+000	5.8268585E+000	-4.8386948E+001	2.313848136566230E+001	3.2735584E+000	-7.8153051E-003	2.9015582E+000	1.6219009E+000	1.000000000000000E+000	10	1.3611606E-001	2.3360111E-002	-6.067069145178216E-005	-1.1420193E-003	1.1397162E-001	1.2831044E-001	1.7161906E-001	4.8386948E+001	1.476981777615018E-005
1.1217711E+004	4.0440655E+000	4.7984343E+000	6.2753038E+000	-4.9876194E+001	2.359848920084187E+001	3.2735548E+000	-7.7817589E-003	2.9567621E+000	1.7288047E+000	1.000000000000000E+000	10	1.3481201E-001	2.1482946E-002	-5.980905391244839E-005	-3.4093409E-004	1.0269485E-001	1.2185127E-001	1.5935484E-001	4.9876194E+001	8.616375393337685E-007
1.0002229E+004	4.2394485E+000	5.2747569E+000	6.7672729E+000	-5.1210327E+001	2.405847727603395E+001	3.2735498E+000	-8.7293480E-003	3.0166216E+000	1.8327295E+000	1.000000000000000E+000	10	1.3219415E-001	1.9534331E-002	-4.232197100172440E-005	-2.6082556E-004	9.2572495E-002	1.1517947E-001	1.4777002E-001	5.1210327E+001	1.748708291072399E-005
8.9149297E+003	4.4612150E+000	5.7931981E+000	7.3118796E+000	-5.2400917E+001	2.454090519229067E+001	3.2735565E+000	-4.8794667E-003	3.0816536E+000	1.9344723E+000	1.000000000000000E+000	10	1.2910269E-001	1.7656567E-002	-4.052558477150484E-005	-5.8125966E-004	8.3443999E-002	1.0835782E-001	1.3676374E-001	5.2400917E+001	1.796386230219568E-006
7.9439976E+003	4.7123337E+000	6.3561025E+000	7.9124036E+000	-5.3447231E+001	2.506698601727840E+001	3.2735555E+000	-2.0704549E-003	3.1520286E+000	2.0340192E+000	1.000000000000000E+000	10	1.2600371E-001	1.5924834E-002	-4.133471496330781E-005	-3.4093409E-004	7.5269520E-002	1.0152524E-001	1.2638384E-001	5.3447231E+001	-8.091301918029749E-007
7.0822334E+003	4.9950724E+000	6.9618549E+000	8.5684404E+000	-5.4340878E+001	2.564385652469355E+001	3.2735660E+000	1.4361220E-004	3.2279363E+000	2.1309404E+000	1.000000000000000E+000	10	1.2317850E-001	1.4375837E-002	-2.755605439552003E-005	-4.2104261E-004	6.8035915E-002	9.4824687E-002	1.1670735E-001	5.4340878E+001	1.377866056778779E-005
6.3077344E+003	5.3176875E+000	7.6219049E+000	9.2936125E+000	-5.5097103E+001	2.627855663481751E+001	3.2735672E+000	2.4247537E-003	3.3104208E+000	2.2265944E+000	1.000000000000000E+000	10	1.2069354E-001	1.2986721E-002	-3.891334167857551E-005	2.9993406E-004	6.1567806E-002	8.8245876E-002	1.0760079E-001	5.5097103E+001	-1.135728728305548E-005
5.6210552E+003	5.6801572E+000	8.3298178E+000	1.0082165E+001	-5.5709667E+001	2.697928602810134E+001	3.2735813E+000	7.7369404E-003	3.3991222E+000	2.3202255E+000	1.000000000000000E+000	10	1.1857891E-001	1.1761255E-002	-2.959580589013381E-005	-2.0499996E-005	5.5879533E-002	8.1946030E-002	9.9185050E-002	5.5709667E+001	9.317535788441695E-006
5.0116035E+003	6.0876336E+000	9.0878983E+000	1.0938427E+001	-5.6183392E+001	2.773970982425089E+001	3.2736015E+000	1.1961756E-002	3.4944592E+000	2.4121101E+000	1.000000000000000E+000	10	1.1681214E-001	1.0679062E-002	-2.467211414951210E-005	5.9608523E-005	5.0879020E-002	7.5954542E-002	9.1420822E-002	5.6183392E+001	4.923691740621710E-006
4.4664292E+003	6.5475221E+000	9.9028807E+000	1.1871693E+001	-5.6528381E+001	2.849970212701737E+001	3.2736001E+000	1.0982478E-002	3.5983062E+000	2.5037787E+000	1.000000000000000E+000	10	1.1533272E-001	9.7149340E-003	-1.771371802092633E-005	-2.0499996E-005	4.6457052E-002	7.0264548E-002	8.4233984E-002	5.6528381E+001	6.958396128585768E-006
3.9812742E+003	7.0751896E+000	1.0757668E+001	1.2875781E+001	-5.6667561E+001	2.947967196023092E+001	3.2735958E+000	1.0777304E-002	3.7160358E+000	2.5939944E+000	1.000000000000000E+000	10	1.2653951E-001	9.8277153E-003	-2.266045103773164E-005	-1.8071703E-004	4.2676710E-002	6.4888991E-002	7.7665195E-002	5.6667561E+001	-4.946733016805308E-006
3.5465955E+003	7.6602807E+000	1.1689406E+001	1.3975769E+001	-5.6762444E+001	3.023995050298981E+001	3.2735929E+000	1.0879883E-002	3.8389819E+000	2.6856506E+000	1.000000000000000E+000	10	1.2541848E-001	8.9739952E-003	-2.689470427809283E-005	-1.8071703E-004	3.9218705E-002	5.9846811E-002	7.1552411E-002	5.6762444E+001	-4.234253240361190E-006
3.1610112E+003	8.3134899E+000	1.2675788E+001	1.5158816E+001	-5.6740898E+001	3.099971168576303E+001	3.2735982E+000	1.0706399E-002	3.9720905E+000	2.7774003E+000	1.000000000000000E+000	10	1.2450048E-001	8.2130739E-003	-3.111957191029150E-005	-6.6136819E-004	3.6178686E-002	5.5162553E-002	6.5968208E-002	5.6740898E+001	-4.224867632198663E-006
2.8172952E+003	9.0426588E+000	1.3721518E+001	1.6433189E+001	-5.6614597E+001	3.175992577520083E+001	3.2735977E+000	1.0672805E-002	4.1170449E+000	2.8704250E+000	1.000000000000000E+000	10	1.2375438E-001	7.5307586E-003	-3.299873625580221E-005	-2.0499996E-005	3.3485163E-002	5.0811078E-002	6.0852461E-002	5.6614597E+001	-1.879164345510718E-006
