EC-Lab ASCII FILE
Nb header lines : 59                          

Potentio Electrochemical Impedance Spectroscopy

Run on channel : 1 (SN 20909)
User : 
CE vs. WE compliance from -10 V to 10 V
Electrode connection : standard
Ewe ctrl range : min = -10.00 V, max = 10.00 V
Acquisition started on : 06/20/2020 10:08:24
Saved on :
	File : DE_140_1_30.mpr
	Directory : P:\Chemistry\Data\VMP3\Kyler\DOE\DE_140\
	Host : 10.0.4.64
Device : VMP3 (SN 1432)
Address : USB
EC-Lab for windows v11.33 (software)
Internet server v11.32 (firmware)
Command interpretor v11.33 (firmware)
Electrode material : 
Initial state : 
Electrolyte : 
Comments : 
Electrode surface area : 0.001 cm²
Characteristic mass : 0.001 g
Equivalent Weight : 0.000 g/eq.
Density : 0.000 g/cm3
Record Analogic IN 1
Cycle Definition : Charge/Discharge alternance
Mode                Single sine         
E (V)               0.0000              
vs.                 Eoc                 
tE (h:m:s)          0:00:0.0000         
record              0                   
dI                  1.000               
unit dI             mA                  
dt (s)              0.000               
fi                  1.000               
unit fi             MHz                 
ff                  1.000               
unit ff             Hz                  
Nd                  20                  
Points              per decade          
spacing             Logarithmic         
Va (mV)             128.0               
pw                  0.50                
Na                  3                   
corr                0                   
E range min (V)     -10.000             
E range max (V)     10.000              
I Range             Auto                
Bandwidth           5                   
nc cycles           0                   
goto Ns'            0                   
nr cycles           0                   
inc. cycle          1                   

freq/Hz	Re(Z)/Ohm	-Im(Z)/Ohm	|Z|/Ohm	Phase(Z)/deg	time/s	<Ewe>/V	<I>/mA	Cs/µF	Cp/µF	cycle number	I Range	|Ewe|/V	|I|/A	(Q-Qo)/mA.h	Analog IN 1/V	Re(Y)/Ohm-1	Im(Y)/Ohm-1	|Y|/Ohm-1	Phase(Y)/deg	dq/mA.h	
1.0000186E+006	9.7885300E+001	1.9032474E+002	2.1402112E+002	-6.2782936E+001	1.747492802998750E+000	-1.4206885E-001	-3.9536256E-004	8.3621283E-004	6.6129316E-004	1.000000000000000E+000	11	1.1567166E-003	5.4046845E-006	-1.111978011134245E-007	1.0212145E-004	2.1369983E-003	4.1551050E-003	4.6724360E-003	6.2782936E+001	-1.111978011134245E-007
8.9124669E+005	1.1087362E+002	1.9945807E+002	2.2820271E+002	-6.0931442E+001	2.343472751294030E+000	-1.4153966E-001	-4.5975012E-004	8.9530414E-004	6.8396237E-004	1.000000000000000E+000	11	2.1624756E-003	9.4761172E-006	-1.800970237723555E-007	1.8232394E-004	2.1290535E-003	3.8300990E-003	4.3820688E-003	6.0931442E+001	-6.889922265893094E-008
7.9433269E+005	1.2491974E+002	2.1365135E+002	2.4749109E+002	-5.9685616E+001	2.938474886206677E+000	-1.4107861E-001	-5.1088701E-004	9.3780400E-004	6.9888256E-004	1.000000000000000E+000	11	2.9035944E-003	1.1732117E-005	-2.672192292830005E-007	-5.8283542E-005	2.0394446E-003	3.4880806E-003	4.0405495E-003	5.9685616E+001	-8.712220551064499E-008
7.0794981E+005	1.3960193E+002	2.2897610E+002	2.6817673E+002	-5.8630215E+001	3.533476007782156E+000	-1.4065348E-001	-4.6385563E-004	9.8181004E-004	7.1575708E-004	1.000000000000000E+000	11	2.7715003E-003	1.0334604E-005	-4.374787505201109E-007	-2.1868854E-004	1.9411059E-003	3.1838163E-003	3.7288843E-003	5.8630215E+001	-1.702595212371105E-007
6.3095681E+005	1.5479004E+002	2.4691570E+002	2.9142291E+002	-5.7916637E+001	4.129489769431530E+000	-1.4024648E-001	-5.1629829E-004	1.0215787E-003	7.3336775E-004	1.000000000000000E+000	11	1.1611001E-003	3.9842444E-006	-6.323749785022099E-007	-5.8283542E-005	1.8226177E-003	2.9073767E-003	3.4314392E-003	5.7916637E+001	-1.948962279820990E-007
5.6234225E+005	1.7322812E+002	2.6153317E+002	3.1369983E+002	-5.6481251E+001	4.725481104425853E+000	-1.3994534E-001	-5.0360698E-004	1.0821628E-003	7.5217284E-004	1.000000000000000E+000	11	2.3760763E-003	7.5743628E-006	-5.685840081237580E-007	2.1918953E-005	1.7603128E-003	2.6576526E-003	3.1877607E-003	5.6481251E+001	6.379097037845187E-008
5.0120619E+005	1.9162447E+002	2.7927847E+002	3.3869809E+002	-5.5544376E+001	5.322480546106817E+000	-1.3964088E-001	-3.8864143E-004	1.1370152E-003	7.7306444E-004	1.000000000000000E+000	11	8.0707753E-003	2.3828818E-005	-4.315004079334257E-007	2.1918953E-005	1.6704191E-003	2.4345121E-003	2.9524819E-003	5.5544376E+001	1.370836001903324E-007
4.4668572E+005	2.1191110E+002	2.9681110E+002	3.6469595E+002	-5.4474701E+001	5.918492734403117E+000	-1.3936979E-001	-3.6456552E-004	1.2004330E-003	7.9512660E-004	1.000000000000000E+000	11	1.5830599E-002	4.3407661E-005	-6.031990663557533E-007	-2.9889104E-004	1.5932790E-003	2.2316098E-003	2.7420102E-003	5.4474701E+001	-1.716986584223276E-007
3.9810347E+005	2.3479294E+002	3.1593765E+002	3.9362967E+002	-5.3381660E+001	6.514478176046396E+000	-1.3923739E-001	-3.9218710E-004	1.2653854E-003	8.1517326E-004	1.000000000000000E+000	11	2.5605364E-002	6.5049375E-005	-8.859592762601096E-007	-6.1970105E-004	1.5153375E-003	2.0390400E-003	2.5404589E-003	5.3381660E+001	-2.827602099043563E-007
3.5480997E+005	2.5754041E+002	3.3397128E+002	4.2173911E+002	-5.2362553E+001	7.109481297637103E+000	-1.3912809E-001	-4.1682122E-004	1.3431212E-003	8.4225909E-004	1.000000000000000E+000	11	3.7132226E-002	8.8045490E-005	-1.133788425652407E-006	6.6353887E-004	1.4479636E-003	1.8776791E-003	2.3711342E-003	5.2362553E+001	-2.478291493922978E-007
3.1622997E+005	2.8274551E+002	3.5200073E+002	4.5149701E+002	-5.1226738E+001	7.704493192577502E+000	-1.3904050E-001	-3.9573121E-004	1.4297941E-003	8.6906232E-004	1.000000000000000E+000	11	5.0413009E-002	1.1165746E-004	-1.114793386809955E-006	-2.1868854E-004	1.3870304E-003	1.7267674E-003	2.2148541E-003	5.1226738E+001	1.899503884245256E-008
2.8183453E+005	3.0939832E+002	3.7045941E+002	4.8266705E+002	-5.0132221E+001	8.300497434247518E+000	-1.3897192E-001	-3.5821777E-004	1.5243521E-003	8.9798949E-004	1.000000000000000E+000	11	6.5234333E-002	1.3515390E-004	-1.111607573598222E-006	3.4272892E-004	1.3280752E-003	1.5901765E-003	2.0718216E-003	5.0132221E+001	3.185813211732531E-009
2.5118764E+005	3.3788998E+002	3.8887708E+002	5.1516504E+002	-4.9013069E+001	8.895482795807766E+000	-1.3897902E-001	-3.9796974E-004	1.6293318E-003	9.2841347E-004	1.000000000000000E+000	11	8.1586361E-002	1.5836937E-004	-1.071536156720766E-006	1.8232394E-004	1.2731587E-003	1.4652765E-003	1.9411255E-003	4.9013069E+001	4.007141687745595E-008
2.2387173E+005	3.7384390E+002	4.0366797E+002	5.5018823E+002	-4.7196693E+001	9.794481531862402E+000	-1.3903131E-001	-9.3251023E-005	1.7611510E-003	9.4803103E-004	1.000000000000000E+000	12	4.0714372E-002	7.4000804E-005	-1.183670468160320E-006	2.1918953E-005	1.2350022E-003	1.3335267E-003	1.8175598E-003	4.7196693E+001	-1.121343114395536E-007
1.9954350E+005	4.0542648E+002	4.2192426E+002	5.8514160E+002	-4.6142353E+001	1.039049753351719E+001	-1.3893121E-001	1.1808201E-005	1.8903755E-003	9.8286779E-004	1.000000000000000E+000	12	5.0453093E-002	8.6223736E-005	-9.965546211606124E-007	3.4272892E-004	1.1841049E-003	1.2322889E-003	1.7089881E-003	4.6142353E+001	1.871158469997074E-007
1.7783180E+005	4.3888571E+002	4.4009882E+002	6.2153650E+002	-4.5079075E+001	1.098547449507168E+001	-1.3894236E-001	-7.5856064E-005	2.0335764E-003	1.0195948E-003	1.000000000000000E+000	12	6.1656326E-002	9.9199846E-005	-1.222095014143431E-006	-2.1868854E-004	1.1361042E-003	1.1392444E-003	1.6089160E-003	4.5079075E+001	-2.255403929828189E-007
1.5848613E+005	4.7421637E+002	4.5751611E+002	6.5894019E+002	-4.3973148E+001	1.158147748341435E+001	-1.3892202E-001	-5.2376643E-005	2.1949392E-003	1.0581404E-003	1.000000000000000E+000	12	7.4447602E-002	1.1298082E-004	-1.147700537920981E-006	-2.1868854E-004	1.0921557E-003	1.0536937E-003	1.5175884E-003	4.3973148E+001	7.439447622245007E-008
1.4125594E+005	5.1090350E+002	4.7435056E+002	6.9715912E+002	-4.2875301E+001	1.217649447164149E+001	-1.3890362E-001	-6.8594454E-005	2.3752756E-003	1.0996361E-003	1.000000000000000E+000	12	8.9089394E-002	1.2778919E-004	-1.026076373820413E-006	1.8232394E-004	1.0511751E-003	9.7596803E-004	1.4343928E-003	4.2875301E+001	1.216241641005682E-007
1.2590930E+005	5.4883154E+002	4.9061990E+002	7.3615485E+002	-4.1794655E+001	1.277349308665725E+001	-1.3886455E-001	-2.7925484E-005	2.5764231E-003	1.1443770E-003	1.000000000000000E+000	12	1.0564517E-001	1.4350945E-004	-1.151446653140334E-006	3.4272892E-004	1.0127465E-003	9.0532983E-004	1.3584099E-003	4.1794655E+001	-1.253702793199207E-007
1.1220494E+005	5.8786938E+002	5.0643918E+002	7.7593237E+002	-4.0744324E+001	1.323249510847381E+001	-1.3895245E-001	-1.9545217E-004	2.8007920E-003	1.1931298E-003	1.000000000000000E+000	12	1.2444205E-001	1.6037744E-004	-1.036385354256911E-006	-5.8283542E-005	9.7641197E-004	8.4116182E-004	1.2887721E-003	4.0744324E+001	1.150612988834231E-007
1.0000371E+005	6.2870801E+002	5.2118121E+002	8.1664166E+002	-3.9657776E+001	1.382849703010288E+001	-1.3882533E-001	-4.3640182E-005	3.0536219E-003	1.2437402E-003	1.000000000000000E+000	12	1.2944415E-001	1.5850790E-004	-8.479480997840357E-007	-2.1868854E-004	9.4272691E-004	7.8149408E-004	1.2245273E-003	3.9657776E+001	1.884372544728749E-007
8.9129305E+004	6.7083551E+002	5.3552771E+002	8.5837653E+002	-3.8600353E+001	1.442448260509991E+001	-1.3877968E-001	-5.1908486E-005	3.3343998E-003	1.2978541E-003	1.000000000000000E+000	12	1.3027114E-001	1.5176456E-004	-9.698243568483222E-007	2.6252642E-004	9.1045897E-004	7.2681904E-004	1.1649899E-003	3.8600353E+001	-1.218762570642865E-007
7.9433273E+004	7.1381305E+002	5.4894482E+002	9.0048291E+002	-3.7561424E+001	1.502049087340129E+001	-1.3874401E-001	-3.4812576E-005	3.6499675E-003	1.3564238E-003	1.000000000000000E+000	12	1.3022168E-001	1.4461316E-004	-9.284441765953994E-007	-2.9889104E-004	8.8030571E-004	6.7698298E-004	1.1105152E-003	3.7561424E+001	4.138018025292280E-008
7.0794977E+004	7.5808502E+002	5.6172308E+002	9.4351776E+002	-3.6537571E+001	1.561549823501264E+001	-1.3871826E-001	-4.9053568E-005	4.0021688E-003	1.4185341E-003	1.000000000000000E+000	12	1.3018467E-001	1.3797797E-004	-7.722978041517005E-007	2.6252642E-004	8.5156492E-004	6.3098950E-004	1.0598635E-003	3.6537571E+001	1.561463724436989E-007
6.3093828E+004	8.0351807E+002	5.7337036E+002	9.8711444E+002	-3.5510704E+001	1.621047546327463E+001	-1.3866022E-001	-3.1285708E-005	4.3994463E-003	1.4843403E-003	1.000000000000000E+000	12	1.2998879E-001	1.3168564E-004	-6.640506231192881E-007	-1.3848604E-004	8.2463294E-004	5.8843743E-004	1.0130538E-003	3.5510704E+001	1.082471810324124E-007
5.6237012E+004	8.4979791E+002	5.8454230E+002	1.0314292E+003	-3.4522537E+001	1.680549815818085E+001	-1.3865401E-001	-2.3746050E-005	4.8415223E-003	1.5550165E-003	1.000000000000000E+000	12	1.2983941E-001	1.2588300E-004	-5.356130533376320E-007	-2.1868854E-004	7.9879776E-004	5.4946123E-004	9.6952851E-004	3.4522537E+001	1.284375697816561E-007
5.0122477E+004	8.9693628E+002	5.9460010E+002	1.0761245E+003	-3.3541332E+001	1.740049663980608E+001	-1.3864215E-001	-5.9207749E-005	5.3402628E-003	1.6303750E-003	1.000000000000000E+000	12	1.2968576E-001	1.2051185E-004	-4.631002181005088E-007	-5.8283542E-005	7.7452697E-004	5.1345211E-004	9.2926051E-004	3.3541332E+001	7.251283523712319E-008
4.4666715E+004	9.4518640E+002	6.0361285E+002	1.1214838E+003	-3.2563026E+001	1.799649861475336E+001	-1.3861407E-001	-5.7024041E-005	5.9030661E-003	1.7100492E-003	1.000000000000000E+000	12	1.2951490E-001	1.1548532E-004	-5.390910796591520E-007	1.0212145E-004	7.5150433E-004	4.7992406E-004	8.9167588E-004	3.2563026E+001	-7.599086155864320E-008
3.9814063E+004	9.9427747E+002	6.1182288E+002	1.1674395E+003	-3.1605824E+001	1.859249845638988E+001	-1.3865831E-001	-7.6882599E-005	6.5336814E-003	1.7944883E-003	1.000000000000000E+000	12	1.2924804E-001	1.1071070E-004	-6.231513905976397E-007	2.6252642E-004	7.2952278E-004	4.4890764E-004	8.5657550E-004	3.1605824E+001	-8.406031093848772E-008
3.5480996E+004	1.0436691E+003	6.1913916E+002	1.2134984E+003	-3.0677826E+001	1.905248866489274E+001	-1.3861848E-001	-6.5254884E-005	7.2449613E-003	1.8859674E-003	1.000000000000000E+000	12	1.3890174E-001	1.1446389E-004	-7.313547643635603E-007	1.0212145E-004	7.0873584E-004	4.2044563E-004	8.2406373E-004	3.0677826E+001	-1.082033737659206E-007
3.1621143E+004	1.0938485E+003	6.2545911E+002	1.2600411E+003	-2.9760784E+001	1.964848778655869E+001	-1.3860273E-001	-6.7028232E-005	8.0471793E-003	1.9827685E-003	1.000000000000000E+000	12	1.2995011E-001	1.0313164E-004	-8.176727992734716E-007	1.8232394E-004	6.8895007E-004	3.9393947E-004	7.9362490E-004	2.9760784E+001	-8.631803490991128E-008
2.8188096E+004	1.1446064E+003	6.3028851E+002	1.3066704E+003	-2.8839802E+001	2.010848594174604E+001	-1.3860363E-001	-3.4814238E-005	8.9580808E-003	2.0843069E-003	1.000000000000000E+000	12	1.3646238E-001	1.0443520E-004	-9.222033907697349E-007	2.1918953E-005	6.7038467E-004	3.6915374E-004	7.6530391E-004	2.8839802E+001	-1.045305914962633E-007
2.5116910E+004	1.1959861E+003	6.3446246E+002	1.3538557E+003	-2.7945648E+001	2.070547538340907E+001	-1.3860051E-001	-5.5475321E-005	9.9872975E-003	2.1933860E-003	1.000000000000000E+000	12	1.2944160E-001	9.5609605E-005	-8.073708152818047E-007	2.1918953E-005	6.5250130E-004	3.4614751E-004	7.3863118E-004	2.7945648E+001	1.148325754879302E-007
2.2389027E+004	1.2479714E+003	6.3701666E+002	1.4011506E+003	-2.7041662E+001	2.116549233862315E+001	-1.3859156E-001	-3.4497076E-005	1.1159227E-002	2.3065668E-003	1.000000000000000E+000	12	1.3343145E-001	9.5229909E-005	-8.826983209768919E-007	-2.1868854E-004	6.3567481E-004	3.2447494E-004	7.1369915E-004	2.7041662E+001	-7.532750569508718E-008
1.9948783E+004	1.2997557E+003	6.3839355E+002	1.4480715E+003	-2.6158621E+001	2.162548836044152E+001	-1.3860935E-001	-3.6774058E-005	1.2497272E-002	2.4289144E-003	1.000000000000000E+000	12	1.3655232E-001	9.4299430E-005	-8.004456858280820E-007	-2.9889104E-004	6.1984296E-004	3.0444472E-004	6.9057359E-004	2.6158621E+001	8.225263514880989E-008
1.7786895E+004	1.3511163E+003	6.3876428E+002	1.4945016E+003	-2.5303276E+001	2.208548352899379E+001	-1.3859576E-001	-3.7949969E-005	1.4008105E-002	2.5589857E-003	1.000000000000000E+000	12	1.3890950E-001	9.2947041E-005	-7.530117988070642E-007	1.8232394E-004	6.0492283E-004	2.8598803E-004	6.6911941E-004	2.5303276E+001	4.743388702101781E-008
1.5847686E+004	1.4032085E+003	6.3743396E+002	1.5412061E+003	-2.4430822E+001	2.254449712412315E+001	-1.3858664E-001	-4.2056014E-005	1.5755026E-002	2.6950578E-003	1.000000000000000E+000	12	1.4068750E-001	9.1284026E-005	-6.912378516289108E-007	-4.5929602E-004	5.9074600E-004	2.6835754E-004	6.4884248E-004	2.4430822E+001	6.177394717815340E-008
1.4121879E+004	1.4545137E+003	6.3516754E+002	1.5871509E+003	-2.3590281E+001	2.314047907243366E+001	-1.3859726E-001	-4.5079742E-005	1.7743504E-002	2.8417085E-003	1.000000000000000E+000	12	1.2942615E-001	8.1546219E-005	-7.415895565607368E-007	2.1918953E-005	5.7740608E-004	2.5214590E-004	6.3005980E-004	2.3590281E+001	-5.035170493182604E-008
1.2590932E+004	1.5054407E+003	6.3167566E+002	1.6325948E+003	-2.2762686E+001	2.359949821422924E+001	-1.3858555E-001	-2.8375629E-005	2.0010969E-002	2.9957085E-003	1.000000000000000E+000	12	1.3024181E-001	7.9775957E-005	-6.733377861706282E-007	1.8232394E-004	5.6481577E-004	2.3699398E-004	6.1252184E-004	2.2762686E+001	6.825177039010865E-008
1.1217711E+004	1.5563492E+003	6.2706909E+002	1.6779269E+003	-2.1945011E+001	2.405948927605641E+001	-1.3859133E-001	-4.2224226E-005	2.2625621E-002	3.1599866E-003	1.000000000000000E+000	12	1.3082412E-001	7.7967714E-005	-6.185868217326060E-007	-1.3848604E-004	5.5279105E-004	2.2272518E-004	5.9597351E-004	2.1945011E+001	5.475096443802211E-008
1.0002229E+004	1.6053003E+003	6.2090649E+002	1.7211954E+003	-2.1145737E+001	2.451949055123259E+001	-1.3858885E-001	-4.4501223E-005	2.5626961E-002	3.3349486E-003	1.000000000000000E+000	12	1.3120146E-001	7.6226941E-005	-6.522637812368986E-007	2.1918953E-005	5.4187101E-004	2.0958773E-004	5.8099156E-004	2.1145737E+001	-3.367695950429255E-008
8.9149297E+003	1.6541504E+003	6.1465979E+002	1.7646587E+003	-2.0384382E+001	2.500191838754108E+001	-1.3855970E-001	-4.6367688E-005	2.9044734E-002	3.5238350E-003	1.000000000000000E+000	12	1.3143301E-001	7.4480697E-005	-6.962651786489005E-007	1.0212145E-004	5.3119450E-004	1.9738467E-004	5.6668185E-004	2.0384382E+001	-4.400139741200192E-008
7.9439976E+003	1.7017601E+003	6.0639612E+002	1.8065724E+003	-1.9612745E+001	2.552798001252813E+001	-1.3854341E-001	-5.7136775E-005	3.3038825E-002	3.7224314E-003	1.000000000000000E+000	12	1.3157211E-001	7.2829695E-005	-6.641830477583426E-007	-5.8283542E-005	5.2141992E-004	1.8579999E-004	5.5353442E-004	1.9612745E+001	3.208213089055790E-008
7.0822334E+003	1.7476580E+003	5.9821936E+002	1.8472073E+003	-1.8895960E+001	2.610485918659833E+001	-1.3852774E-001	-1.4732504E-005	3.7565522E-002	3.9398447E-003	1.000000000000000E+000	12	1.3163409E-001	7.1261136E-005	-7.253798658083623E-007	-1.3848604E-004	5.1218306E-004	1.7531910E-004	5.4135779E-004	1.8895960E+001	-6.119681805001967E-008
6.3077344E+003	1.7928427E+003	5.8929138E+002	1.8872067E+003	-1.8195232E+001	2.673956209668540E+001	-1.3852499E-001	-3.4329722E-005	4.2817041E-002	4.1748215E-003	1.000000000000000E+000	12	1.3166285E-001	6.9765993E-005	-7.354252318368203E-007	5.0313392E-004	5.0338847E-004	1.6545928E-004	5.2988366E-004	1.8195232E+001	-1.004536602845802E-008
5.6210552E+003	1.8368057E+003	5.7999158E+002	1.9261997E+003	-1.7524084E+001	2.744029020998278E+001	-1.3851634E-001	-6.8802001E-005	4.8818063E-002	4.4261012E-003	1.000000000000000E+000	12	1.3165681E-001	6.8350550E-005	-7.347708259225732E-007	1.8232394E-004	4.9506314E-004	1.5632162E-004	5.1915698E-004	1.7524084E+001	6.544059142470635E-010
5.0116035E+003	1.8784907E+003	5.7030328E+002	1.9631539E+003	-1.6888109E+001	2.820071213948540E+001	-1.3852790E-001	-7.0239112E-005	5.5684913E-002	4.6993801E-003	1.000000000000000E+000	12	1.3163310E-001	6.7051849E-005	-6.997613090598962E-007	1.8232394E-004	4.8741660E-004	1.4797800E-004	5.0938438E-004	1.6888109E+001	3.500951686267700E-008
4.4664292E+003	1.9189879E+003	5.6124158E+002	1.9993766E+003	-1.6302481E+001	2.896070910891285E+001	-1.3852686E-001	-9.1086862E-005	6.3490659E-002	5.0028828E-003	1.000000000000000E+000	12	1.3160723E-001	6.5824133E-005	-6.636233090452303E-007	-1.3848604E-004	4.8004620E-004	1.4039790E-004	5.0015590E-004	1.6302481E+001	3.613800001466590E-008
3.9812742E+003	1.9571566E+003	5.5252942E+002	2.0336545E+003	-1.5765026E+001	2.972071205168322E+001	-1.3853033E-001	-5.8089110E-005	7.2350681E-002	5.3407112E-003	1.000000000000000E+000	12	1.3157122E-001	6.4696935E-005	-6.442265858600473E-007	2.6252642E-004	4.7322884E-004	1.3359833E-004	4.9172557E-004	1.5765026E+001	1.939672318518305E-008
3.5465955E+003	1.9952942E+003	5.4391272E+002	2.0681006E+003	-1.5248211E+001	3.048092584777623E+001	-1.3851981E-001	-9.9317833E-005	8.2504809E-002	5.7068230E-003	1.000000000000000E+000	12	1.3152742E-001	6.3598178E-005	-6.194728524011831E-007	5.0313392E-004	4.6651287E-004	1.2717035E-004	4.8353546E-004	1.5248211E+001	2.475373345886416E-008
3.1610112E+003	2.0313417E+003	5.3626202E+002	2.1009346E+003	-1.4788357E+001	3.124069993721059E+001	-1.3851322E-001	-6.1990206E-005	9.3889512E-002	6.1171073E-003	1.000000000000000E+000	12	1.3149408E-001	6.2588369E-005	-6.031825422974685E-007	-5.8283542E-005	4.6021200E-004	1.2149321E-004	4.7597865E-004	1.4788357E+001	1.629031010371459E-008
2.8172952E+003	2.0657954E+003	5.2920050E+002	2.1325017E+003	-1.4368627E+001	3.200092725330614E+001	-1.3852566E-001	-1.1605961E-004	1.0674991E-001	6.5739932E-003	1.000000000000000E+000	12	1.3145214E-001	6.1642218E-005	-6.336087869963699E-007	-1.3848604E-004	4.5426420E-004	1.1637012E-004	4.6893279E-004	1.4368627E+001	-3.042624469890136E-008
