EC-Lab ASCII FILE
Nb header lines : 60                          

Potentio Electrochemical Impedance Spectroscopy

Run on channel : 4 (SN 4192)
User : 
CE vs. WE compliance from -10 V to 10 V
Electrode connection : standard
Ewe ctrl range : min = -10.00 V, max = 10.00 V
Acquisition started on : 02/20/2020 14:50:54
Technique started on : 02/20/2020 14:50:55
Saved on :
	File : DE_65_8_60.mpr
	Directory : P:\Chemistry\Data\VMP3\Kyler\DOE\DE_65\60C\
	Host : 10.0.4.64
Device : VMP3 (SN 1432)
Address : USB
EC-Lab for windows v11.33 (software)
Internet server v11.32 (firmware)
Command interpretor v11.33 (firmware)
Electrode material : 
Initial state : 
Electrolyte : 
Comments : 
Electrode surface area : 0.001 cm²
Characteristic mass : 0.001 g
Equivalent Weight : 0.000 g/eq.
Density : 0.000 g/cm3
Record Analogic IN 1
Cycle Definition : Charge/Discharge alternance
Mode                Single sine         
E (V)               0.0000              
vs.                 Eoc                 
tE (h:m:s)          0:00:0.0000         
record              0                   
dI                  1.000               
unit dI             mA                  
dt (s)              0.000               
fi                  1.000               
unit fi             MHz                 
ff                  1.000               
unit ff             Hz                  
Nd                  20                  
Points              per decade          
spacing             Logarithmic         
Va (mV)             128.0               
pw                  0.50                
Na                  3                   
corr                0                   
E range min (V)     -10.000             
E range max (V)     10.000              
I Range             Auto                
Bandwidth           5                   
nc cycles           0                   
goto Ns'            0                   
nr cycles           0                   
inc. cycle          1                   

freq/Hz	Re(Z)/Ohm	-Im(Z)/Ohm	|Z|/Ohm	Phase(Z)/deg	time/s	<Ewe>/V	<I>/mA	Cs/µF	Cp/µF	cycle number	I Range	|Ewe|/V	|I|/A	(Q-Qo)/mA.h	Analog IN 1/V	Re(Y)/Ohm-1	Im(Y)/Ohm-1	|Y|/Ohm-1	Phase(Y)/deg	dq/mA.h	
1.0000186E+006	1.2586422E+002	1.3463983E+002	1.8430867E+002	-4.6929398E+001	1.950481185951503E+000	-3.0748281E-001	6.8478653E-004	1.1820572E-003	6.3080352E-004	1.000000000000000E+000	11	5.2041481E-003	2.8236047E-005	1.603017818411495E-007	-8.8553858E-004	3.7051924E-003	3.9635291E-003	5.4256809E-003	4.6929398E+001	1.603017818411495E-007
8.9124669E+005	1.3818518E+002	1.3817288E+002	1.9541466E+002	-4.4997452E+001	2.545470414188458E+000	-3.0723530E-001	6.9297641E-004	1.2924073E-003	6.4614613E-004	1.000000000000000E+000	11	7.6595340E-003	3.9196311E-005	2.466112313543110E-007	-4.0437613E-004	3.6186548E-003	3.6183330E-003	5.1173232E-003	4.4997452E+001	8.630944951316146E-008
7.9433269E+005	1.5197856E+002	1.4223561E+002	2.0815488E+002	-4.3103333E+001	3.140477429114981E+000	-3.0705565E-001	1.2297346E-003	1.4086702E-003	6.5773790E-004	1.000000000000000E+000	11	1.0720746E-002	5.1503695E-005	3.922123574791638E-007	-4.0437613E-004	3.5075927E-003	3.2827300E-003	4.8041153E-003	4.3103333E+001	1.456011261248528E-007
7.0794981E+005	1.6577869E+002	1.4654860E+002	2.2126695E+002	-4.1476727E+001	3.736485057423124E+000	-3.0693093E-001	1.5591610E-003	1.5340374E-003	6.7292427E-004	1.000000000000000E+000	11	1.4747689E-002	6.6651119E-005	5.719349140872510E-007	-5.6476361E-004	3.3860675E-003	2.9932882E-003	4.5194277E-003	4.1476727E+001	1.797225566080872E-007
6.3095681E+005	1.7973289E+002	1.4995822E+002	2.3407559E+002	-3.9839573E+001	4.331493485689862E+000	-3.0683956E-001	1.6354694E-003	1.6820939E-003	6.9036463E-004	1.000000000000000E+000	11	1.9650325E-002	8.3948631E-005	7.993842314273126E-007	-1.6379493E-004	3.2803132E-003	2.7368944E-003	4.2721243E-003	3.9839573E+001	2.274493173400616E-007
5.6234225E+005	1.9487523E+002	1.5290819E+002	2.4770399E+002	-3.8119385E+001	4.926487033982994E+000	-3.0674320E-001	1.8493166E-003	1.8509245E-003	7.0531666E-004	1.000000000000000E+000	11	2.5401631E-002	1.0254833E-004	1.152257588318915E-006	-5.6476361E-004	3.1760740E-003	2.4920958E-003	4.0370766E-003	3.8119385E+001	3.528733568916020E-007
5.0120619E+005	2.1037218E+002	1.5534984E+002	2.6151486E+002	-3.6444103E+001	5.522479995590402E+000	-3.0663198E-001	1.8828184E-003	2.0440565E-003	7.2130968E-004	1.000000000000000E+000	11	3.1982198E-002	1.2229591E-004	1.549249299648687E-006	-4.0437613E-004	3.0760653E-003	2.2715279E-003	3.8238745E-003	3.6444103E+001	3.969917113297722E-007
4.4668572E+005	2.2626010E+002	1.5644717E+002	2.7508063E+002	-3.4661858E+001	6.118480450561037E+000	-3.0654868E-001	2.0067715E-003	2.2774576E-003	7.3665776E-004	1.000000000000000E+000	11	3.9441161E-002	1.4338037E-004	1.966889053195094E-006	7.6786280E-005	2.9901154E-003	2.0675105E-003	3.6352978E-003	3.4661858E+001	4.176397535464071E-007
3.9810347E+005	2.4407422E+002	1.5754784E+002	2.9050568E+002	-3.2841900E+001	6.713492558832513E+000	-3.0649030E-001	2.1541766E-003	2.5375334E-003	7.4632396E-004	1.000000000000000E+000	11	4.7782149E-002	1.6447924E-004	2.508410353173935E-006	-8.8553858E-004	2.8920956E-003	1.8668233E-003	3.4422735E-003	3.2841900E+001	5.415212999788411E-007
3.5480997E+005	2.6008334E+002	1.5639101E+002	3.0348227E+002	-3.1018963E+001	7.309472400491359E+000	-3.0648765E-001	2.2282519E-003	2.8682204E-003	7.6167454E-004	1.000000000000000E+000	11	5.7061810E-002	1.8802354E-004	2.876304600767778E-006	-3.2418242E-004	2.8238776E-003	1.6980291E-003	3.2950854E-003	3.1018963E+001	3.678942475938433E-007
3.1622997E+005	2.7545206E+002	1.5381873E+002	3.1549014E+002	-2.9179989E+001	7.904484268772649E+000	-3.0650011E-001	2.2418392E-003	3.2719595E-003	7.7777635E-004	1.000000000000000E+000	11	6.7336746E-002	2.1343534E-004	3.377647040145045E-006	-2.4398866E-004	2.7674160E-003	1.5453883E-003	3.1696712E-003	2.9179989E+001	5.013424393772664E-007
2.8183453E+005	2.8949225E+002	1.4989624E+002	3.2599792E+002	-2.7374676E+001	8.500491203711135E+000	-3.0649230E-001	2.3376893E-003	3.7673430E-003	7.9650222E-004	1.000000000000000E+000	11	7.8615166E-002	2.4115235E-004	3.688895025723873E-006	-4.8456987E-004	2.7240010E-003	1.4104609E-003	3.0675041E-003	2.7374676E+001	3.112479855788280E-007
2.5118764E+005	3.0419150E+002	1.4589258E+002	3.3736792E+002	-2.5622734E+001	9.096493552060565E+000	-3.0650756E-001	2.2718052E-003	4.3429886E-003	8.1217103E-004	1.000000000000000E+000	11	9.1037005E-002	2.6984487E-004	4.256410411080449E-006	-8.3601190E-005	2.6726341E-003	1.2818158E-003	2.9641229E-003	2.5622734E+001	5.675153853565762E-007
2.2387173E+005	3.1707666E+002	1.4064844E+002	3.4687115E+002	-2.3921051E+001	9.691493153601186E+000	-3.0653509E-001	2.2466790E-003	5.0545898E-003	8.3103514E-004	1.000000000000000E+000	11	1.0463184E-001	3.0164470E-004	4.791128752486353E-006	-3.4074546E-006	2.6352869E-003	1.1689570E-003	2.8829149E-003	2.3921051E+001	5.347183414059046E-007
1.9954350E+005	3.2869495E+002	1.3480659E+002	3.5526495E+002	-2.2299847E+001	1.015147666880512E+001	-3.0646855E-001	2.2922803E-003	5.9165894E-003	8.5190067E-004	1.000000000000000E+000	11	1.1934108E-001	3.3592133E-004	4.853986957543788E-006	-1.0459260E-003	2.6042836E-003	1.0680864E-003	2.8148005E-003	2.2299847E+001	6.285820505743452E-008
1.7783180E+005	3.4019168E+002	1.2909605E+002	3.6386285E+002	-2.0780769E+001	1.061049015729805E+001	-3.0650976E-001	2.1925229E-003	6.9326255E-003	8.7266637E-004	1.000000000000000E+000	11	1.3521028E-001	3.7159681E-004	5.330404125142700E-006	-1.6379493E-004	2.5694978E-003	9.7507390E-004	2.7482882E-003	2.0780769E+001	4.764171675989119E-007
1.5848613E+005	3.4971454E+002	1.2276015E+002	3.7063501E+002	-1.9342583E+001	1.120648519889801E+001	-3.0647793E-001	2.3358311E-003	8.1803417E-003	8.9741522E-004	1.000000000000000E+000	11	1.2980977E-001	3.5023611E-004	5.003731116485546E-006	-3.4074546E-006	2.5457796E-003	8.9364400E-004	2.6980722E-003	1.9342583E+001	-3.266730086571537E-007
1.4125594E+005	3.5844043E+002	1.1656194E+002	3.7691675E+002	-1.8014109E+001	1.180247320057242E+001	-3.0646676E-001	2.4054388E-003	9.6662194E-003	9.2444126E-004	1.000000000000000E+000	11	1.2989028E-001	3.4461264E-004	5.445923688102792E-006	7.6786280E-005	2.5230516E-003	8.2047610E-004	2.6531059E-003	1.8014109E+001	4.421925716172456E-007
1.2590930E+005	3.6639615E+002	1.1044638E+002	3.8268073E+002	-1.6774897E+001	1.239949354893179E+001	-3.0645069E-001	2.2986077E-003	1.1444869E-002	9.5332426E-004	1.000000000000000E+000	11	1.2962073E-001	3.3871768E-004	5.727962701475109E-006	7.6786280E-005	2.5019448E-003	7.5418572E-004	2.6131445E-003	1.6774897E+001	2.820390133723167E-007
1.1220494E+005	3.7357193E+002	1.0453606E+002	3.8792239E+002	-1.5633132E+001	1.299547336387332E+001	-3.0641922E-001	2.1703739E-003	1.3568818E-002	9.8533649E-004	1.000000000000000E+000	11	1.2950046E-001	3.3383086E-004	6.261451437532540E-006	-7.2515110E-004	2.4824732E-003	6.9466664E-004	2.5778352E-003	1.5633132E+001	5.334887360574312E-007
1.0000371E+005	3.8020374E+002	9.8866394E+001	3.9284787E+002	-1.4576110E+001	1.359148259219364E+001	-3.0642852E-001	2.3088444E-003	1.6097384E-002	1.0195391E-003	1.000000000000000E+000	11	1.2953529E-001	3.2973397E-004	6.230093109402029E-006	-8.0534484E-004	2.4635852E-003	6.4061908E-004	2.5455146E-003	1.4576110E+001	-3.135832813051068E-008
8.9129305E+004	3.8612909E+002	9.3648148E+001	3.9732309E+002	-1.3632754E+001	1.418749480714905E+001	-3.0642375E-001	2.2811121E-003	1.9067792E-002	1.0592811E-003	1.000000000000000E+000	11	1.2933356E-001	3.2551232E-004	7.333058352294352E-006	-4.0437613E-004	2.4459348E-003	5.9321424E-004	2.5168434E-003	1.3632754E+001	1.102965242892323E-006
7.9433273E+004	3.9152530E+002	8.8654297E+001	4.0143698E+002	-1.2758514E+001	1.478347982213018E+001	-3.0641791E-001	2.3134965E-003	2.2600491E-002	1.1022566E-003	1.000000000000000E+000	11	1.2934087E-001	3.2219471E-004	8.102507795704392E-006	-8.3601190E-005	2.4295459E-003	5.5012963E-004	2.4910511E-003	1.2758514E+001	7.694494434100399E-007
7.0794977E+004	3.9643271E+002	8.4126831E+001	4.0526068E+002	-1.1980979E+001	1.524247957728221E+001	-3.0642787E-001	2.4117664E-003	2.6722873E-002	1.1515513E-003	1.000000000000000E+000	11	1.4013427E-001	3.4578799E-004	8.452866400692275E-006	-4.0437613E-004	2.4137958E-003	5.1223068E-004	2.4675475E-003	1.1980979E+001	3.503586049878829E-007
6.3093828E+004	4.0072513E+002	7.9953545E+001	4.0862354E+002	-1.1283606E+001	1.583848363228026E+001	-3.0641460E-001	2.3021430E-003	3.1549722E-002	1.2078811E-003	1.000000000000000E+000	11	1.3021642E-001	3.1867088E-004	8.539961297061786E-006	-1.6379493E-004	2.3999368E-003	4.7884061E-004	2.4472403E-003	1.1283606E+001	8.709489636951102E-008
5.6237012E+004	4.0453165E+002	7.6216011E+001	4.1164880E+002	-1.0669770E+001	1.629847706746659E+001	-3.0642891E-001	2.3466258E-003	3.7132286E-002	1.2728886E-003	1.000000000000000E+000	11	1.3921097E-001	3.3817897E-004	8.586181468199356E-006	-6.4495736E-004	2.3872550E-003	4.4977214E-004	2.4292553E-003	1.0669770E+001	4.622017113757010E-008
5.0122477E+004	4.0825156E+002	7.2929771E+001	4.1471445E+002	-1.0128441E+001	1.689348381568561E+001	-3.0640626E-001	2.2986063E-003	4.3539431E-002	1.3464621E-003	1.000000000000000E+000	11	1.2991068E-001	3.1325332E-004	8.530476164897361E-006	-3.2418242E-004	2.3737201E-003	4.2403972E-004	2.4112978E-003	1.0128441E+001	-5.570530330199564E-008
4.4666715E+004	4.1147354E+002	7.0021362E+001	4.1738885E+002	-9.6576347E+000	1.735347266422468E+001	-3.0642045E-001	2.3000964E-003	5.0886847E-002	1.4321384E-003	1.000000000000000E+000	11	1.3699356E-001	3.2821565E-004	8.763737504640529E-006	-9.6573232E-004	2.3618930E-003	4.0192853E-004	2.3958473E-003	9.6576347E+000	2.332613397431685E-007
3.9814063E+004	4.1454132E+002	6.7632248E+001	4.2002219E+002	-9.2661438E+000	1.794947909252369E+001	-3.0639216E-001	2.3518351E-003	5.9105765E-002	1.5324736E-003	1.000000000000000E+000	11	1.2953430E-001	3.0839871E-004	9.229303977794997E-006	-3.4074546E-006	2.3497592E-003	3.8336226E-004	2.3808265E-003	9.2661438E+000	4.655664731544675E-007
3.5480996E+004	4.1740488E+002	6.5690826E+001	4.2254245E+002	-8.9438019E+000	1.840949714105227E+001	-3.0641079E-001	2.2805533E-003	6.8284102E-002	1.6503967E-003	1.000000000000000E+000	11	1.3480619E-001	3.1903584E-004	9.333733849423879E-006	-8.3601190E-005	2.3378511E-003	3.6792902E-004	2.3666262E-003	8.9438019E+000	1.044298716288828E-007
3.1621143E+004	4.1977686E+002	6.4042519E+001	4.2463403E+002	-8.6743431E+000	1.886947236288688E+001	-3.0641082E-001	2.3205695E-003	7.8591242E-002	1.7876454E-003	1.000000000000000E+000	11	1.3942647E-001	3.2834502E-004	9.356681992484179E-006	-1.6379493E-004	2.3280317E-003	3.5517209E-004	2.3549690E-003	8.6743431E+000	2.294814306029950E-008
2.8188096E+004	4.2243484E+002	6.2964458E+001	4.2710153E+002	-8.4775972E+000	1.946447175115463E+001	-3.0638713E-001	2.3027000E-003	8.9672424E-002	1.9488912E-003	1.000000000000000E+000	11	1.2946646E-001	3.0312806E-004	9.391284759364984E-006	3.1736746E-004	2.3157808E-003	3.4517012E-004	2.3413636E-003	8.4775972E+000	3.460276688080471E-008
2.5116910E+004	4.2481476E+002	6.2409122E+001	4.2937451E+002	-8.3574848E+000	1.992449721301091E+001	-3.0639765E-001	2.2751552E-003	1.0153268E-001	2.1450107E-003	1.000000000000000E+000	11	1.3259766E-001	3.0881586E-004	9.587900127213087E-006	-5.6476361E-004	2.3042364E-003	3.3851314E-004	2.3289691E-003	8.3574848E+000	1.966153678481031E-007
2.2389027E+004	4.2701031E+002	6.2287273E+001	4.3152927E+002	-8.2991076E+000	2.038449139482691E+001	-3.0639905E-001	2.2150404E-003	1.1412627E-001	2.3777364E-003	1.000000000000000E+000	11	1.3522324E-001	3.1335821E-004	1.006577780263534E-005	-2.4398866E-004	2.2930729E-003	3.3448666E-004	2.3173399E-003	8.2991076E+000	4.778776754222541E-007
1.9948783E+004	4.2902707E+002	6.2599998E+001	4.3357004E+002	-8.3015327E+000	2.084448744336260E+001	-3.0640873E-001	2.3088432E-003	1.2744693E-001	2.6568042E-003	1.000000000000000E+000	11	1.3739851E-001	3.1690038E-004	1.051212710859464E-005	-9.6573232E-004	2.2822656E-003	3.3300888E-004	2.3064325E-003	8.3015327E+000	4.463493059593020E-007
1.7786895E+004	4.3095874E+002	6.3320877E+001	4.3558578E+002	-8.3586750E+000	2.130449050522293E+001	-3.0641133E-001	2.3010266E-003	1.4131007E-001	2.9862043E-003	1.000000000000000E+000	11	1.3919039E-001	3.1954760E-004	1.072119115058902E-005	-8.0534484E-004	2.2713721E-003	3.3373327E-004	2.2957590E-003	8.3586750E+000	2.090640419943749E-007
1.5847686E+004	4.3289661E+002	6.4605553E+001	4.3769092E+002	-8.4881830E+000	2.176348356701783E+001	-3.0640751E-001	2.2749703E-003	1.5544775E-001	3.3867962E-003	1.000000000000000E+000	11	1.4066866E-001	3.2138813E-004	1.081917884012930E-005	-1.6379493E-004	2.2596912E-003	3.3723668E-004	2.2847173E-003	8.4881830E+000	9.798768954028195E-008
1.4121879E+004	4.3499414E+002	6.6463707E+001	4.4004242E+002	-8.6871614E+000	2.235847596862004E+001	-3.0639282E-001	2.2597068E-003	1.6956767E-001	3.8683265E-003	1.000000000000000E+000	11	1.2941763E-001	2.9410262E-004	1.109788018716790E-005	-6.4495736E-004	2.2464374E-003	3.4323809E-004	2.2725081E-003	8.6871614E+000	2.787013470386030E-007
1.2590932E+004	4.3801068E+002	6.9196930E+001	4.4344287E+002	-8.9773932E+000	2.311947264472838E+001	-3.0635661E-001	1.8436422E-004	1.8267345E-001	4.4480916E-003	1.000000000000000E+000	12	1.2669277E-001	2.8570258E-004	1.140883863774393E-005	-1.6379493E-004	2.2274570E-003	3.5189369E-004	2.2550819E-003	8.9773932E+000	3.109584505760314E-007
1.1217711E+004	4.3995233E+002	7.2141953E+001	4.4582791E+002	-9.3123016E+000	2.357847578657675E+001	-3.0636862E-001	1.8626446E-004	1.9666542E-001	5.1495503E-003	1.000000000000000E+000	12	1.3134976E-001	2.9461985E-004	1.118109468915888E-005	-8.0534484E-004	2.2134574E-003	3.6295553E-004	2.2430180E-003	9.3123016E+000	-2.277439485850560E-007
1.0002229E+004	4.4199377E+002	7.5679626E+001	4.4842603E+002	-9.7161522E+000	2.403748476834153E+001	-3.0637544E-001	1.8553824E-004	2.1025401E-001	5.9885359E-003	1.000000000000000E+000	12	1.3536960E-001	3.0187721E-004	1.114126152097015E-005	-2.4398866E-004	2.1980344E-003	3.7635470E-004	2.2300221E-003	9.7161522E+000	-3.983316818873171E-008
8.9149297E+003	4.4387558E+002	7.9890274E+001	4.5100775E+002	-1.0203057E+001	2.451991969798109E+001	-3.0635780E-001	2.3173603E-004	2.2346438E-001	7.0117773E-003	1.000000000000000E+000	12	1.3874227E-001	3.0762723E-004	1.132944827143122E-005	3.1736746E-004	2.1821933E-003	3.9275878E-004	2.2172567E-003	1.0203057E+001	1.881867504610770E-007
7.9439976E+003	4.4578116E+002	8.4816277E+001	4.5377820E+002	-1.0772586E+001	2.519998949026922E+001	-3.0631837E-001	2.5416355E-004	2.3621191E-001	8.2522612E-003	1.000000000000000E+000	12	1.2924579E-001	2.8482149E-004	1.107647983221412E-005	-7.2515110E-004	2.1648831E-003	4.1190011E-004	2.2037197E-003	1.0772586E+001	-2.529684392171084E-007
7.0822334E+003	4.4781302E+002	9.0498833E+001	4.5686600E+002	-1.1425066E+001	2.577686069099582E+001	-3.0631313E-001	2.7031405E-004	2.4831726E-001	9.7435052E-003	1.000000000000000E+000	12	1.3135178E-001	2.8750615E-004	1.120232270407642E-005	-8.0534484E-004	2.1454531E-003	4.3357606E-004	2.1888255E-003	1.1425066E+001	1.258428718623099E-007
6.3077344E+003	4.4999460E+002	9.7027245E+001	4.6033621E+002	-1.2167757E+001	2.641155477447319E+001	-3.0630264E-001	2.8821614E-004	2.6004770E-001	1.1552877E-002	1.000000000000000E+000	12	1.3307349E-001	2.8907892E-004	1.112239415513694E-005	2.3717375E-004	2.1235233E-003	4.5787127E-004	2.1723253E-003	1.2167757E+001	-7.992854893948202E-008
5.6210552E+003	4.5211560E+002	1.0458630E+002	4.6405475E+002	-1.3024925E+001	2.711228862105054E+001	-3.0629811E-001	2.9743675E-004	2.7072445E-001	1.3751137E-002	1.000000000000000E+000	12	1.3440424E-001	2.8963014E-004	1.136743065143024E-005	-7.2515110E-004	2.0994768E-003	4.8566450E-004	2.1549182E-003	1.3024925E+001	2.450364962932992E-007
5.0116035E+003	4.5437875E+002	1.1303016E+002	4.6822629E+002	-1.3969227E+001	2.787270671057195E+001	-3.0630836E-001	2.7346227E-004	2.8096297E-001	1.6372921E-002	1.000000000000000E+000	12	1.3544483E-001	2.8927217E-004	1.163519627158126E-005	-4.0437613E-004	2.0725566E-003	5.1556423E-004	2.1357194E-003	1.3969227E+001	2.677656201510171E-007
4.4664292E+003	4.5672198E+002	1.2259650E+002	4.7288992E+002	-1.5025538E+001	2.863269917333673E+001	-3.0630124E-001	2.9339441E-004	2.9065755E-001	1.9535189E-002	1.000000000000000E+000	12	1.3623239E-001	2.8808479E-004	1.193278586049726E-005	-4.8456987E-004	2.0423578E-003	5.4822391E-004	2.1146571E-003	1.5025538E+001	2.975895889159995E-007
3.9812742E+003	4.5916861E+002	1.3336774E+002	4.7814514E+002	-1.6196194E+001	2.939269696943666E+001	-3.0629936E-001	3.0645219E-004	2.9974174E-001	2.3320042E-002	1.000000000000000E+000	12	1.3680443E-001	2.8611487E-004	1.187704999527907E-005	-4.8456987E-004	2.0084116E-003	5.8335281E-004	2.0914152E-003	1.6196194E+001	-5.573586521818989E-008
3.5465955E+003	4.6179745E+002	1.4553484E+002	4.8418723E+002	-1.7492174E+001	3.015293663219200E+001	-3.0631033E-001	2.7480337E-004	3.0834827E-001	2.7857928E-002	1.000000000000000E+000	12	1.3721049E-001	2.8338312E-004	1.197468540048996E-005	-1.6379493E-004	1.9698124E-003	6.2078371E-004	2.0653168E-003	1.7492174E+001	9.763540521089524E-008
3.1610112E+003	4.6461502E+002	1.5914554E+002	4.9111548E+002	-1.8907976E+001	3.091270088162855E+001	-3.0630726E-001	2.8452725E-004	3.1637317E-001	3.3221658E-002	1.000000000000000E+000	12	1.3747585E-001	2.7992571E-004	1.204526225932447E-005	-8.3601190E-005	1.9263092E-003	6.5982266E-004	2.0361810E-003	1.8907976E+001	7.057685883450483E-008
2.8172952E+003	4.6766772E+002	1.7438197E+002	4.9912140E+002	-2.0449268E+001	3.167292035772698E+001	-3.0631658E-001	2.7042537E-004	3.2395613E-001	3.9543670E-002	1.000000000000000E+000	12	1.3763160E-001	2.7574773E-004	1.190476653871317E-005	-8.0534484E-004	1.8772625E-003	6.9998577E-004	2.0035205E-003	2.0449268E+001	-1.404957206112955E-007
