EC-Lab ASCII FILE
Nb header lines : 60                          

Potentio Electrochemical Impedance Spectroscopy

Run on channel : 3 (SN 20921)
User : 
CE vs. WE compliance from -10 V to 10 V
Electrode connection : standard
Ewe ctrl range : min = -10.00 V, max = 10.00 V
Acquisition started on : 02/20/2020 14:50:41
Technique started on : 02/20/2020 14:50:42
Saved on :
	File : DE_65_7_60.mpr
	Directory : P:\Chemistry\Data\VMP3\Kyler\DOE\DE_65\60C\
	Host : 10.0.4.64
Device : VMP3 (SN 1432)
Address : USB
EC-Lab for windows v11.33 (software)
Internet server v11.32 (firmware)
Command interpretor v11.33 (firmware)
Electrode material : 
Initial state : 
Electrolyte : 
Comments : 
Electrode surface area : 0.001 cm²
Characteristic mass : 0.001 g
Equivalent Weight : 0.000 g/eq.
Density : 0.000 g/cm3
Record Analogic IN 1
Cycle Definition : Charge/Discharge alternance
Mode                Single sine         
E (V)               0.0000              
vs.                 Eoc                 
tE (h:m:s)          0:00:0.0000         
record              0                   
dI                  1.000               
unit dI             mA                  
dt (s)              0.000               
fi                  1.000               
unit fi             MHz                 
ff                  1.000               
unit ff             Hz                  
Nd                  20                  
Points              per decade          
spacing             Logarithmic         
Va (mV)             128.0               
pw                  0.50                
Na                  3                   
corr                0                   
E range min (V)     -10.000             
E range max (V)     10.000              
I Range             Auto                
Bandwidth           5                   
nc cycles           0                   
goto Ns'            0                   
nr cycles           0                   
inc. cycle          1                   

freq/Hz	Re(Z)/Ohm	-Im(Z)/Ohm	|Z|/Ohm	Phase(Z)/deg	time/s	<Ewe>/V	<I>/mA	Cs/µF	Cp/µF	cycle number	I Range	|Ewe|/V	|I|/A	(Q-Qo)/mA.h	Analog IN 1/V	Re(Y)/Ohm-1	Im(Y)/Ohm-1	|Y|/Ohm-1	Phase(Y)/deg	dq/mA.h	
1.0000186E+006	1.1648463E+002	8.0508888E+001	1.4159926E+002	-3.4650467E+001	1.949490572587820E+000	-3.6875960E-001	2.0124056E-004	1.9768251E-003	6.3904870E-004	1.000000000000000E+000	11	4.5179930E-003	3.1906897E-005	4.075927050265212E-008	2.6785929E-006	5.8096056E-003	4.0153353E-003	7.0621837E-003	3.4650467E+001	4.075927050265212E-008
8.9124669E+005	1.2350030E+002	7.9334007E+001	1.4678627E+002	-3.2715839E+001	2.545486574206734E+000	-3.6835232E-001	1.2575404E-004	2.2509343E-003	6.5752264E-004	1.000000000000000E+000	11	6.5203547E-003	4.4420740E-005	1.257908168053190E-007	8.2845378E-005	5.7318811E-003	3.6820401E-003	6.8126265E-003	3.2715839E+001	8.503154630266685E-008
7.9433269E+005	1.3107285E+002	7.8734116E+001	1.5290242E+002	-3.0992805E+001	3.141479242505739E+000	-3.6801115E-001	9.8914650E-005	2.5448063E-003	6.7476404E-004	1.000000000000000E+000	11	9.2244186E-003	6.0328795E-005	9.729401571005129E-008	-7.7488192E-005	5.6063989E-003	3.3677062E-003	6.5401187E-003	3.0992805E+001	-2.849680109526767E-008
7.0794981E+005	1.3908174E+002	7.8442688E+001	1.5967776E+002	-2.9423182E+001	3.737483004137175E+000	-3.6770263E-001	1.6415086E-004	2.8659275E-003	6.9164176E-004	1.000000000000000E+000	11	1.2697372E-002	7.9518722E-005	1.239147133540731E-007	-3.1798857E-004	5.4548304E-003	3.0765473E-003	6.2626125E-003	2.9423182E+001	2.662069764402179E-008
6.3095681E+005	1.4702173E+002	7.8148064E+001	1.6650078E+002	-2.7992472E+001	4.333483565802453E+000	-3.6743832E-001	1.7291197E-004	3.2277680E-003	7.1105990E-004	1.000000000000000E+000	11	1.6949818E-002	1.0180023E-004	-3.238534796537351E-008	-4.7832212E-004	5.3033340E-003	2.8189390E-003	6.0059777E-003	2.7992472E+001	-1.563000613194466E-007
5.6234225E+005	1.5487726E+002	7.7695045E+001	1.7327286E+002	-2.6640888E+001	4.929490634094691E+000	-3.6722919E-001	1.9173724E-004	3.6427227E-003	7.3240564E-004	1.000000000000000E+000	11	2.1972669E-002	1.2680964E-004	-4.504931147190897E-009	-3.9815533E-004	5.1585371E-003	2.5878090E-003	5.7712444E-003	2.6640888E+001	2.788041681818261E-008
5.0120619E+005	1.6230812E+002	7.6985077E+001	1.7964027E+002	-2.5375658E+001	5.526472262485186E+000	-3.6705562E-001	2.1056274E-004	4.1247457E-003	7.5753528E-004	1.000000000000000E+000	11	2.7770387E-002	1.5458887E-004	-1.048120962077519E-007	-4.7832212E-004	5.0295927E-003	2.3856082E-003	5.5666803E-003	2.5375658E+001	-1.003071650605610E-007
4.4668572E+005	1.6964883E+002	7.5745514E+001	1.8579050E+002	-2.4060003E+001	6.121470797370421E+000	-3.6692697E-001	1.7272802E-004	4.7039329E-003	7.8185817E-004	1.000000000000000E+000	11	3.4338079E-002	1.8482150E-004	-1.565978548678686E-007	-4.7832212E-004	4.9147778E-003	2.1943701E-003	5.3824065E-003	2.4060003E+001	-5.178575866011670E-008
3.9810347E+005	1.7660126E+002	7.4137230E+001	1.9153154E+002	-2.2772671E+001	6.716473812324693E+000	-3.6689532E-001	1.0227410E-004	5.3924709E-003	8.0794154E-004	1.000000000000000E+000	11	4.1726131E-002	2.1785514E-004	3.409805546204249E-007	-4.7832212E-004	4.8140786E-003	2.0209509E-003	5.2210721E-003	2.2772671E+001	4.975784094882936E-007
3.5480997E+005	1.8323230E+002	7.2181656E+001	1.9693721E+002	-2.1501226E+001	7.312474800652126E+000	-3.6687931E-001	1.6080000E-004	6.2143751E-003	8.3482527E-004	1.000000000000000E+000	11	4.9994782E-002	2.5386154E-004	1.893693113820013E-007	-1.5765498E-004	4.7243978E-003	1.8611066E-003	5.0777607E-003	2.1501226E+001	-1.516112432384236E-007
3.1622997E+005	1.8939731E+002	6.9966141E+001	2.0190741E+002	-2.0274969E+001	7.908478002267657E+000	-3.6689013E-001	1.4514464E-004	7.1933167E-003	8.6377474E-004	1.000000000000000E+000	11	5.9231181E-002	2.9335814E-004	1.098016051724294E-007	-2.3782176E-004	4.6458938E-003	1.7162613E-003	4.9527651E-003	2.0274969E+001	-7.956770620957185E-008
2.8183453E+005	1.9515756E+002	6.7583809E+001	2.0652856E+002	-1.9101164E+001	8.504486030578846E+000	-3.6688542E-001	9.2213741E-005	8.3557079E-003	8.9476362E-004	1.000000000000000E+000	11	6.9521457E-002	3.3661909E-004	8.874298309132832E-008	-1.5765498E-004	4.5753587E-003	1.5844641E-003	4.8419451E-003	1.9101164E+001	-2.105862208110112E-008
2.5118764E+005	2.0051726E+002	6.5013992E+001	2.1079372E+002	-1.7964321E+001	9.099480458855396E+000	-3.6689037E-001	6.9848582E-005	9.7457450E-003	9.2707179E-004	1.000000000000000E+000	11	8.0911368E-002	3.8384146E-004	3.980176991770147E-007	-2.3782176E-004	4.5126998E-003	1.4631590E-003	4.7439747E-003	1.7964321E+001	3.092747160856864E-007
2.2387173E+005	2.0539948E+002	6.2435783E+001	2.1467923E+002	-1.6907827E+001	9.695472620456712E+000	-3.6685097E-001	1.1570113E-004	1.1386422E-002	9.6310664E-004	1.000000000000000E+000	11	9.3413569E-002	4.3513090E-004	1.215904653970129E-006	-3.9815533E-004	4.4567599E-003	1.3547323E-003	4.6581123E-003	1.6907827E+001	8.178869547931147E-007
1.9954350E+005	2.0989082E+002	5.9880463E+001	2.1826550E+002	-1.5923097E+001	1.029047227543197E+001	-3.6685690E-001	1.6304431E-004	1.3319790E-002	1.0025303E-003	1.000000000000000E+000	11	1.0701404E-001	4.9029296E-004	1.830495538199709E-006	1.6301216E-004	4.4057849E-003	1.2569411E-003	4.5815762E-003	1.5923097E+001	6.145908842295792E-007
1.7783180E+005	2.1404956E+002	5.7338928E+001	2.2159641E+002	-1.4996135E+001	1.074948923054035E+001	-3.6685002E-001	8.9608227E-005	1.5608500E-002	1.0450447E-003	1.000000000000000E+000	11	1.2170467E-001	5.4921769E-004	2.027354264179141E-006	1.6301216E-004	4.3590204E-003	1.1676808E-003	4.5127086E-003	1.4996135E+001	1.968587259794325E-007
1.5848613E+005	2.1789288E+002	5.4905270E+001	2.2470403E+002	-1.4143119E+001	1.120948055907502E+001	-3.6684310E-001	1.2278587E-004	1.8290048E-002	1.0919964E-003	1.000000000000000E+000	11	1.3748109E-001	6.1183190E-004	2.137138754711487E-006	-2.3782176E-004	4.3154028E-003	1.0874075E-003	4.4502984E-003	1.4143119E+001	1.097844905323454E-007
1.4125594E+005	2.2142308E+002	5.2607922E+001	2.2758685E+002	-1.3365103E+001	1.180549157402129E+001	-3.6674407E-001	1.2427692E-004	2.1417178E-002	1.1443798E-003	1.000000000000000E+000	11	1.3010430E-001	5.7166879E-004	2.192072491433161E-006	-6.3865574E-004	4.2749252E-003	1.0156798E-003	4.3939268E-003	1.3365103E+001	5.493373672167469E-008
1.2590930E+005	2.2473122E+002	5.0445351E+001	2.3032336E+002	-1.2651462E+001	1.240147776235244E+001	-3.6672902E-001	4.4316039E-005	2.5057700E-002	1.2020083E-003	1.000000000000000E+000	11	1.2986997E-001	5.6385930E-004	2.117120677152545E-006	-3.9815533E-004	4.2363070E-003	9.5092261E-004	4.3417220E-003	1.2651462E+001	-7.495181428061612E-008
1.1220494E+005	2.2778850E+002	4.8436378E+001	2.3288126E+002	-1.2004437E+001	1.299749717730447E+001	-3.6667553E-001	9.3522671E-005	2.9284410E-002	1.2668079E-003	1.000000000000000E+000	11	1.2963963E-001	5.5667694E-004	2.412208754372033E-006	-6.3865574E-004	4.2001298E-003	8.9310517E-004	4.2940341E-003	1.2004437E+001	2.950880772194876E-007
1.0000371E+005	2.3059955E+002	4.6639503E+001	2.3526877E+002	-1.1434014E+001	1.359349189893692E+001	-3.6665761E-001	1.1942957E-004	3.4123227E-002	1.3410018E-003	1.000000000000000E+000	11	1.2960795E-001	5.5089314E-004	2.318054074528239E-006	-7.7488192E-005	4.1661020E-003	8.4260764E-004	4.2504580E-003	1.1434014E+001	-9.415467984379380E-008
8.9129305E+004	2.3328351E+002	4.4931232E+001	2.3757106E+002	-1.0901874E+001	1.418848848724156E+001	-3.6664534E-001	1.2148058E-004	3.9742142E-002	1.4215459E-003	1.000000000000000E+000	11	1.2950304E-001	5.4511288E-004	1.797560339046565E-006	-3.9815533E-004	4.1333004E-003	7.9608837E-004	4.2092670E-003	1.0901874E+001	-5.204937354816744E-007
7.9433273E+004	2.3580431E+002	4.3367855E+001	2.3975914E+002	-1.0421076E+001	1.478449587555951E+001	-3.6662686E-001	1.5018370E-004	4.6200827E-002	1.5115944E-003	1.000000000000000E+000	11	1.2946448E-001	5.3997722E-004	1.664917250713592E-006	8.2845378E-005	4.1020541E-003	7.5442763E-004	4.1708522E-003	1.0421076E+001	-1.326430883329723E-007
7.0794977E+004	2.3818532E+002	4.2008282E+001	2.4186140E+002	-1.0002283E+001	1.537947310376330E+001	-3.6659461E-001	1.2968130E-004	5.3515889E-002	1.6144309E-003	1.000000000000000E+000	11	1.2928507E-001	5.3454196E-004	1.226672253720204E-006	8.2845378E-005	4.0717567E-003	7.1812788E-004	4.1345991E-003	1.0002283E+001	-4.382449969933887E-007
6.3093828E+004	2.4042297E+002	4.0799843E+001	2.4386028E+002	-9.6313534E+000	1.583847792560118E+001	-3.6660182E-001	6.7055385E-005	6.1826516E-002	1.7306515E-003	1.000000000000000E+000	11	1.4021136E-001	5.7496596E-004	1.246351920941379E-006	-4.7832212E-004	4.0429076E-003	6.8608252E-004	4.1007088E-003	9.6313534E+000	1.967966722117538E-008
5.6237012E+004	2.4259694E+002	3.9781124E+001	2.4583696E+002	-9.3125010E+000	1.643447691391339E+001	-3.6657384E-001	6.5004315E-005	7.1141146E-002	1.8628617E-003	1.000000000000000E+000	11	1.3031341E-001	5.3008064E-004	2.425973718829886E-006	8.2845378E-005	4.0141256E-003	6.5823761E-004	4.0677367E-003	9.3125010E+000	1.179621797888507E-006
5.0122477E+004	2.4463719E+002	3.8910263E+001	2.4771227E+002	-9.0373602E+000	1.689347325570998E+001	-3.6656734E-001	1.5055675E-004	8.1606254E-002	2.0135238E-003	1.000000000000000E+000	11	1.3950941E-001	5.6319137E-004	2.025867240341742E-006	8.2845378E-005	3.9868280E-003	6.3411664E-004	4.0369420E-003	9.0373602E+000	-4.001064784881440E-007
4.4666715E+004	2.4661029E+002	3.8229935E+001	2.4955594E+002	-8.8119440E+000	1.748848176395404E+001	-3.6655155E-001	8.8675668E-005	9.3203574E-002	2.1872774E-003	1.000000000000000E+000	11	1.3005897E-001	5.2116159E-004	2.827438644304897E-006	-7.7488192E-005	3.9598197E-003	6.1385776E-004	4.0071178E-003	8.8119440E+000	8.015714039631550E-007
3.9814063E+004	2.4850502E+002	3.7700317E+001	2.5134848E+002	-8.6264763E+000	1.794847930580727E+001	-3.6654866E-001	7.2253342E-006	1.0603242E-001	2.3854820E-003	1.000000000000000E+000	11	1.3732879E-001	5.4636807E-004	3.319075514467032E-006	2.6785929E-006	3.9335317E-003	5.9675012E-004	3.9785402E-003	8.6264763E+000	4.916368701621346E-007
3.5480996E+004	2.5036768E+002	3.7395466E+001	2.5314500E+002	-8.4950228E+000	1.854448658743058E+001	-3.6655200E-001	5.7735208E-005	1.1995143E-001	2.6176076E-003	1.000000000000000E+000	11	1.2957969E-001	5.1187933E-004	3.019376302610100E-006	-7.1882247E-004	3.9069653E-003	5.8355293E-004	3.9503053E-003	8.4950228E+000	-2.996992118569323E-007
3.1621143E+004	2.5217128E+002	3.7231377E+001	2.5490494E+002	-8.3986578E+000	1.900447524929768E+001	-3.6654121E-001	1.0153615E-004	1.3518655E-001	2.8839994E-003	1.000000000000000E+000	11	1.3503154E-001	5.2973290E-004	2.564793224375333E-006	-4.7832212E-004	3.8809595E-003	5.7299732E-004	3.9230310E-003	8.3986578E+000	-4.545830782347667E-007
2.8188096E+004	2.5392488E+002	3.7256001E+001	2.5664343E+002	-8.3469143E+000	1.946348209775169E+001	-3.6653909E-001	6.5377579E-005	1.5155077E-001	3.1936720E-003	1.000000000000000E+000	11	1.3984728E-001	5.4490886E-004	2.680740389432888E-006	-7.1882247E-004	3.8551826E-003	5.6563452E-004	3.8964567E-003	8.3469143E+000	1.159471650575545E-007
2.5116910E+004	2.5569008E+002	3.7479607E+001	2.5842239E+002	-8.3391523E+000	2.005849761937861E+001	-3.6651242E-001	8.9234185E-005	1.6906701E-001	3.5562203E-003	1.000000000000000E+000	11	1.2960656E-001	5.0152990E-004	2.779892170931109E-006	-4.7832212E-004	3.8287197E-003	5.6122203E-004	3.8696337E-003	8.3391523E+000	9.915178149822154E-008
2.2389027E+004	2.5735107E+002	3.7916023E+001	2.6012921E+002	-8.3812008E+000	2.051749052116065E+001	-3.6651722E-001	4.8602786E-005	1.8748310E-001	3.9831754E-003	1.000000000000000E+000	11	1.3282649E-001	5.1061739E-004	2.805204485361982E-006	-3.9815533E-004	3.8031877E-003	5.6033093E-004	3.8442435E-003	8.3812008E+000	2.531231443087251E-008
1.9948783E+004	2.5902405E+002	3.8541088E+001	2.6187567E+002	-8.4631462E+000	2.097747971632634E+001	-3.6652258E-001	7.3019582E-005	2.0700450E-001	4.4837086E-003	1.000000000000000E+000	11	1.3554659E-001	5.1759905E-004	3.213205657698887E-006	-1.5765498E-004	3.7770241E-003	5.6199660E-004	3.8186060E-003	8.4631462E+000	4.080011723369050E-007
1.7786895E+004	2.6068927E+002	3.9388210E+001	2.6364810E+002	-8.5919771E+000	2.143747403155430E+001	-3.6652133E-001	8.6439046E-005	2.2717147E-001	5.0703385E-003	1.000000000000000E+000	11	1.3780332E-001	5.2267895E-004	3.536734728074710E-006	-3.1798857E-004	3.7503676E-003	5.6665263E-004	3.7929346E-003	8.5919771E+000	3.235290703758236E-007
1.5847686E+004	2.6232803E+002	4.0451984E+001	2.6542865E+002	-8.7661800E+000	2.189747824004735E+001	-3.6651897E-001	1.2334381E-004	2.4826440E-001	5.7663172E-003	1.000000000000000E+000	11	1.3966569E-001	5.2618922E-004	4.024857024270912E-006	8.2845378E-005	3.7234810E-003	5.7417498E-004	3.7674909E-003	8.7661800E+000	4.881222961962017E-007
1.4121879E+004	2.6400229E+002	4.1759327E+001	2.6728458E+002	-8.9884558E+000	2.249348402835312E+001	-3.6652645E-001	1.5052393E-005	2.6988214E-001	6.5876930E-003	1.000000000000000E+000	11	1.2935582E-001	4.8396291E-004	3.743413972351441E-006	2.6785929E-006	3.6953865E-003	5.8452849E-004	3.7413307E-003	8.9884558E+000	-2.814430519194703E-007
1.2590932E+004	2.6561429E+002	4.3374653E+001	2.6913251E+002	-9.2745047E+000	2.295247501015547E+001	-3.6650616E-001	8.3643281E-005	2.9142463E-001	7.5694788E-003	1.000000000000000E+000	11	1.3046838E-001	4.8477377E-004	3.300405011596417E-006	2.6785929E-006	3.6670691E-003	5.9883023E-004	3.7156418E-003	9.2745047E+000	-4.430089607550246E-007
1.1217711E+004	2.6726071E+002	4.5276340E+001	2.7106870E+002	-9.6151257E+000	2.341147295196424E+001	-3.6651278E-001	6.5563785E-005	3.1336075E-001	8.7423557E-003	1.000000000000000E+000	11	1.3136037E-001	4.8460174E-004	2.849534277668378E-006	8.2845378E-005	3.6372771E-003	6.1618711E-004	3.6891017E-003	9.6151257E+000	-4.508707339280388E-007
1.0002229E+004	2.6891714E+002	4.7484795E+001	2.7307733E+002	-1.0013937E+001	2.387149278711877E+001	-3.6651129E-001	7.2833245E-005	3.3509561E-001	1.0132265E-002	1.000000000000000E+000	11	1.3206004E-001	4.8359940E-004	2.382681706305448E-006	-2.3782176E-004	3.6061781E-003	6.3677103E-004	3.6619664E-003	1.0013937E+001	-4.668525713629305E-007
8.9149297E+003	2.7064050E+002	4.9997063E+001	2.7521988E+002	-1.0466597E+001	2.435392550341203E+001	-3.6649889E-001	9.0167268E-005	3.5707358E-001	1.1783847E-002	1.000000000000000E+000	11	1.3262086E-001	4.8187235E-004	2.716973413212044E-006	-7.7488192E-005	3.5730011E-003	6.6006224E-004	3.6334584E-003	1.0466597E+001	3.342917069065960E-007
7.9439976E+003	2.7235052E+002	5.2941788E+001	2.7744846E+002	-1.1000447E+001	2.488000358172576E+001	-3.6649770E-001	6.7800240E-005	3.7842727E-001	1.3778915E-002	1.000000000000000E+000	11	1.3305195E-001	4.7955554E-004	2.499096204584930E-006	-1.5765498E-004	3.5380470E-003	6.8775535E-004	3.6042731E-003	1.1000447E+001	-2.178772086271135E-007
7.0822334E+003	2.7415005E+002	5.6258228E+001	2.7986288E+002	-1.1596652E+001	2.545686888913042E+001	-3.6648968E-001	7.6933065E-005	3.9945132E-001	1.6141554E-002	1.000000000000000E+000	11	1.3339478E-001	4.7664336E-004	2.739882220626492E-006	-3.1798857E-004	3.5002390E-003	7.1828271E-004	3.5731783E-003	1.1596652E+001	2.407860160415618E-007
6.3077344E+003	2.7599094E+002	6.0067322E+001	2.8245190E+002	-1.2278509E+001	2.609154867925099E+001	-3.6648110E-001	-8.7833221E-005	4.2005724E-001	1.8997479E-002	1.000000000000000E+000	11	1.3366038E-001	4.7321466E-004	2.897689782207534E-006	4.0351250E-004	3.4594401E-003	7.5292075E-004	3.5404258E-003	1.2278509E+001	1.578075615810424E-007
5.6210552E+003	2.7793430E+002	6.4306908E+001	2.8527679E+002	-1.3027538E+001	2.679227207254735E+001	-3.6647058E-001	-6.7144203E-005	4.4029590E-001	2.2373144E-002	1.000000000000000E+000	11	1.3386010E-001	4.6922881E-004	2.502966849733234E-006	8.2845378E-005	3.4151459E-003	7.9017767E-004	3.5053676E-003	1.3027538E+001	-3.947229324742999E-007
5.0116035E+003	2.7997586E+002	6.9058395E+001	2.8836703E+002	-1.3855904E+001	2.755267693537462E+001	-3.6647326E-001	-1.1243675E-004	4.5986137E-001	2.6373556E-002	1.000000000000000E+000	11	1.3400687E-001	4.6470939E-004	2.308124883055118E-006	2.6785929E-006	3.3668934E-003	8.3047245E-004	3.4678027E-003	1.3855904E+001	-1.948419666781166E-007
4.4664292E+003	2.8208496E+002	7.4393410E+001	2.9172986E+002	-1.4774051E+001	2.831169878475339E+001	-3.6646590E-001	-5.8570582E-005	4.7898868E-001	3.1148158E-002	1.000000000000000E+000	11	1.3411187E-001	4.5971249E-004	2.640916884081283E-006	-7.7488192E-005	3.3145011E-003	8.7412325E-004	3.4278287E-003	1.4774051E+001	3.327920010261650E-007
3.9812742E+003	2.8437711E+002	8.0354637E+001	2.9551178E+002	-1.5778363E+001	2.907168034085043E+001	-3.6645266E-001	-8.9325011E-005	4.9749315E-001	3.6784038E-002	1.000000000000000E+000	11	1.3419116E-001	4.5409749E-004	2.222841591509577E-006	-1.5765498E-004	3.2564548E-003	9.2015573E-004	3.3839599E-003	1.5778363E+001	-4.180752925717062E-007
3.5465955E+003	2.8676636E+002	8.7022804E+001	2.9967969E+002	-1.6881071E+001	2.983093664355692E+001	-3.6647892E-001	-1.4058132E-004	5.1567423E-001	4.3483745E-002	1.000000000000000E+000	11	1.3424104E-001	4.4794843E-004	2.291041155232556E-006	-7.7488192E-005	3.1931079E-003	9.6898817E-004	3.3368962E-003	1.6881071E+001	6.819956372297972E-008
3.1610112E+003	2.8935458E+002	9.4416679E+001	3.0436917E+002	-1.8071554E+001	3.059069859966985E+001	-3.6648378E-001	-1.4076832E-004	5.3326786E-001	5.1314667E-002	1.000000000000000E+000	11	1.3427959E-001	4.4117344E-004	2.586536663312775E-006	2.6785929E-006	3.1234105E-003	1.0191719E-003	3.2854839E-003	1.8071554E+001	2.954955080802189E-007
2.8172952E+003	2.9213477E+002	1.0258939E+002	3.0962445E+002	-1.9349819E+001	3.135096268908819E+001	-3.6647731E-001	-1.0349078E-004	5.5066222E-001	6.0453262E-002	1.000000000000000E+000	11	1.3429186E-001	4.3372496E-004	2.841958307359568E-006	8.2845378E-005	3.0472826E-003	1.0701187E-003	3.2297191E-003	1.9349819E+001	2.554216440467929E-007
