EC-Lab ASCII FILE
Nb header lines : 60                          

Potentio Electrochemical Impedance Spectroscopy

Run on channel : 3 (SN 20921)
User : 
CE vs. WE compliance from -10 V to 10 V
Electrode connection : standard
Ewe ctrl range : min = -10.00 V, max = 10.00 V
Acquisition started on : 02/20/2020 14:48:52
Technique started on : 02/20/2020 14:48:53
Saved on :
	File : DE_65_11_60.mpr
	Directory : P:\Chemistry\Data\VMP3\Kyler\DOE\DE_65\60C\
	Host : 10.0.4.64
Device : VMP3 (SN 1432)
Address : USB
EC-Lab for windows v11.33 (software)
Internet server v11.32 (firmware)
Command interpretor v11.33 (firmware)
Electrode material : 
Initial state : 
Electrolyte : 
Comments : 
Electrode surface area : 0.001 cm²
Characteristic mass : 0.001 g
Equivalent Weight : 0.000 g/eq.
Density : 0.000 g/cm3
Record Analogic IN 1
Cycle Definition : Charge/Discharge alternance
Mode                Single sine         
E (V)               0.0000              
vs.                 Eoc                 
tE (h:m:s)          0:00:0.0000         
record              0                   
dI                  1.000               
unit dI             mA                  
dt (s)              0.000               
fi                  1.000               
unit fi             MHz                 
ff                  1.000               
unit ff             Hz                  
Nd                  20                  
Points              per decade          
spacing             Logarithmic         
Va (mV)             128.0               
pw                  0.50                
Na                  3                   
corr                0                   
E range min (V)     -10.000             
E range max (V)     10.000              
I Range             Auto                
Bandwidth           5                   
nc cycles           0                   
goto Ns'            0                   
nr cycles           0                   
inc. cycle          1                   

freq/Hz	Re(Z)/Ohm	-Im(Z)/Ohm	|Z|/Ohm	Phase(Z)/deg	time/s	<Ewe>/V	<I>/mA	Cs/µF	Cp/µF	cycle number	I Range	|Ewe|/V	|I|/A	(Q-Qo)/mA.h	Analog IN 1/V	Re(Y)/Ohm-1	Im(Y)/Ohm-1	|Y|/Ohm-1	Phase(Y)/deg	dq/mA.h	
1.0000186E+006	1.0105401E+002	4.9804787E+001	1.1266068E+002	-2.6236526E+001	1.949479399219854E+000	-2.7052916E-003	-5.0608530E-003	3.1955161E-003	6.2450854E-004	1.000000000000000E+000	11	3.7379097E-003	3.3178476E-005	-1.476065692903527E-006	-2.3782176E-004	7.9617547E-003	3.9239754E-003	8.8762110E-003	2.6236526E+001	-1.476065692903527E-006
8.9124669E+005	1.0461258E+002	4.7345406E+001	1.1482761E+002	-2.4350485E+001	2.544491480832221E+000	-2.2704639E-003	-4.0838094E-003	3.7717628E-003	6.4122054E-004	1.000000000000000E+000	11	5.3497679E-003	4.6589561E-005	-2.194334170293183E-006	-3.1798857E-004	7.9339836E-003	3.5907503E-003	8.7087071E-003	2.4350485E+001	-7.182684773896553E-007
7.9433269E+005	1.0886773E+002	4.5420128E+001	1.1796258E+002	-2.2646128E+001	3.140489135781536E+000	-1.9260311E-003	-3.3755358E-003	4.4113277E-003	6.5399968E-004	1.000000000000000E+000	11	7.5468509E-003	6.3976651E-005	-2.697074128575575E-006	-1.5765498E-004	7.8236721E-003	3.2640730E-003	8.4772650E-003	2.2646128E+001	-5.027399582823921E-007
7.0794981E+005	1.1341902E+002	4.4131954E+001	1.2170252E+002	-2.1261280E+001	3.735492924082791E+000	-1.6218193E-003	-2.8199137E-003	5.0940653E-003	6.6984090E-004	1.000000000000000E+000	11	1.0388254E-002	8.5357759E-005	-3.160501095983313E-006	-1.5765498E-004	7.6574953E-003	2.9795726E-003	8.2167564E-003	2.1261280E+001	-4.634269674077381E-007
6.3095681E+005	1.1771169E+002	4.2918808E+001	1.2529192E+002	-2.0032339E+001	4.331495672377059E+000	-1.3548279E-003	-2.2760343E-003	5.8772322E-003	6.8963930E-004	1.000000000000000E+000	11	1.3900835E-002	1.1094758E-004	-3.621358956977727E-006	-2.3782176E-004	7.4984841E-003	2.7340190E-003	7.9813609E-003	2.0032339E+001	-4.608578609944139E-007
5.6234225E+005	1.2179359E+002	4.1950016E+001	1.2881569E+002	-1.9005518E+001	4.927474660653388E+000	-1.1505909E-003	-1.9228297E-003	6.7466362E-003	7.1550725E-004	1.000000000000000E+000	11	1.8082757E-002	1.4037697E-004	-3.929422188411182E-006	-7.1882247E-004	7.3398454E-003	2.5281021E-003	7.7630295E-003	1.9005518E+001	-3.080632314334558E-007
5.0120619E+005	1.2564700E+002	4.0861340E+001	1.3212425E+002	-1.8014912E+001	5.524479142361088E+000	-9.8543835E-004	-1.5966495E-003	7.7712545E-003	7.4327795E-004	1.000000000000000E+000	11	2.2964686E-002	1.7381128E-004	-4.049490708998443E-006	-3.9815533E-004	7.1975891E-003	2.3407096E-003	7.5686332E-003	1.8014912E+001	-1.200685205872607E-007
4.4668572E+005	1.2920863E+002	3.9876846E+001	1.3522217E+002	-1.7151466E+001	6.119481197296409E+000	-8.6363807E-004	-1.4417603E-003	8.9350557E-003	7.7703944E-004	1.000000000000000E+000	11	2.8559834E-002	2.1120675E-004	-4.182000005782659E-006	2.4317895E-004	7.0663597E-003	2.1808462E-003	7.3952372E-003	1.7151466E+001	-1.325092967842160E-007
3.9810347E+005	1.3252856E+002	3.8740978E+001	1.3807492E+002	-1.6294788E+001	6.715495998942060E+000	-8.0783514E-004	-1.2261096E-003	1.0319380E-002	8.1239111E-004	1.000000000000000E+000	11	3.4923602E-002	2.5293225E-004	-4.364568630204303E-006	-4.7832212E-004	6.9515216E-003	2.0320809E-003	7.2424449E-003	1.6294788E+001	-1.825686244216440E-007
3.5480997E+005	1.3559503E+002	3.7628529E+001	1.4071928E+002	-1.5509691E+001	7.311479467229219E+000	-8.0138614E-004	-1.3261983E-003	1.1920846E-002	8.5238210E-004	1.000000000000000E+000	11	4.2097878E-002	2.9916211E-004	-4.863561852354097E-006	-2.3782176E-004	6.8475707E-003	1.9002467E-003	7.1063465E-003	1.5509691E+001	-4.989932221497944E-007
3.1622997E+005	1.3843173E+002	3.6460072E+001	1.4315265E+002	-1.4755433E+001	7.907492322236067E+000	-8.0051005E-004	-1.2425071E-003	1.3803829E-002	8.9543866E-004	1.000000000000000E+000	11	5.0194278E-002	3.5063465E-004	-5.777422257636014E-006	-3.9815533E-004	6.7551793E-003	1.7791752E-003	6.9855503E-003	1.4755433E+001	-9.138604052819164E-007
2.8183453E+005	1.4110550E+002	3.5305847E+001	1.4545537E+002	-1.4047506E+001	8.502475283836247E+000	-8.1532728E-004	-1.3233980E-003	1.5994817E-002	9.4235176E-004	1.000000000000000E+000	11	5.9296582E-002	4.0766169E-004	-5.658830951568638E-006	2.6785929E-006	6.6693644E-003	1.6687341E-003	6.8749613E-003	1.4047506E+001	1.185913060673760E-007
2.5118764E+005	1.4357047E+002	3.4189304E+001	1.4758519E+002	-1.3394711E+001	9.098474938800791E+000	-8.0542982E-004	-1.3192962E-003	1.8532397E-002	9.9454983E-004	1.000000000000000E+000	11	6.9457144E-002	4.7062407E-004	-5.303026582124100E-006	-2.3782176E-004	6.5914285E-003	1.5696569E-003	6.7757475E-003	1.3394711E+001	3.558043694445383E-007
2.2387173E+005	1.4586621E+002	3.3080303E+001	1.4957025E+002	-1.2777703E+001	9.693478060391499E+000	-7.9409749E-004	-1.2674798E-003	2.1490740E-002	1.0512352E-003	1.000000000000000E+000	11	8.0697246E-002	5.3952739E-004	-5.301397977096106E-006	3.2334571E-004	6.5202503E-003	1.4786965E-003	6.6858213E-003	1.2777703E+001	1.628605027993186E-009
1.9954350E+005	1.4799701E+002	3.2069717E+001	1.5143178E+002	-1.2226489E+001	1.029048747543129E+001	-8.0395688E-004	-1.2486539E-003	2.4870668E-002	1.1154334E-003	1.000000000000000E+000	11	9.2985690E-002	6.1404344E-004	-5.739373829288929E-006	-2.3782176E-004	6.4538503E-003	1.3984954E-003	6.6036335E-003	1.2226489E+001	-4.379758521928228E-007
1.7783180E+005	1.5002649E+002	3.1098152E+001	1.5321567E+002	-1.1710679E+001	1.088647726373165E+001	-7.7916798E-004	-1.2514440E-003	2.8779028E-002	1.1856020E-003	1.000000000000000E+000	11	1.0632653E-001	6.9396640E-004	-5.650323627649010E-006	-1.5765498E-004	6.3908934E-003	1.3247327E-003	6.5267477E-003	1.1710679E+001	8.905020163991964E-008
1.5848613E+005	1.5194800E+002	3.0213392E+001	1.5492270E+002	-1.1246030E+001	1.134547365884646E+001	-7.6382863E-004	-1.1962708E-003	3.3237580E-002	1.2641490E-003	1.000000000000000E+000	11	1.2066966E-001	7.7890232E-004	-6.403387682695514E-006	8.2845378E-005	6.3308915E-003	1.2588366E-003	6.4548319E-003	1.1246030E+001	-7.530640550465048E-007
1.4125594E+005	1.5377484E+002	2.9399189E+001	1.5655994E+002	-1.0823392E+001	1.180449181396398E+001	-7.6024910E-004	-1.1785617E-003	3.8324639E-002	1.3514111E-003	1.000000000000000E+000	11	1.3606866E-001	8.6911541E-004	-6.882990007452463E-006	-5.5848894E-004	6.2737036E-003	1.1994278E-003	6.3873301E-003	1.0823392E+001	-4.796023247569484E-007
1.2590930E+005	1.5554164E+002	2.8678255E+001	1.5816335E+002	-1.0446684E+001	1.240149186903727E+001	-6.7956495E-004	-1.0096945E-003	4.4076752E-002	1.4491167E-003	1.000000000000000E+000	11	1.2997589E-001	8.2178257E-004	-7.632122153719037E-006	-5.5848894E-004	6.2177749E-003	1.1464128E-003	6.3225776E-003	1.0446684E+001	-7.491321462665745E-007
1.1220494E+005	1.5722743E+002	2.8051714E+001	1.5971025E+002	-1.0115979E+001	1.299748469729093E+001	-6.5568945E-004	-9.7596005E-004	5.0564852E-002	1.5599187E-003	1.000000000000000E+000	11	1.2981024E-001	8.1278593E-004	-7.339509686612372E-006	-7.7488192E-005	6.1640018E-003	1.0997496E-003	6.2613389E-003	1.0115979E+001	2.926124671066651E-007
1.0000371E+005	1.5886256E+002	2.7507347E+001	1.6122646E+002	-9.8234682E+000	1.359348459230387E+001	-6.1297091E-004	-8.8071515E-004	5.7856917E-002	1.6841474E-003	1.000000000000000E+000	11	1.2969846E-001	8.0444897E-004	-7.581242012990616E-006	-2.3782176E-004	6.1115162E-003	1.0582203E-003	6.2024561E-003	9.8234682E+000	-2.417323263782437E-007
8.9129305E+004	1.6045457E+002	2.7043770E+001	1.6271765E+002	-9.5669861E+000	1.418849267388578E+001	-5.8436132E-004	-8.2610326E-004	6.6028647E-002	1.8238852E-003	1.000000000000000E+000	11	1.2961623E-001	7.9657143E-004	-5.780461550068139E-006	-7.7488192E-005	6.0601411E-003	1.0214048E-003	6.1456147E-003	9.5669861E+000	1.800780462922477E-006
7.9433273E+004	1.6197511E+002	2.6687330E+001	1.6415892E+002	-9.3561049E+000	1.478448542222031E+001	-5.6298339E-004	-7.8099774E-004	7.5077973E-002	1.9842384E-003	1.000000000000000E+000	11	1.2946910E-001	7.8868144E-004	-5.232302855498549E-006	-3.1798857E-004	6.0106209E-003	9.9032139E-004	6.0916580E-003	9.3561049E+000	5.481586945695903E-007
7.0794977E+004	1.6348247E+002	2.6413929E+001	1.6560257E+002	-9.1779871E+000	1.537948689048062E+001	-5.3871650E-004	-8.0112851E-004	8.5110798E-002	2.1652924E-003	1.000000000000000E+000	11	1.2948461E-001	7.8189978E-004	-5.005820407117021E-006	-2.3782176E-004	5.9612459E-003	9.6316088E-004	6.0385535E-003	9.1779871E+000	2.264824483815275E-007
6.3093828E+004	1.6495972E+002	2.6228909E+001	1.6703192E+002	-9.0345087E+000	1.597549201207585E+001	-5.1690987E-004	-7.1613566E-004	9.6172966E-002	2.3714530E-003	1.000000000000000E+000	11	1.2930726E-001	7.7414699E-004	-5.255274374167887E-006	-7.7488192E-005	5.9126061E-003	9.4011560E-004	5.9868796E-003	9.0345087E+000	-2.494539670508655E-007
5.6237012E+004	1.6641624E+002	2.6143625E+001	1.6845728E+002	-8.9280710E+000	1.643548518061289E+001	-5.2309723E-004	-7.9851865E-004	1.0825104E-001	2.6072590E-003	1.000000000000000E+000	11	1.4046127E-001	8.3380943E-004	-4.639234069567061E-006	-3.1798857E-004	5.8642994E-003	9.2126860E-004	5.9362231E-003	8.9280710E+000	6.160403046008261E-007
5.0122477E+004	1.6789421E+002	2.6168474E+001	1.6992133E+002	-8.8590059E+000	1.703049262220156E+001	-4.9829035E-004	-7.1110361E-004	1.2134146E-001	2.8778638E-003	1.000000000000000E+000	11	1.3040963E-001	7.6747063E-004	-3.323956286678973E-006	-4.7832212E-004	5.8148694E-003	9.0632227E-004	5.8850767E-003	8.8590059E+000	1.315277782888087E-006
4.4666715E+004	1.6933289E+002	2.6259485E+001	1.7135690E+002	-8.8149910E+000	1.749047813742072E+001	-5.0244620E-004	-7.1911706E-004	1.3569064E-001	3.1865381E-003	1.000000000000000E+000	11	1.3988559E-001	8.1634056E-004	-3.948395693211043E-006	-4.7832212E-004	5.7668425E-003	8.9429948E-004	5.8357730E-003	8.8149910E+000	-6.244394065320696E-007
3.9814063E+004	1.7081038E+002	2.6489893E+001	1.7285225E+002	-8.8154116E+000	1.808548912566039E+001	-4.8039784E-004	-7.0252927E-004	1.5090494E-001	3.5441639E-003	1.000000000000000E+000	11	1.3009241E-001	7.5262203E-004	-4.272661360710320E-006	-3.1798857E-004	5.7169474E-003	8.8660489E-004	5.7852878E-003	8.8154116E+000	-3.242656674992765E-007
3.5480996E+004	1.7230124E+002	2.6794346E+001	1.7437218E+002	-8.8391943E+000	1.854448882743600E+001	-4.8336087E-004	-6.6506531E-004	1.6740991E-001	3.9528753E-003	1.000000000000000E+000	11	1.3762113E-001	7.8923791E-004	-4.370298567757143E-006	-4.7832212E-004	5.6667500E-003	8.8122900E-004	5.7348600E-003	8.8391943E+000	-9.763720704682366E-008
3.1621143E+004	1.7383157E+002	2.7205435E+001	1.7594759E+002	-8.8948965E+000	1.914048968240968E+001	-4.7346437E-004	-6.8389252E-004	1.8500645E-001	4.4231494E-003	1.000000000000000E+000	11	1.2963606E-001	7.3678797E-004	-2.809970872407575E-006	8.2845378E-005	5.6151585E-003	8.7879796E-004	5.6835106E-003	8.8948965E+000	1.560327695349568E-006
2.8188096E+004	1.7538232E+002	2.7708275E+001	1.7755762E+002	-8.9778309E+000	1.960048343762173E+001	-4.7501104E-004	-6.7270827E-004	2.0377219E-001	4.9623256E-003	1.000000000000000E+000	11	1.3524416E-001	7.6169171E-004	-2.197410773284193E-006	-4.7832212E-004	5.5629760E-003	8.7888254E-004	5.6319744E-003	8.9778309E+000	6.125600991233819E-007
2.5116910E+004	1.7699519E+002	2.8298567E+001	1.7924315E+002	-9.0837545E+000	2.006049585944857E+001	-4.7040719E-004	-6.3412555E-004	2.2391824E-001	5.5812723E-003	1.000000000000000E+000	11	1.4021808E-001	7.8227860E-004	-2.732787599087412E-006	-3.1798857E-004	5.5090454E-003	8.8080409E-004	5.5790138E-003	9.0837545E+000	-5.353768258032181E-007
2.2389027E+004	1.7867821E+002	2.9007401E+001	1.8101749E+002	-9.2211981E+000	2.065647767446353E+001	-4.6466725E-004	-6.3375477E-004	2.4506207E-001	6.2929266E-003	1.000000000000000E+000	11	1.2965241E-001	7.1624247E-004	-2.299870709111322E-006	-7.1882247E-004	5.4529374E-003	8.8525366E-004	5.5243280E-003	9.2211981E+000	4.329168899760893E-007
1.9948783E+004	1.8043193E+002	2.9789003E+001	1.8287445E+002	-9.3748674E+000	2.111649001631304E+001	-4.5568342E-004	-5.9573026E-004	2.6782292E-001	7.1064653E-003	1.000000000000000E+000	11	1.3293701E-001	7.2693051E-004	-1.946294776337405E-006	-3.9815533E-004	5.3951973E-003	8.9073787E-004	5.4682326E-003	9.3748674E+000	3.535759327739169E-007
1.7786895E+004	1.8221806E+002	3.0632145E+001	1.8477487E+002	-9.5426016E+000	2.157549238475622E+001	-4.6136783E-004	-6.1213289E-004	2.9210743E-001	8.0280779E-003	1.000000000000000E+000	11	1.3565074E-001	7.3414063E-004	-1.292583192458147E-006	-2.3782176E-004	5.3371037E-003	8.9720479E-004	5.4119914E-003	9.5426016E+000	6.537115838792587E-007
1.5847686E+004	1.8413860E+002	3.1579729E+001	1.8682693E+002	-9.7315416E+000	2.203547379325028E+001	-4.6144234E-004	-6.0206861E-004	3.1801376E-001	9.0862298E-003	1.000000000000000E+000	11	1.3789968E-001	7.3811458E-004	-7.782127142082674E-007	-2.3782176E-004	5.2755275E-003	9.0475171E-004	5.3525474E-003	9.7315416E+000	5.143704782498793E-007
1.4121879E+004	1.8613037E+002	3.2596500E+001	1.8896309E+002	-9.9333200E+000	2.249449629508308E+001	-4.4938349E-004	-5.6590914E-004	3.4574562E-001	1.0288325E-002	1.000000000000000E+000	11	1.3971350E-001	7.3936925E-004	-4.636087108863446E-007	8.2845378E-005	5.2127070E-003	9.1288704E-004	5.2920389E-003	9.9333200E+000	3.146040033219227E-007
1.2590932E+004	1.8824094E+002	3.3692410E+001	1.9123239E+002	-1.0147665E+001	2.309149488343974E+001	-4.4491078E-004	-5.9573236E-004	3.7517181E-001	1.1645856E-002	1.000000000000000E+000	11	1.2938097E-001	6.7656412E-004	-8.794352974546200E-007	-1.5765498E-004	5.1474385E-003	9.2131720E-004	5.2292398E-003	1.0147665E+001	-4.158265865682753E-007
1.1217711E+004	1.9045033E+002	3.4846245E+001	1.9361195E+002	-1.0368584E+001	2.355148677193210E+001	-4.4569350E-004	-5.8678619E-004	4.0715516E-001	1.3188869E-002	1.000000000000000E+000	11	1.3042405E-001	6.7363639E-004	-1.048654756636905E-006	-5.5848894E-004	5.0806277E-003	9.2959031E-004	5.1649702E-003	1.0368584E+001	-1.692194591822853E-007
1.0002229E+004	1.9276967E+002	3.6052235E+001	1.9611198E+002	-1.0593214E+001	2.401147548711742E+001	-4.4668125E-004	-5.9442839E-004	4.4135812E-001	1.4915823E-002	1.000000000000000E+000	11	1.3122799E-001	6.6914823E-004	-4.252057101326096E-007	-3.9815533E-004	5.0122240E-003	9.3739777E-004	5.0991275E-003	1.0593214E+001	6.234490465042958E-007
8.9149297E+003	1.9517987E+002	3.7276424E+001	1.9870761E+002	-1.0812426E+001	2.449391287006438E+001	-4.2979509E-004	-5.0608092E-004	4.7892550E-001	1.6854173E-002	1.000000000000000E+000	11	1.3184923E-001	6.6353387E-004	-6.789493261074110E-007	-1.5765498E-004	4.9431752E-003	9.4407221E-004	5.0325198E-003	1.0812426E+001	-2.537436159748015E-007
7.9439976E+003	1.9771921E+002	3.8555664E+001	2.0144336E+002	-1.1034326E+001	2.501999900172814E+001	-4.3020520E-004	-4.9303530E-004	5.1962835E-001	1.9035457E-002	1.000000000000000E+000	11	1.3231440E-001	6.5683178E-004	-4.981525154196586E-007	2.4317895E-004	4.8724003E-003	9.5012836E-004	4.9641747E-003	1.1034326E+001	1.807968106877524E-007
7.0822334E+003	2.0033690E+002	3.9871693E+001	2.0426607E+002	-1.1256109E+001	2.559686830913415E+001	-4.1661793E-004	-4.9825403E-004	5.6361848E-001	2.1474453E-002	1.000000000000000E+000	11	1.3266206E-001	6.4945716E-004	1.631534559540645E-008	3.2334571E-004	4.8014070E-003	9.5559144E-004	4.8955758E-003	1.1256109E+001	5.144678610150651E-007
6.3077344E+003	2.0309993E+002	4.1208900E+001	2.0723840E+002	-1.1469589E+001	2.623055535249296E+001	-4.1190244E-004	-5.4708909E-004	6.1228794E-001	2.4210138E-002	1.000000000000000E+000	11	1.3292001E-001	6.4138696E-004	-5.238016981865157E-007	-7.7488192E-005	4.7289999E-003	9.5951231E-004	4.8253606E-003	1.1469589E+001	-5.401170437819222E-007
5.6210552E+003	2.0594943E+002	4.2582096E+001	2.1030550E+002	-1.1681865E+001	2.693125223912648E+001	-4.0612460E-004	-6.1120611E-004	6.6492897E-001	2.7260138E-002	1.000000000000000E+000	11	1.3310449E-001	6.3291017E-004	-1.073233694787632E-006	8.2845378E-005	4.6564974E-003	9.6277724E-004	4.7549875E-003	1.1681865E+001	-5.494319966011163E-007
5.0116035E+003	2.0886661E+002	4.3971428E+001	2.1344495E+002	-1.1888530E+001	2.769170870197559E+001	-4.1400859E-004	-6.3972565E-004	7.2222555E-001	3.0650830E-002	1.000000000000000E+000	11	1.3322379E-001	6.2415993E-004	-1.590348643876900E-006	2.6785929E-006	4.5845560E-003	9.6515892E-004	4.6850489E-003	1.1888530E+001	-5.171149490892680E-007
4.4664292E+003	2.1187852E+002	4.5360935E+001	2.1667978E+002	-1.2083999E+001	2.845169945806992E+001	-4.0321701E-004	-5.6945748E-004	7.8555697E-001	3.4427453E-002	1.000000000000000E+000	11	1.3330713E-001	6.1522645E-004	-1.948815360906640E-006	-7.7488192E-005	4.5128427E-003	9.6615142E-004	4.6151052E-003	1.2083999E+001	-3.584667170297405E-007
3.9812742E+003	2.1499387E+002	4.6829277E+001	2.2003487E+002	-1.2288051E+001	2.921168413417035E+001	-4.1553684E-004	-6.8594952E-004	8.5365140E-001	3.8666289E-002	1.000000000000000E+000	11	1.3335598E-001	6.0606748E-004	-1.557369051561384E-006	8.2845378E-005	4.4406145E-003	9.6724043E-004	4.5447345E-003	1.2288051E+001	3.914463093452567E-007
3.5465955E+003	2.1818469E+002	4.8327816E+001	2.2347290E+002	-1.2489346E+001	2.997193041024730E+001	-4.0004856E-004	-5.7374471E-004	9.2856288E-001	4.3426611E-002	1.000000000000000E+000	11	1.3338202E-001	5.9685996E-004	-1.649068638535634E-006	-3.9815533E-004	4.3689245E-003	9.6771494E-004	4.4748154E-003	1.2489346E+001	-9.169958697424977E-008
3.1610112E+003	2.2148546E+002	4.9869030E+001	2.2703024E+002	-1.2688952E+001	3.073169628636970E+001	-4.2058781E-004	-7.4205344E-004	1.0096321E+000	4.8714425E-002	1.000000000000000E+000	11	1.3339651E-001	5.8757153E-004	-1.434210483628703E-006	-7.7488192E-005	4.2971233E-003	9.6752791E-004	4.4046994E-003	1.2688952E+001	2.148581549069301E-007
2.8172952E+003	2.2485588E+002	5.1474133E+001	2.3067239E+002	-1.2894011E+001	3.149192629579920E+001	-4.0485719E-004	-6.2090106E-004	1.0974854E+000	5.4649420E-002	1.000000000000000E+000	11	1.3339399E-001	5.7828327E-004	-1.104246371396584E-006	-7.7488192E-005	4.2258394E-003	9.6738152E-004	4.3351525E-003	1.2894011E+001	3.299641122321191E-007
