EC-Lab ASCII FILE
Nb header lines : 60                          

Potentio Electrochemical Impedance Spectroscopy

Run on channel : 4 (SN 4192)
User : 
CE vs. WE compliance from -10 V to 10 V
Electrode connection : standard
Ewe ctrl range : min = -10.00 V, max = 10.00 V
Acquisition started on : 02/20/2020 14:49:02
Technique started on : 02/20/2020 14:49:03
Saved on :
	File : DE_65_12_60.mpr
	Directory : P:\Chemistry\Data\VMP3\Kyler\DOE\DE_65\60C\
	Host : 10.0.4.64
Device : VMP3 (SN 1432)
Address : USB
EC-Lab for windows v11.33 (software)
Internet server v11.32 (firmware)
Command interpretor v11.33 (firmware)
Electrode material : 
Initial state : 
Electrolyte : 
Comments : 
Electrode surface area : 0.001 cm²
Characteristic mass : 0.001 g
Equivalent Weight : 0.000 g/eq.
Density : 0.000 g/cm3
Record Analogic IN 1
Cycle Definition : Charge/Discharge alternance
Mode                Single sine         
E (V)               0.0000              
vs.                 Eoc                 
tE (h:m:s)          0:00:0.0000         
record              0                   
dI                  1.000               
unit dI             mA                  
dt (s)              0.000               
fi                  1.000               
unit fi             MHz                 
ff                  1.000               
unit ff             Hz                  
Nd                  20                  
Points              per decade          
spacing             Logarithmic         
Va (mV)             128.0               
pw                  0.50                
Na                  3                   
corr                0                   
E range min (V)     -10.000             
E range max (V)     10.000              
I Range             Auto                
Bandwidth           5                   
nc cycles           0                   
goto Ns'            0                   
nr cycles           0                   
inc. cycle          1                   

freq/Hz	Re(Z)/Ohm	-Im(Z)/Ohm	|Z|/Ohm	Phase(Z)/deg	time/s	<Ewe>/V	<I>/mA	Cs/µF	Cp/µF	cycle number	I Range	|Ewe|/V	|I|/A	(Q-Qo)/mA.h	Analog IN 1/V	Re(Y)/Ohm-1	Im(Y)/Ohm-1	|Y|/Ohm-1	Phase(Y)/deg	dq/mA.h	
1.0000186E+006	7.8472198E+001	2.4395624E+001	8.2176834E+001	-1.7269548E+001	1.951491265994264E+000	-1.9805182E-003	-8.6212037E-003	6.5237922E-003	5.7494355E-004	1.000000000000000E+000	11	2.5918833E-003	3.1540316E-005	-2.873129213538858E-006	-6.4495736E-004	1.1620291E-002	3.6125437E-003	1.2168880E-002	1.7269548E+001	-2.873129213538858E-006
8.9124669E+005	8.0062408E+001	2.1432001E+001	8.2881363E+001	-1.4986207E+001	2.546479400916724E+000	-1.7062834E-003	-6.7767929E-003	8.3321957E-003	5.5714877E-004	1.000000000000000E+000	11	3.6620849E-003	4.4184661E-005	-3.973032046043146E-006	-2.4398866E-004	1.1655070E-002	3.1199597E-003	1.2065439E-002	1.4986207E+001	-1.099902832504287E-006
7.9433269E+005	8.1301964E+001	1.9295547E+001	8.3560326E+001	-1.3351099E+001	3.141491989168571E+000	-1.4851245E-003	-5.8216448E-003	1.0383902E-002	5.5370003E-004	1.000000000000000E+000	11	5.1403749E-003	6.1516934E-005	-5.004307793607546E-006	2.3717375E-004	1.1643963E-002	2.7634834E-003	1.1967402E-002	1.3351099E+001	-1.031275747564400E-006
7.0794981E+005	8.2983368E+001	1.7757557E+001	8.4862068E+001	-1.2078520E+001	3.737489350809483E+000	-1.3235104E-003	-4.9135834E-003	1.2660022E-002	5.5433670E-004	1.000000000000000E+000	11	7.1342825E-003	8.4069157E-005	-5.851317892824024E-006	-2.4398866E-004	1.1522954E-002	2.4657892E-003	1.1783828E-002	1.2078520E+001	-8.470100992164788E-007
6.3095681E+005	8.4940460E+001	1.6767155E+001	8.6579552E+001	-1.1166562E+001	4.332492445741082E+000	-1.1862625E-003	-4.2465427E-003	1.5043925E-002	5.6422094E-004	1.000000000000000E+000	11	9.6513294E-003	1.1147354E-004	-6.551309842324473E-006	-2.4398866E-004	1.1331409E-002	2.2368080E-003	1.1550072E-002	1.1166562E+001	-6.999919495004487E-007
5.6234225E+005	8.6863419E+001	1.6019251E+001	8.8328194E+001	-1.0449018E+001	4.927479834033875E+000	-1.0887980E-003	-3.3353185E-003	1.7667586E-002	5.8111612E-004	1.000000000000000E+000	11	1.2708385E-002	1.4387688E-004	-7.109814597374579E-006	-3.2418242E-004	1.1133666E-002	2.0532578E-003	1.1321413E-002	1.0449018E+001	-5.585047550501056E-007
5.0120619E+005	8.7802284E+001	1.5240439E+001	8.9115166E+001	-9.8471060E+000	5.524486742360750E+000	-9.8630018E-004	-3.0289690E-003	2.0835610E-002	6.0939370E-004	1.000000000000000E+000	11	1.6153585E-002	1.8126640E-004	-7.425624933886866E-006	-8.3601190E-005	1.1056117E-002	1.9190853E-003	1.1221435E-002	9.8471060E+000	-3.158103365122870E-007
4.4668572E+005	8.8831787E+001	1.4674544E+001	9.0035706E+001	-9.3802471E+000	6.119473090657266E+000	-9.0196019E-004	-2.6105791E-003	2.4280265E-002	6.4499024E-004	1.000000000000000E+000	11	2.0305770E-002	2.2553018E-004	-7.513723901969166E-006	-1.0459260E-003	1.0958190E-002	1.8102354E-003	1.1106704E-002	9.3802471E+000	-8.809896808229996E-008
3.9810347E+005	9.0052948E+001	1.4190337E+001	9.1164131E+001	-8.9549026E+000	6.714475892222254E+000	-8.4633013E-004	-2.4110621E-003	2.8172895E-002	6.8260415E-004	1.000000000000000E+000	11	2.5088295E-002	2.7519919E-004	-7.729052540482371E-006	3.1736746E-004	1.0835524E-002	1.7074370E-003	1.0969226E-002	8.9549026E+000	-2.153286385132056E-007
3.5480997E+005	9.0790253E+001	1.3722018E+001	9.1821365E+001	-8.5946226E+000	7.309483973804163E+000	-8.2694157E-004	-2.1311417E-003	3.2689355E-002	7.3005375E-004	1.000000000000000E+000	11	3.0547822E-002	3.3268752E-004	-7.916628110979219E-006	-5.6476361E-004	1.0768413E-002	1.6275356E-003	1.0890711E-002	8.5946226E+000	-1.875755704968473E-007
3.1622997E+005	9.1626472E+001	1.3332770E+001	9.2591431E+001	-8.2791281E+000	7.904477682110155E+000	-8.1092713E-004	-2.1925571E-003	3.7748240E-002	7.8270107E-004	1.000000000000000E+000	11	3.6805063E-002	3.9749968E-004	-7.795500492800784E-006	3.9756121E-004	1.0687579E-002	1.5551733E-003	1.0800135E-002	8.2791281E+000	1.211276181784347E-007
2.8183453E+005	9.2463654E+001	1.3007125E+001	9.3374046E+001	-8.0074167E+000	8.499492830334930E+000	-8.0028200E-004	-2.2428073E-003	4.3415483E-002	8.4247085E-004	1.000000000000000E+000	11	4.3999229E-002	4.7121476E-004	-7.928967914886825E-006	-4.8456987E-004	1.0605196E-002	1.4918630E-003	1.0709614E-002	8.0074167E+000	-1.334674220860410E-007
2.5118764E+005	9.3159485E+001	1.2722361E+001	9.4024185E+001	-7.7765145E+000	9.095488511986332E+000	-8.3559123E-004	-2.1828774E-003	4.9802847E-002	9.1182272E-004	1.000000000000000E+000	11	5.2106652E-002	5.5418350E-004	-7.423982588461109E-006	2.3717375E-004	1.0537750E-002	1.4390920E-003	1.0635561E-002	7.7765145E+000	5.049853264257160E-007
2.2387173E+005	9.3750946E+001	1.2512671E+001	9.4582275E+001	-7.6021757E+000	9.691475793631980E+000	-7.9940556E-004	-1.9902429E-003	5.6816027E-002	9.9437765E-004	1.000000000000000E+000	11	6.1155755E-002	6.4658793E-004	-8.296874295625861E-006	-3.2418242E-004	1.0479876E-002	1.3987190E-003	1.0572805E-002	7.6021757E+000	-8.728917071647524E-007
1.9954350E+005	9.4319290E+001	1.2359231E+001	9.5125595E+001	-7.4652815E+000	1.028847163534374E+001	-8.1217522E-004	-2.2887690E-003	6.4534374E-002	1.0893795E-003	1.000000000000000E+000	11	7.1134426E-002	7.4779481E-004	-8.138670370736186E-006	-1.0459260E-003	1.0423313E-002	1.3658301E-003	1.0512418E-002	7.4652815E+000	1.582039248896758E-007
1.7783180E+005	9.4970833E+001	1.2295202E+001	9.5763412E+001	-7.3766494E+000	1.088347230359796E+001	-8.5835299E-004	-2.4566425E-003	7.2790556E-002	1.1999059E-003	1.000000000000000E+000	11	8.2125254E-002	8.5758488E-004	-8.364575104409595E-006	-1.1261198E-003	1.0355975E-002	1.3407149E-003	1.0442401E-002	7.3766494E+000	-2.259047336734098E-007
1.5848613E+005	9.5606461E+001	1.2295278E+001	9.6393822E+001	-7.3281860E+000	1.147949465186684E+001	-8.3148864E-004	-2.3306410E-003	8.1675261E-002	1.3288282E-003	1.000000000000000E+000	11	9.3968861E-002	9.7484322E-004	-7.771473246219103E-006	-1.6379493E-004	1.0289372E-002	1.3232441E-003	1.0374109E-002	7.3281860E+000	5.931018581904927E-007
1.4125594E+005	9.6237244E+001	1.2361028E+001	9.7027840E+001	-7.3191838E+000	1.207448705346906E+001	-8.2378904E-004	-2.2963935E-003	9.1150448E-002	1.4793647E-003	1.000000000000000E+000	11	1.0669773E-001	1.0996610E-003	-7.735817111931587E-006	-2.4398866E-004	1.0222343E-002	1.3129913E-003	1.0306320E-002	7.3191838E+000	3.565613428751585E-008
1.2590930E+005	9.6921883E+001	1.2492281E+001	9.7723633E+001	-7.3443737E+000	1.253447896867874E+001	-8.4107067E-004	-2.3799576E-003	1.0118604E-001	1.6535026E-003	1.000000000000000E+000	11	1.2046656E-001	1.2327270E-003	-9.149297275742962E-006	-4.8456987E-004	1.0148985E-002	1.3081048E-003	1.0232939E-002	7.3443737E+000	-1.413480163811376E-006
1.1220494E+005	9.7583153E+001	1.2700084E+001	9.8406120E+001	-7.4151530E+000	1.299447619050625E+001	-7.9755741E-004	-2.5640151E-003	1.1168673E-001	1.8602465E-003	1.000000000000000E+000	11	1.3541752E-001	1.3761087E-003	-8.472314786683354E-006	-6.4495736E-004	1.0076986E-002	1.3114820E-003	1.0161970E-002	7.4151530E+000	6.769824890596082E-007
1.0000371E+005	9.8366562E+001	1.2923384E+001	9.9211868E+001	-7.4846435E+000	1.359048101879307E+001	-8.1711396E-004	-2.1897403E-003	1.2314811E-001	2.0895510E-003	1.000000000000000E+000	11	1.3031566E-001	1.3135088E-003	-7.364817913556989E-006	-6.4495736E-004	9.9935597E-003	1.3129524E-003	1.0079439E-002	7.4846435E+000	1.107496873126365E-006
8.9129305E+004	9.9160515E+001	1.3199579E+001	1.0003518E+002	-7.5822535E+000	1.418547320706421E+001	-7.8749069E-004	-2.2025818E-003	1.3528185E-001	2.3553432E-003	1.000000000000000E+000	11	1.2979269E-001	1.2974704E-003	-4.814011676308130E-006	-3.2418242E-004	9.9090785E-003	1.3190296E-003	9.9964831E-003	7.5822535E+000	2.550806237248859E-006
7.9433273E+004	1.0001174E+002	1.3522387E+001	1.0092177E+002	-7.7001514E+000	1.478048339535599E+001	-7.8077934E-004	-2.1514026E-003	1.4817138E-001	2.6601206E-003	1.000000000000000E+000	11	1.2977816E-001	1.2859283E-003	-6.630271084716595E-006	-2.4398866E-004	9.8193167E-003	1.3276502E-003	9.9086650E-003	7.7001514E+000	-1.816259408408466E-006
7.0794977E+004	1.0092950E+002	1.3871950E+001	1.0187833E+002	-7.8258138E+000	1.537649014362250E+001	-7.7774056E-004	-2.1525193E-003	1.6206162E-001	3.0046336E-003	1.000000000000000E+000	11	1.2962934E-001	1.2723936E-003	-8.315887679863308E-006	-9.6573232E-004	9.7242128E-003	1.3365151E-003	9.8156296E-003	7.8258138E+000	-1.685616595146713E-006
6.3093828E+004	1.0191190E+002	1.4233187E+001	1.0290101E+002	-7.9505982E+000	1.597147393188789E+001	-7.6793443E-004	-2.0358285E-003	1.7722750E-001	3.3907527E-003	1.000000000000000E+000	11	1.2957916E-001	1.2592603E-003	-9.722611411733347E-006	-3.4074546E-006	9.6246647E-003	1.3441970E-003	9.7180782E-003	7.9505982E+000	-1.406723731870039E-006
5.6237012E+004	1.0297039E+002	1.4607290E+001	1.0400132E+002	-8.0740566E+000	1.656749142686022E+001	-7.7011570E-004	-2.0378781E-003	1.9374399E-001	3.8219928E-003	1.000000000000000E+000	11	1.2960397E-001	1.2461762E-003	-7.255059210505958E-006	7.6786280E-005	9.5199505E-003	1.3504919E-003	9.6152630E-003	8.0740566E+000	2.467552201227389E-006
5.0122477E+004	1.0407337E+002	1.4954738E+001	1.0514233E+002	-8.1770964E+000	1.716249366846750E+001	-7.6254673E-004	-2.0429026E-003	2.1232876E-001	4.2954748E-003	1.000000000000000E+000	11	1.2938043E-001	1.2305266E-003	-8.403652216876961E-006	-3.2418242E-004	9.4142212E-003	1.3527687E-003	9.5109167E-003	8.1770964E+000	-1.148593006371004E-006
4.4666715E+004	1.0522929E+002	1.5278040E+001	1.0633260E+002	-8.2609425E+000	1.762148395695840E+001	-7.3586835E-004	-1.8504495E-003	2.3322146E-001	4.8147188E-003	1.000000000000000E+000	11	1.4073735E-001	1.3235579E-003	-9.456022272119298E-006	-8.0534484E-004	9.3068732E-003	1.3512473E-003	9.4044544E-003	8.2609425E+000	-1.052370055242337E-006
3.9814063E+004	1.0647544E+002	1.5585187E+001	1.0761002E+002	-8.3274498E+000	1.821847113195690E+001	-7.3987711E-004	-1.9565439E-003	2.5649071E-001	5.3800982E-003	1.000000000000000E+000	11	1.3044897E-001	1.2122381E-003	-9.188330735306307E-006	-3.4074546E-006	9.1948360E-003	1.3458808E-003	9.2928149E-003	8.3274498E+000	2.676915368129913E-007
3.5480996E+004	1.0775290E+002	1.5825147E+001	1.0890878E+002	-8.3550243E+000	1.867847184717539E+001	-7.3055527E-004	-1.9913423E-003	2.8345007E-001	5.9847534E-003	1.000000000000000E+000	11	1.3987401E-001	1.2843226E-003	-1.010380785220898E-005	-4.0437613E-004	9.0845441E-003	1.3342031E-003	9.1819959E-003	8.3550243E+000	-9.154771169026698E-007
3.1621143E+004	1.0912089E+002	1.6031057E+001	1.1029217E+002	-8.3575954E+000	1.927349328875425E+001	-7.3793827E-004	-1.9606391E-003	3.1396440E-001	6.6330824E-003	1.000000000000000E+000	11	1.3013527E-001	1.1799140E-003	-1.319165248082977E-005	-6.4495736E-004	8.9705382E-003	1.3178708E-003	9.0668267E-003	8.3575954E+000	-3.087844628620789E-006
2.8188096E+004	1.1042189E+002	1.6153509E+001	1.1159718E+002	-8.3227072E+000	1.973349299057736E+001	-7.2701310E-004	-1.9007110E-003	3.4953246E-001	7.3234355E-003	1.000000000000000E+000	11	1.3731925E-001	1.2304904E-003	-1.257199351665945E-005	-4.8456987E-004	8.8664293E-003	1.2970611E-003	8.9608002E-003	8.3227072E+000	6.196589641703112E-007
2.5116910E+004	1.1182470E+002	1.6228197E+001	1.1299609E+002	-8.2572193E+000	2.032848387220292E+001	-7.3048117E-004	-1.8275650E-003	3.9046639E-001	8.0537349E-003	1.000000000000000E+000	11	1.2975086E-001	1.1482774E-003	-1.374358394015710E-005	-1.2865072E-003	8.7581202E-003	1.2709937E-003	8.8498639E-003	8.2572193E+000	-1.171590423497644E-006
2.2389027E+004	1.1312766E+002	1.6213970E+001	1.1428368E+002	-8.1563444E+000	2.078748400064069E+001	-7.1605132E-004	-1.8893571E-003	4.3842521E-001	8.8248188E-003	1.000000000000000E+000	11	1.3487831E-001	1.1802062E-003	-1.511695098120900E-005	-4.8456987E-004	8.6616445E-003	1.2414261E-003	8.7501556E-003	8.1563444E+000	-1.373367041051905E-006
1.9948783E+004	1.1442921E+002	1.6166540E+001	1.1556557E+002	-8.0415173E+000	2.124649308910011E+001	-7.2188640E-004	-1.8910323E-003	4.9349943E-001	9.6574808E-003	1.000000000000000E+000	11	1.3933460E-001	1.2056757E-003	-1.641820357845993E-005	-1.6379493E-004	8.5680094E-003	1.2104870E-003	8.6530959E-003	8.0415173E+000	-1.301252597250925E-006
1.7786895E+004	1.1575330E+002	1.6082945E+001	1.1686526E+002	-7.9101233E+000	2.184148183741490E+001	-7.2253944E-004	-1.7964863E-003	5.5635810E-001	1.0536945E-002	1.000000000000000E+000	11	1.2949333E-001	1.1080566E-003	-1.543758974783123E-005	-4.0437613E-004	8.4754461E-003	1.1775917E-003	8.5568633E-003	7.9101233E+000	9.806138306287017E-007
1.5847686E+004	1.1699827E+002	1.5954458E+001	1.1808107E+002	-7.7652378E+000	2.230149073924986E+001	-7.0548104E-004	-1.7635445E-003	6.2946594E-001	1.1491476E-002	1.000000000000000E+000	11	1.3230453E-001	1.1204551E-003	-1.577858916970824E-005	-8.0534484E-004	8.3911000E-003	1.1442516E-003	8.4687583E-003	7.7652378E+000	-3.409994218770104E-007
1.4121879E+004	1.1817126E+002	1.5788116E+001	1.1922127E+002	-7.6098623E+000	2.276147196107195E+001	-7.1455992E-004	-1.7008210E-003	7.1383417E-001	1.2518448E-002	1.000000000000000E+000	11	1.3457242E-001	1.1287618E-003	-1.499600516701402E-005	-3.2418242E-004	8.3138915E-003	1.1107665E-003	8.3877649E-003	7.6098623E+000	7.825840026942199E-007
1.2590932E+004	1.1931340E+002	1.5629254E+001	1.2033271E+002	-7.4628706E+000	2.322147320958902E+001	-7.1470899E-004	-1.7198055E-003	8.0876809E-001	1.3643730E-002	1.000000000000000E+000	11	1.3640967E-001	1.1336042E-003	-1.598533777720776E-005	-5.6476361E-004	8.2398970E-003	1.0793713E-003	8.3102919E-003	7.4628706E+000	-9.893326101937413E-007
1.1217711E+004	1.2040412E+002	1.5462022E+001	1.2139286E+002	-7.3177428E+000	2.368047608472989E+001	-7.1211765E-004	-1.8124918E-003	9.1759205E-001	1.4886613E-002	1.000000000000000E+000	11	1.3788322E-001	1.1358429E-003	-1.683390039739768E-005	3.9756121E-004	8.1706205E-003	1.0492525E-003	8.2377167E-003	7.3177428E+000	-8.485626201899244E-007
1.0002229E+004	1.2143919E+002	1.5320642E+001	1.2240179E+002	-7.1903887E+000	2.414047882656450E+001	-7.0542475E-004	-1.7903438E-003	1.0385953E+000	1.6271392E-002	1.000000000000000E+000	11	1.3904591E-001	1.1359793E-003	-1.811268796509062E-005	-1.7676697E-003	8.1055649E-003	1.0225896E-003	8.1698149E-003	7.1903887E+000	-1.278787567692940E-006
8.9149297E+003	1.2243304E+002	1.5207462E+001	1.2337389E+002	-7.0804701E+000	2.462290324951755E+001	-6.6411245E-004	-1.3719546E-003	1.1739388E+000	1.7836615E-002	1.000000000000000E+000	11	1.3997120E-001	1.1345285E-003	-1.809999858713935E-005	-3.2418242E-004	8.0436310E-003	9.9910295E-004	8.1054429E-003	7.0804701E+000	1.268937795126862E-008
7.9439976E+003	1.2337564E+002	1.5131818E+001	1.2430013E+002	-6.9923110E+000	2.514897940785158E+001	-6.3090969E-004	-1.2282726E-003	1.3240058E+000	1.9621355E-002	1.000000000000000E+000	11	1.4068772E-001	1.1318389E-003	-1.792234558718661E-005	-2.4398866E-004	7.9852091E-003	9.7937265E-004	8.0450438E-003	6.9923110E+000	1.776529999527472E-007
7.0822334E+003	1.2432378E+002	1.5112129E+001	1.2523888E+002	-6.9305658E+000	2.589487640326843E+001	-6.2626821E-004	-9.5282291E-004	1.4870455E+000	2.1651959E-002	1.000000000000000E+000	11	1.2933443E-001	1.0327019E-003	-1.994025161677241E-005	-6.4495736E-004	7.9263970E-003	9.6349017E-004	7.9847407E-003	6.9305658E+000	-2.017906029585800E-006
6.3077344E+003	1.2521110E+002	1.5123055E+001	1.2612108E+002	-6.8868518E+000	2.652954014003626E+001	-6.2116008E-004	-9.8148652E-004	1.6684270E+000	2.3988931E-002	1.000000000000000E+000	11	1.2973060E-001	1.0286195E-003	-1.917686154040631E-005	-4.0437613E-004	7.8716809E-003	9.5074519E-004	7.9288883E-003	6.8868518E+000	7.633900763660980E-007
5.6210552E+003	1.2609139E+002	1.5208156E+001	1.2700523E+002	-6.8773475E+000	2.723027625333634E+001	-6.1610795E-004	-9.7794854E-004	1.8617686E+000	2.6695350E-002	1.000000000000000E+000	11	1.3003212E-001	1.0238328E-003	-1.968129411670735E-005	-3.4074546E-006	7.8170383E-003	9.4282994E-004	7.8736916E-003	6.8773475E+000	-5.044325763010433E-007
5.0116035E+003	1.2695480E+002	1.5339259E+001	1.2787813E+002	-6.8893423E+000	2.799070047617715E+001	-6.2173803E-004	-1.1071148E-003	2.0703275E+000	2.9788954E-002	1.000000000000000E+000	11	1.3026021E-001	1.0186278E-003	-1.959856981443105E-005	-1.6379493E-004	7.7634836E-003	9.3801948E-004	7.8199459E-003	6.8893423E+000	8.272430227629826E-008
4.4664292E+003	1.2783821E+002	1.5542739E+001	1.2877960E+002	-6.9320736E+000	2.875069877893839E+001	-5.9916161E-004	-9.3942328E-004	2.2926202E+000	3.3395894E-002	1.000000000000000E+000	11	1.3043608E-001	1.0128629E-003	-1.939761621770352E-005	7.6786280E-005	7.7084410E-003	9.3720242E-004	7.7652051E-003	6.9320736E+000	2.009535967275336E-007
3.9812742E+003	1.2871455E+002	1.5819853E+001	1.2968309E+002	-7.0068817E+000	2.951069676170300E+001	-6.2382588E-004	-1.0529538E-003	2.5269439E+000	3.7603978E-002	1.000000000000000E+000	11	1.3055804E-001	1.0067469E-003	-1.880680318797790E-005	-7.2515110E-004	7.6535153E-003	9.4066665E-004	7.7111055E-003	7.0068817E+000	5.908130297256218E-007
3.5465955E+003	1.2962872E+002	1.6149694E+001	1.3063084E+002	-7.1015601E+000	3.027093938447069E+001	-6.2481395E-004	-1.1402448E-003	2.7787161E+000	4.2469908E-002	1.000000000000000E+000	11	1.3065557E-001	1.0001893E-003	-1.835427019971636E-005	-1.6379493E-004	7.5964341E-003	9.4639591E-004	7.6551600E-003	7.1015601E+000	4.525329882615360E-007
3.1610112E+003	1.3056381E+002	1.6551003E+001	1.3160867E+002	-7.2246008E+000	3.103070600723731E+001	-6.2431057E-004	-1.1346613E-003	3.0420742E+000	4.8111554E-002	1.000000000000000E+000	11	1.3071921E-001	9.9324167E-004	-1.784010681359117E-005	-3.2418242E-004	7.5379591E-003	9.5555402E-004	7.5982832E-003	7.2246008E+000	5.141633861251949E-007
2.8172952E+003	1.3154541E+002	1.7017366E+001	1.3264157E+002	-7.3711281E+000	3.179096430999925E+001	-6.1552989E-004	-1.0939015E-003	3.3196740E+000	5.4641273E-002	1.000000000000000E+000	11	1.3076997E-001	9.8588981E-004	-1.736265420947813E-005	1.5698001E-004	7.4768108E-003	9.6723723E-004	7.5391144E-003	7.3711281E+000	4.774526041130413E-007
