EC-Lab ASCII FILE
Nb header lines : 60                          

Potentio Electrochemical Impedance Spectroscopy

Run on channel : 2 (SN 20919)
User : 
CE vs. WE compliance from -10 V to 10 V
Electrode connection : standard
Ewe ctrl range : min = -10.00 V, max = 10.00 V
Acquisition started on : 02/20/2020 14:50:33
Technique started on : 02/20/2020 14:50:34
Saved on :
	File : DE_65_6_60.mpr
	Directory : P:\Chemistry\Data\VMP3\Kyler\DOE\DE_65\60C\
	Host : 10.0.4.64
Device : VMP3 (SN 1432)
Address : USB
EC-Lab for windows v11.33 (software)
Internet server v11.32 (firmware)
Command interpretor v11.33 (firmware)
Electrode material : 
Initial state : 
Electrolyte : 
Comments : 
Electrode surface area : 0.001 cm²
Characteristic mass : 0.001 g
Equivalent Weight : 0.000 g/eq.
Density : 0.000 g/cm3
Record Analogic IN 1
Cycle Definition : Charge/Discharge alternance
Mode                Single sine         
E (V)               0.0000              
vs.                 Eoc                 
tE (h:m:s)          0:00:0.0000         
record              0                   
dI                  1.000               
unit dI             mA                  
dt (s)              0.000               
fi                  1.000               
unit fi             MHz                 
ff                  1.000               
unit ff             Hz                  
Nd                  20                  
Points              per decade          
spacing             Logarithmic         
Va (mV)             128.0               
pw                  0.50                
Na                  3                   
corr                0                   
E range min (V)     -10.000             
E range max (V)     10.000              
I Range             Auto                
Bandwidth           5                   
nc cycles           0                   
goto Ns'            0                   
nr cycles           0                   
inc. cycle          1                   

freq/Hz	Re(Z)/Ohm	-Im(Z)/Ohm	|Z|/Ohm	Phase(Z)/deg	time/s	<Ewe>/V	<I>/mA	Cs/µF	Cp/µF	cycle number	I Range	|Ewe|/V	|I|/A	(Q-Qo)/mA.h	Analog IN 1/V	Re(Y)/Ohm-1	Im(Y)/Ohm-1	|Y|/Ohm-1	Phase(Y)/deg	dq/mA.h	
1.0000186E+006	9.8727257E+001	4.2676708E+001	1.0755637E+002	-2.3377319E+001	1.847488194383914E+000	8.1341147E-002	-8.6485030E-004	3.7292473E-003	5.8712513E-004	1.000000000000000E+000	11	1.8581991E-003	1.7276514E-005	-1.223326228872692E-007	-5.3730176E-004	8.5342387E-003	3.6890847E-003	9.2974501E-003	2.3377319E+001	-1.223326228872692E-007
8.9124669E+005	1.0160577E+002	3.9821278E+001	1.0913051E+002	-2.1401176E+001	2.442471609305358E+000	8.1782922E-002	-8.2898157E-004	4.4844276E-003	5.9709721E-004	1.000000000000000E+000	11	3.0490432E-003	2.7939421E-005	-2.334237501110895E-007	-5.6216748E-005	8.5315127E-003	3.3436655E-003	9.1633406E-003	2.1401176E+001	-1.110911272238203E-007
7.9433269E+005	1.0546671E+002	3.7641006E+001	1.1198247E+002	-1.9641453E+001	3.037474170938367E+000	8.2137316E-002	-8.4830920E-004	5.3230003E-003	6.0142134E-004	1.000000000000000E+000	11	4.7989525E-003	4.2854499E-005	-4.777434342852050E-007	-2.1657841E-004	8.4103746E-003	3.0016580E-003	8.9299697E-003	1.9641453E+001	-2.443196841741155E-007
7.0794981E+005	1.0960332E+002	3.6001987E+001	1.1536478E+002	-1.8184076E+001	3.633484065911034E+000	8.2429372E-002	-8.6243276E-004	6.2444066E-003	6.0813176E-004	1.000000000000000E+000	11	7.1988050E-003	6.2400373E-005	-6.963202638081486E-007	-1.3639758E-004	8.2352590E-003	2.7050795E-003	8.6681573E-003	1.8184076E+001	-2.185768295229436E-007
6.3095681E+005	1.1355828E+002	3.4672108E+001	1.1873347E+002	-1.6978706E+001	4.228492307505803E+000	8.2696259E-002	-8.1652770E-004	7.2751218E-003	6.2037515E-004	1.000000000000000E+000	11	1.0306755E-002	8.6805805E-005	-7.929707120448357E-007	2.3964079E-005	8.0551282E-003	2.4594266E-003	8.4222248E-003	1.6978706E+001	-9.665044823668715E-008
5.6234225E+005	1.1722566E+002	3.3338047E+001	1.2187404E+002	-1.5875330E+001	4.824479482456809E+000	8.2889862E-002	-9.1075205E-004	8.4894449E-003	6.3523900E-004	1.000000000000000E+000	11	1.4161084E-002	1.1619442E-004	-1.042632689755313E-006	2.6450655E-004	7.8922398E-003	2.2444902E-003	8.2051931E-003	1.5875330E+001	-2.496619777104772E-007
5.0120619E+005	1.2058451E+002	3.2019100E+001	1.2476316E+002	-1.4870728E+001	5.421486390783684E+000	8.3043143E-002	-8.1076473E-004	9.9173263E-003	6.5319089E-004	1.000000000000000E+000	11	1.8784625E-002	1.5056228E-004	-1.099982921802115E-006	1.0414491E-004	7.7467365E-003	2.0570098E-003	8.0151865E-003	1.4870728E+001	-5.735023204680256E-008
4.4668572E+005	1.2356971E+002	3.0649851E+001	1.2731413E+002	-1.3930335E+001	6.017484605807113E+000	8.3156846E-002	-9.7486691E-004	1.1624912E-002	6.7374139E-004	1.000000000000000E+000	11	2.4174446E-002	1.8988032E-004	-1.370058397903146E-006	1.0414491E-004	7.6235784E-003	1.8909290E-003	7.8545883E-003	1.3930335E+001	-2.700754761010304E-007
3.9810347E+005	1.2623203E+002	2.9343596E+001	1.2959773E+002	-1.3086428E+001	6.613489887415199E+000	8.3237134E-002	-8.3548139E-004	1.3624196E-002	6.9846190E-004	1.000000000000000E+000	11	3.0334262E-002	2.3406476E-004	-1.173452340614555E-006	-2.9675924E-004	7.5157923E-003	1.7471029E-003	7.7161845E-003	1.3086428E+001	1.966060572885909E-007
3.5480997E+005	1.2870216E+002	2.7898708E+001	1.3169125E+002	-1.2230751E+001	7.209474315721309E+000	8.3248898E-002	-8.2302815E-004	1.6078303E-002	7.2159671E-004	1.000000000000000E+000	11	3.7388705E-002	2.8391182E-004	-1.764176203379369E-006	-7.7784422E-004	7.4211634E-003	1.6086820E-003	7.5935186E-003	1.2230751E+001	-5.907238627648136E-007
3.1622997E+005	1.3087473E+002	2.6497742E+001	1.3353024E+002	-1.1445749E+001	7.805488637386588E+000	8.3250917E-002	-8.0276805E-004	1.8993642E-002	7.4793986E-004	1.000000000000000E+000	11	4.5341026E-002	3.3955622E-004	-2.222174901980907E-006	3.4468737E-004	7.3400079E-003	1.4861054E-003	7.4889404E-003	1.1445749E+001	-4.579986986015383E-007
2.8183453E+005	1.3282378E+002	2.5093855E+001	1.3517343E+002	-1.0698560E+001	8.400492638960714E+000	8.3237529E-002	-8.5517450E-004	2.2503939E-002	7.7555148E-004	1.000000000000000E+000	11	5.4244656E-002	4.0129674E-004	-2.760583653184262E-006	1.0414491E-004	7.2693094E-003	1.3733610E-003	7.3979036E-003	1.0698560E+001	-5.384087512033551E-007
2.5118764E+005	1.3458102E+002	2.3715054E+001	1.3665451E+002	-9.9937191E+000	8.996483333961805E+000	8.3226420E-002	-8.3473086E-004	2.6717618E-002	8.0463337E-004	1.000000000000000E+000	11	6.4231932E-002	4.7003155E-004	-2.894470920300591E-006	1.0414491E-004	7.2066910E-003	1.2699194E-003	7.3177242E-003	9.9937191E+000	-1.338872671163292E-007
2.2387173E+005	1.3611732E+002	2.2350433E+001	1.3794009E+002	-9.3247442E+000	9.592489175585797E+000	8.3216049E-002	-9.4029092E-004	3.1807892E-002	8.3507557E-004	1.000000000000000E+000	11	7.5235352E-002	5.4542045E-004	-3.713211625660834E-006	-1.3639758E-004	7.1537276E-003	1.1746404E-003	7.2495239E-003	9.3247442E+000	-8.187407053602432E-007
1.9954350E+005	1.3752654E+002	2.1067780E+001	1.3913087E+002	-8.7094698E+000	1.018947800397291E+001	8.3229698E-002	-9.4642077E-004	3.7858535E-002	8.6806907E-004	1.000000000000000E+000	11	8.7246753E-002	6.2708405E-004	-4.637068710108805E-006	-2.1657841E-004	7.1045975E-003	1.0883580E-003	7.1874773E-003	8.7094698E+000	-9.238570844479707E-007
1.7783180E+005	1.3877078E+002	1.9850258E+001	1.4018332E+002	-8.1405659E+000	1.078548445893102E+001	8.3240509E-002	-9.0664549E-004	4.5086298E-002	9.0403279E-004	1.000000000000000E+000	11	1.0025001E-001	7.1513507E-004	-4.502506734311787E-006	-1.3639758E-004	7.0616365E-003	1.0101212E-003	7.1335165E-003	8.1405659E+000	1.345619757970175E-007
1.5848613E+005	1.3990993E+002	1.8725685E+001	1.4115750E+002	-7.6232204E+000	1.138048219386837E+001	8.3244950E-002	-9.4158179E-004	5.3627949E-002	9.4375375E-004	1.000000000000000E+000	11	1.1417324E-001	8.0883579E-004	-3.185601138361057E-006	-5.6216748E-005	7.0216735E-003	9.3978777E-004	7.0842854E-003	7.6232204E+000	1.316905595950730E-006
1.4125594E+005	1.4093089E+002	1.7653454E+001	1.4203226E+002	-7.1398640E+000	1.184049733568099E+001	8.3253823E-002	-9.0069423E-004	6.3823961E-002	9.8598225E-004	1.000000000000000E+000	11	1.2907244E-001	9.0875447E-004	-3.839022006477333E-006	1.8432573E-004	6.9860588E-003	8.7509607E-004	7.0406543E-003	7.1398640E+000	-6.534208681162759E-007
1.2590930E+005	1.4185880E+002	1.6688797E+001	1.4283708E+002	-6.7096481E+000	1.243747739071841E+001	8.3277293E-002	-8.7002898E-004	7.5742096E-002	1.0339640E-003	1.000000000000000E+000	11	1.2917234E-001	9.0433337E-004	-3.632279441640195E-006	-5.3730176E-004	6.9530336E-003	8.1798073E-004	7.0009832E-003	6.7096481E+000	2.067425648371382E-007
1.1220494E+005	1.4272249E+002	1.5803612E+001	1.4359479E+002	-6.3186016E+000	1.303347688567010E+001	8.3293289E-002	-9.9213002E-004	8.9753583E-002	1.0871443E-003	1.000000000000000E+000	11	1.2968346E-001	9.0312096E-004	-3.679230414635337E-006	-1.3639758E-004	6.9217365E-003	7.6644146E-004	6.9640409E-003	6.3186016E+000	-4.695097299514191E-008
1.0000371E+005	1.4350824E+002	1.5015072E+001	1.4429161E+002	-5.9730463E+000	1.362849115396966E+001	8.3322108E-002	-8.3527545E-004	1.0599286E-001	1.1477552E-003	1.000000000000000E+000	11	1.2977746E-001	8.9941104E-004	-3.848632863974975E-006	2.3964079E-005	6.8927845E-003	7.2118262E-004	6.9304099E-003	5.9730463E+000	-1.694024493396381E-007
8.9129305E+004	1.4423645E+002	1.4296354E+001	1.4494322E+002	-5.6605253E+000	1.422447296892642E+001	8.3340585E-002	-8.3155779E-004	1.2490341E-001	1.2151478E-003	1.000000000000000E+000	11	1.2952937E-001	8.9365593E-004	-3.658116585633252E-006	-2.1657841E-004	6.8656108E-003	6.8050215E-004	6.8992535E-003	5.6605253E+000	1.905162783417233E-007
7.9433273E+004	1.4491600E+002	1.3656357E+001	1.4555804E+002	-5.3834476E+000	1.481949326387257E+001	8.3361499E-002	-7.8862737E-004	1.4671780E-001	1.2914574E-003	1.000000000000000E+000	11	1.2951960E-001	8.8981405E-004	-3.143708009350424E-006	1.8432573E-004	6.8398081E-003	6.4455863E-004	6.8701115E-003	5.3834476E+000	5.144085762828276E-007
7.0794977E+004	1.4555185E+002	1.3085828E+001	1.4613890E+002	-5.1373610E+000	1.541449769210885E+001	8.3380483E-002	-7.4792880E-004	1.7179736E-001	1.3774860E-003	1.000000000000000E+000	11	1.2951499E-001	8.8624586E-004	-4.939167357568092E-006	-4.5712088E-004	6.8153166E-003	6.1273057E-004	6.8428051E-003	5.1373610E+000	-1.795459348217668E-006
6.3093828E+004	1.4614317E+002	1.2605681E+001	1.4668582E+002	-4.9298854E+000	1.601048526712111E+001	8.3385684E-002	-7.8007916E-004	2.0010914E-001	1.4778260E-003	1.000000000000000E+000	11	1.2932169E-001	8.8162365E-004	-4.760086441748879E-006	-5.6216748E-005	6.7920717E-003	5.8585487E-004	6.8172915E-003	4.9298854E+000	1.790809158192130E-007
5.6237012E+004	1.4673067E+002	1.2189716E+001	1.4723613E+002	-4.7489676E+000	1.646948478222475E+001	8.3365209E-002	-9.2615467E-004	2.3216903E-001	1.5913390E-003	1.000000000000000E+000	11	1.4068213E-001	9.5548650E-004	-4.351849355346834E-006	-2.1657841E-004	6.7684953E-003	5.6229578E-004	6.7918114E-003	4.7489676E+000	4.082370864020457E-007
5.0122477E+004	1.4728807E+002	1.1842592E+001	1.4776340E+002	-4.5969372E+000	1.706447297046543E+001	8.3385348E-002	-8.7300275E-004	2.6812717E-001	1.7222677E-003	1.000000000000000E+000	11	1.3038518E-001	8.8239159E-004	-5.142483323379161E-006	1.0414491E-004	6.7458055E-003	5.4239167E-004	6.7675756E-003	4.5969372E+000	-7.906339680323271E-007
4.4666715E+004	1.4783261E+002	1.1564105E+001	1.4828423E+002	-4.4728146E+000	1.752447435233626E+001	8.3373562E-002	-8.7690464E-004	3.0812296E-001	1.8739511E-003	1.000000000000000E+000	11	1.4017045E-001	9.4528234E-004	-5.168133023279046E-006	2.3964079E-005	6.7232670E-003	5.2592292E-004	6.7438055E-003	4.4728146E+000	-2.564969989988546E-008
3.9814063E+004	1.4836543E+002	1.1360586E+001	1.4879974E+002	-4.3786883E+000	1.812048787399544E+001	8.3387040E-002	-9.2875707E-004	3.5187054E-001	2.0510678E-003	1.000000000000000E+000	11	1.3017777E-001	8.7485206E-004	-4.974122010565932E-006	2.6450655E-004	6.7008263E-003	5.1309337E-004	6.7204419E-003	4.3786883E+000	1.940110127131144E-007
3.5480996E+004	1.4888934E+002	1.1218753E+001	1.4931142E+002	-4.3090711E+000	1.858047986918245E+001	8.3396681E-002	-8.7801984E-004	3.9983401E-001	2.2572668E-003	1.000000000000000E+000	11	1.3812266E-001	9.2506432E-004	-5.635691210342985E-006	1.0414491E-004	6.6784797E-003	5.0322077E-004	6.6974116E-003	4.3090711E+000	-6.615691997770531E-007
3.1621143E+004	1.4941206E+002	1.1125216E+001	1.4982568E+002	-4.2583833E+000	1.917547216409002E+001	8.3416238E-002	-8.0219546E-004	4.5241201E-001	2.4944711E-003	1.000000000000000E+000	11	1.2977970E-001	8.6620456E-004	-4.991328744528195E-006	-1.3639758E-004	6.6559971E-003	4.9560529E-004	6.6744229E-003	4.2583833E+000	6.443624658147905E-007
2.8188096E+004	1.4995053E+002	1.1104140E+001	1.5036111E+002	-4.2351384E+000	1.963549477260676E+001	8.3414800E-002	-8.0609776E-004	5.0847483E-001	2.7731175E-003	1.000000000000000E+000	11	1.3587621E-001	9.0366584E-004	-5.932656823550739E-006	1.8432573E-004	6.6324952E-003	4.9114972E-004	6.6506555E-003	4.2351384E+000	-9.413280790225443E-007
2.5116910E+004	1.5049385E+002	1.1128833E+001	1.5090477E+002	-4.2292538E+000	2.023148933422635E+001	8.3411485E-002	-8.3620532E-004	5.6938273E-001	3.0966890E-003	1.000000000000000E+000	11	1.2934573E-001	8.5713482E-004	-6.576851075854695E-006	-5.6216748E-005	6.6086510E-003	4.8870151E-004	6.6266959E-003	4.2292538E+000	-6.441942523039565E-007
2.2389027E+004	1.5103000E+002	1.1210116E+001	1.5144547E+002	-4.2449627E+000	2.069147434274782E+001	8.3411314E-002	-8.5386110E-004	6.3412488E-001	3.4744213E-003	1.000000000000000E+000	11	1.3378417E-001	8.8338181E-004	-6.195698478556652E-006	1.8432573E-004	6.5849228E-003	4.8876216E-004	6.6030370E-003	4.2449627E+000	3.811525972980435E-007
1.9948783E+004	1.5159341E+002	1.1333996E+001	1.5201653E+002	-4.2758069E+000	2.115149452458718E+001	8.3406448E-002	-7.6985749E-004	7.0391577E-001	3.9129579E-003	1.000000000000000E+000	11	1.3765272E-001	9.0551161E-004	-5.687271655498585E-006	-5.6216748E-005	6.5599228E-003	4.9045758E-004	6.5782322E-003	4.2758069E+000	5.084268230580672E-007
1.7786895E+004	1.5217128E+002	1.1527673E+001	1.5260730E+002	-4.3321433E+000	2.174648028620868E+001	8.3410479E-002	-8.0424116E-004	7.7620846E-001	4.4290544E-003	1.000000000000000E+000	11	1.2931025E-001	8.4733986E-004	-6.146580391666956E-006	1.8432573E-004	6.5340446E-003	4.9498380E-004	6.5527665E-003	4.3321433E+000	-4.593087361683710E-007
1.5847686E+004	1.5275916E+002	1.1753701E+001	1.5321066E+002	-4.3998232E+000	2.220649628140382E+001	8.3426923E-002	-7.1967964E-004	8.5443622E-001	5.0286446E-003	1.000000000000000E+000	11	1.3186893E-001	8.6070335E-004	-6.896922414559715E-006	1.0414491E-004	6.5077259E-003	5.0072203E-004	6.5269610E-003	4.3998232E+000	-7.503420228927596E-007
1.4121879E+004	1.5337610E+002	1.2032915E+001	1.5384738E+002	-4.4858747E+000	2.266548115652404E+001	8.3417058E-002	-8.3564804E-004	9.3660575E-001	5.7295207E-003	1.000000000000000E+000	11	1.3399428E-001	8.7095588E-004	-6.650752957457573E-006	2.3964079E-005	6.4800363E-003	5.0838251E-004	6.4999480E-003	4.4858747E+000	2.461694571021419E-007
1.2590932E+004	1.5400154E+002	1.2361149E+001	1.5449684E+002	-4.5890870E+000	2.312449440496857E+001	8.3417058E-002	-7.8379590E-004	1.0225945E+000	6.5460890E-003	1.000000000000000E+000	11	1.3572550E-001	8.7850011E-004	-6.708964694666469E-006	-2.9675924E-004	6.4518740E-003	5.1786867E-004	6.4726244E-003	4.5890870E+000	-5.821173720889552E-008
1.1217711E+004	1.5465601E+002	1.2729568E+001	1.5517900E+002	-4.7053466E+000	2.358448704014882E+001	8.3411038E-002	-7.9550501E-004	1.1145569E+000	7.5000417E-003	1.000000000000000E+000	11	1.3715261E-001	8.8383490E-004	-7.542440286439766E-006	-5.6216748E-005	6.4224526E-003	5.2862510E-004	6.4441711E-003	4.7053466E+000	-8.334755917732968E-007
1.0002229E+004	1.5532117E+002	1.3148595E+001	1.5587671E+002	-4.8387938E+000	2.404447743538185E+001	8.3420150E-002	-8.1985164E-004	1.2101632E+000	8.6107347E-003	1.000000000000000E+000	11	1.3828336E-001	8.8713289E-004	-7.389119106920487E-006	-2.9675924E-004	6.3924622E-003	5.4114900E-004	6.4153266E-003	4.8387938E+000	1.533211795192784E-007
8.9149297E+003	1.5601550E+002	1.3629210E+001	1.5660968E+002	-4.9925728E+000	2.452691916495678E+001	8.3433963E-002	-7.1540556E-004	1.3098800E+000	9.9205477E-003	1.000000000000000E+000	11	1.3919881E-001	8.8882633E-004	-7.249735070463632E-006	-5.6216748E-005	6.3610752E-003	5.5569108E-004	6.3853012E-003	4.9925728E+000	1.393840364568557E-007
7.9439976E+003	1.5673404E+002	1.4152365E+001	1.5737169E+002	-5.1595540E+000	2.505299001661479E+001	8.3446138E-002	-7.4198080E-004	1.4156373E+000	1.1448717E-002	1.000000000000000E+000	11	1.3992129E-001	8.8911346E-004	-8.003553537529013E-006	1.8432573E-004	6.3286358E-003	5.7144678E-004	6.3543832E-003	5.1595540E+000	-7.538184670653813E-007
7.0822334E+003	1.5747208E+002	1.4732613E+001	1.5815974E+002	-5.3448620E+000	2.562986004402046E+001	8.3453298E-002	-6.2954397E-004	1.5253522E+000	1.3235421E-002	1.000000000000000E+000	11	1.4049423E-001	8.8830589E-004	-7.553195786545984E-006	1.0414491E-004	6.2952307E-003	5.8896275E-004	6.3227215E-003	5.3448620E+000	4.503577509830285E-007
6.3077344E+003	1.5821906E+002	1.5375310E+001	1.5896437E+002	-5.5504241E+000	2.644853744286229E+001	8.3465382E-002	-8.1613520E-004	1.6410539E+000	1.5352215E-002	1.000000000000000E+000	11	1.2929150E-001	8.1333634E-004	-9.160704861679632E-006	2.3964079E-005	6.2612239E-003	6.0844910E-004	6.2907180E-003	5.5504241E+000	-1.607509075133648E-006
5.6210552E+003	1.5900345E+002	1.6086802E+001	1.5981516E+002	-5.7771082E+000	2.714929238284822E+001	8.3464555E-002	-7.9810771E-004	1.7600807E+000	1.7833479E-002	1.000000000000000E+000	11	1.2960613E-001	8.1097521E-004	-9.830097705269711E-006	-2.9675924E-004	6.2254486E-003	6.2984513E-004	6.2572290E-003	5.7771082E+000	-6.693928435900790E-007
5.0116035E+003	1.5981766E+002	1.6846777E+001	1.6070314E+002	-6.0174675E+000	2.790969876565941E+001	8.3465882E-002	-7.7469164E-004	1.8850660E+000	2.0716269E-002	1.000000000000000E+000	11	1.2985907E-001	8.0806803E-004	-1.037501319313499E-005	-5.6216748E-005	6.1883666E-003	6.5233110E-004	6.2226537E-003	6.0174675E+000	-5.449154878652836E-007
4.4664292E+003	1.6064102E+002	1.7683098E+001	1.6161136E+002	-6.2817335E+000	2.866966877509549E+001	8.3463237E-002	-8.8211114E-004	2.0151219E+000	2.4125386E-002	1.000000000000000E+000	11	1.3004345E-001	8.0466777E-004	-1.108189271103927E-005	1.0414491E-004	6.1505325E-003	6.7704043E-004	6.1876839E-003	6.2817335E+000	-7.068795179042764E-007
3.9812742E+003	1.6149995E+002	1.8613647E+001	1.6256908E+002	-6.5746050E+000	2.942970854452142E+001	8.3479434E-002	-7.6298293E-004	2.1476650E+000	2.8154878E-002	1.000000000000000E+000	11	1.3019164E-001	8.0083893E-004	-1.059294589424583E-005	1.0414491E-004	6.1107785E-003	7.0429663E-004	6.1512315E-003	6.5746050E+000	4.889468167934362E-007
3.5465955E+003	1.6239362E+002	1.9621925E+001	1.6357477E+002	-6.8896160E+000	3.018994610061054E+001	8.3461203E-002	-8.1371935E-004	2.2870038E+000	3.2909211E-002	1.000000000000000E+000	11	1.3029899E-001	7.9657143E-004	-1.061251596508211E-005	-1.3639758E-004	6.0692681E-003	7.3334610E-004	6.1134123E-003	6.8896160E+000	-1.957007083627801E-008
3.1610112E+003	1.6330275E+002	2.0738640E+001	1.6461433E+002	-7.2375374E+000	3.094970381671737E+001	8.3464444E-002	-8.8266958E-004	2.4278052E+000	3.8533553E-002	1.000000000000000E+000	11	1.3037667E-001	7.9201284E-004	-1.040219410260033E-005	1.0414491E-004	6.0264035E-003	7.6532335E-004	6.0748053E-003	7.2375374E+000	2.103218624817790E-007
2.8172952E+003	1.6425578E+002	2.1938812E+001	1.6571443E+002	-7.6076808E+000	3.170895067942911E+001	8.3468549E-002	-8.4717176E-004	2.5749846E+000	4.5131546E-002	1.000000000000000E+000	11	1.3043514E-001	7.8710791E-004	-1.037022223506938E-005	-1.3639758E-004	5.9813610E-003	7.9890009E-004	6.0344776E-003	7.6076808E+000	3.197186753095623E-008
