EC-Lab ASCII FILE
Nb header lines : 60                          

Potentio Electrochemical Impedance Spectroscopy

Run on channel : 1 (SN 20909)
User : 
CE vs. WE compliance from -10 V to 10 V
Electrode connection : standard
Ewe ctrl range : min = -10.00 V, max = 10.00 V
Acquisition started on : 02/20/2020 14:48:36
Technique started on : 02/20/2020 14:48:37
Saved on :
	File : DE_65_9_60.mpr
	Directory : P:\Chemistry\Data\VMP3\Kyler\DOE\DE_65\60C\
	Host : 10.0.4.64
Device : VMP3 (SN 1432)
Address : USB
EC-Lab for windows v11.33 (software)
Internet server v11.32 (firmware)
Command interpretor v11.33 (firmware)
Electrode material : 
Initial state : 
Electrolyte : 
Comments : 
Electrode surface area : 0.001 cm²
Characteristic mass : 0.001 g
Equivalent Weight : 0.000 g/eq.
Density : 0.000 g/cm3
Record Analogic IN 1
Cycle Definition : Charge/Discharge alternance
Mode                Single sine         
E (V)               0.0000              
vs.                 Eoc                 
tE (h:m:s)          0:00:0.0000         
record              0                   
dI                  1.000               
unit dI             mA                  
dt (s)              0.000               
fi                  1.000               
unit fi             MHz                 
ff                  1.000               
unit ff             Hz                  
Nd                  20                  
Points              per decade          
spacing             Logarithmic         
Va (mV)             128.0               
pw                  0.50                
Na                  3                   
corr                0                   
E range min (V)     -10.000             
E range max (V)     10.000              
I Range             Auto                
Bandwidth           5                   
nc cycles           0                   
goto Ns'            0                   
nr cycles           0                   
inc. cycle          1                   

freq/Hz	Re(Z)/Ohm	-Im(Z)/Ohm	|Z|/Ohm	Phase(Z)/deg	time/s	<Ewe>/V	<I>/mA	Cs/µF	Cp/µF	cycle number	I Range	|Ewe|/V	|I|/A	(Q-Qo)/mA.h	Analog IN 1/V	Re(Y)/Ohm-1	Im(Y)/Ohm-1	|Y|/Ohm-1	Phase(Y)/deg	dq/mA.h	
1.0000186E+006	7.3998802E+001	1.0262755E+002	1.2652366E+002	-5.4206802E+001	1.645475064782659E+000	-3.1978926E-001	6.5929501E-004	1.5507725E-003	1.0203109E-003	1.000000000000000E+000	11	7.3556934E-004	5.8136902E-006	2.534123013281512E-007	2.1918953E-005	4.6225451E-003	6.4109215E-003	7.9036597E-003	5.4206802E+001	2.534123013281512E-007
8.9124669E+005	8.4146194E+001	1.0155879E+002	1.3188924E+002	-5.0356670E+001	2.241484373080311E+000	-3.1927475E-001	5.9341453E-004	1.7583474E-003	1.0426079E-003	1.000000000000000E+000	11	1.3806078E-003	1.0467934E-005	3.145586684946061E-007	1.0212145E-004	4.8374417E-003	5.8384668E-003	7.5821197E-003	5.0356670E+001	6.114636716645488E-008
7.9433269E+005	9.5138184E+001	1.0274622E+002	1.4002878E+002	-4.7201756E+001	2.836494081391720E+000	-3.1881371E-001	6.2906125E-004	1.9500774E-003	1.0499024E-003	1.000000000000000E+000	11	1.9020652E-003	1.3583388E-005	3.777692500944896E-007	-2.1868854E-004	4.8519941E-003	5.2399989E-003	7.1413890E-003	4.7201756E+001	6.321058159988349E-008
7.0794981E+005	1.0575446E+002	1.0310285E+002	1.4769632E+002	-4.4272625E+001	3.432497096335283E+000	-3.1838667E-001	5.9677503E-004	2.1804541E-003	1.0625491E-003	1.000000000000000E+000	11	1.8841176E-003	1.2756700E-005	5.440465267448518E-007	-2.1868854E-004	4.8479633E-003	4.7264094E-003	6.7706495E-003	4.4272625E+001	1.662772766503622E-007
6.3095681E+005	1.1579508E+002	1.0573336E+002	1.5680576E+002	-4.2399437E+001	4.028492031298811E+000	-3.1799054E-001	6.3988724E-004	2.3856596E-003	1.0846972E-003	1.000000000000000E+000	11	9.1304217E-004	5.8227592E-006	5.740175605848587E-007	-2.1868854E-004	4.7094063E-003	4.3001939E-003	6.3773170E-003	4.2399437E+001	2.997103384000690E-008
5.6234225E+005	1.2724050E+002	1.0450774E+002	1.6465726E+002	-3.9397636E+001	4.624482406274183E+000	-3.1767309E-001	5.9267005E-004	2.7081391E-003	1.0909531E-003	1.000000000000000E+000	11	1.4008487E-003	8.5076645E-006	5.082664629509155E-007	2.6252642E-004	4.6931412E-003	3.8546654E-003	6.0732216E-003	3.9397636E+001	-6.575109763394320E-008
5.0120619E+005	1.3766777E+002	1.0574026E+002	1.7358980E+002	-3.7527248E+001	5.221478541294346E+000	-3.1738439E-001	5.9845712E-004	3.0030555E-003	1.1142835E-003	1.000000000000000E+000	11	5.3148046E-003	3.0617033E-005	4.171019294046548E-007	2.1918953E-005	4.5686080E-003	3.5090696E-003	5.7607074E-003	3.7527248E+001	-9.116453354626066E-008
4.4668572E+005	1.4788702E+002	1.0576547E+002	1.8181558E+002	-3.5571499E+001	5.816473129583756E+000	-3.1710795E-001	6.9121388E-004	3.3687917E-003	1.1399867E-003	1.000000000000000E+000	11	1.0883481E-002	5.9860002E-005	3.604357611345929E-007	-2.1868854E-004	4.4737104E-003	3.1994972E-003	5.5000787E-003	3.5571499E+001	-5.666616827006186E-008
3.9810347E+005	1.5786490E+002	1.0515867E+002	1.8968307E+002	-3.3668808E+001	6.412491717870580E+000	-3.1694475E-001	7.7165320E-004	3.8017109E-003	1.1684553E-003	1.000000000000000E+000	11	1.8114246E-002	9.5497431E-005	2.651103278686707E-007	-5.8283542E-005	4.3876139E-003	2.9227247E-003	5.2719517E-003	3.3668808E+001	-9.532543326592229E-008
3.5480997E+005	1.6794177E+002	1.0433055E+002	1.9771014E+002	-3.1849812E+001	7.008487346203765E+000	-3.1682885E-001	7.1697083E-004	4.2994493E-003	1.1972309E-003	1.000000000000000E+000	11	2.6929868E-002	1.3620884E-004	6.313566184479795E-007	-5.8283542E-005	4.2963615E-003	2.6690308E-003	5.0579095E-003	3.1849812E+001	3.662462905793088E-007
3.1622997E+005	1.7758347E+002	1.0277810E+002	2.0518095E+002	-3.0060516E+001	7.604498147818958E+000	-3.1674564E-001	7.2312902E-004	4.8968471E-003	1.2286936E-003	1.000000000000000E+000	11	3.7363380E-002	1.8209965E-004	1.149428378902182E-006	-2.1868854E-004	4.2182123E-003	2.4413299E-003	4.8737465E-003	3.0060516E+001	5.180717604542023E-007
2.8183453E+005	1.8671896E+002	1.0054697E+002	2.1206995E+002	-2.8302181E+001	8.200485989480512E+000	-3.1670547E-001	6.9103186E-004	5.6163860E-003	1.2625153E-003	1.000000000000000E+000	11	4.9254298E-002	2.3225497E-004	1.450304905528254E-006	-5.8283542E-005	4.1517401E-003	2.2356857E-003	4.7154254E-003	2.8302181E+001	3.008765266260727E-007
2.5118764E+005	1.9548734E+002	9.8062973E+001	2.1870447E+002	-2.6639870E+001	8.795476444385713E+000	-3.1669465E-001	6.0480915E-004	6.4612539E-003	1.2990073E-003	1.000000000000000E+000	11	6.2608652E-002	2.8627057E-004	2.165541624349620E-006	-4.5929602E-004	4.0869876E-003	2.0501693E-003	4.5723803E-003	2.6639870E+001	7.152367188213653E-007
2.2387173E+005	2.0372830E+002	9.5214325E+001	2.2487994E+002	-2.5049475E+001	9.391485406056745E+000	-3.1661353E-001	9.1685925E-004	7.4665253E-003	1.3385103E-003	1.000000000000000E+000	11	7.7255890E-002	3.4354281E-004	2.220970420693953E-006	-4.5929602E-004	4.0285606E-003	1.8827855E-003	4.4468171E-003	2.5049475E+001	5.542879634433307E-008
1.9954350E+005	2.1143582E+002	9.2032143E+001	2.3059709E+002	-2.3522156E+001	9.988480661093490E+000	-3.1660268E-001	7.5579574E-004	8.6664855E-003	1.3804302E-003	1.000000000000000E+000	11	9.3242712E-002	4.0435337E-004	3.250280956878265E-006	3.4272892E-004	3.9762245E-003	1.7307402E-003	4.3365681E-003	2.3522156E+001	1.029310536184312E-006
1.7783180E+005	2.1874326E+002	8.8741516E+001	2.3605861E+002	-2.2081804E+001	1.058449015606311E+001	-3.1656888E-001	7.6512794E-004	1.0085185E-002	1.4252724E-003	1.000000000000000E+000	11	1.1046929E-001	4.6797399E-004	4.333825883840392E-006	-4.5929602E-004	3.9255000E-003	1.5925283E-003	4.2362362E-003	2.2081804E+001	1.083544926962127E-006
1.5848613E+005	2.2550183E+002	8.5441849E+001	2.4114598E+002	-2.0751522E+001	1.104348431117251E+001	-3.1652015E-001	8.3866203E-004	1.1753257E-002	1.4755009E-003	1.000000000000000E+000	11	1.2873551E-001	5.3384888E-004	3.904579623220747E-006	2.1918953E-005	3.8778409E-003	1.4693004E-003	4.1468656E-003	2.0751522E+001	-4.292462606196450E-007
1.4125594E+005	2.3184732E+002	8.2164253E+001	2.4597591E+002	-1.9513790E+001	1.163849740612204E+001	-3.1650352E-001	6.1059755E-004	1.3712937E-002	1.5300696E-003	1.000000000000000E+000	11	1.2951896E-001	5.2655139E-004	4.294048845379924E-006	-5.8283542E-005	3.8319244E-003	1.3579936E-003	4.0654386E-003	1.9513790E+001	3.894692221591768E-007
1.2590930E+005	2.3776378E+002	7.8850174E+001	2.5049744E+002	-1.8347193E+001	1.223549143443233E+001	-3.1644443E-001	7.1175135E-004	1.6030965E-002	1.5883946E-003	1.000000000000000E+000	11	1.2999168E-001	5.1893416E-004	4.625266129298122E-006	-1.3848604E-004	3.7891269E-003	1.2565972E-003	3.9920569E-003	1.8347193E+001	3.312172839181986E-007
1.1220494E+005	2.4330075E+002	7.5589279E+001	2.5477243E+002	-1.7259104E+001	1.283148938274826E+001	-3.1644067E-001	4.1183372E-004	1.8764973E-002	1.6518229E-003	1.000000000000000E+000	11	1.2988357E-001	5.0980231E-004	3.583272149508250E-006	-2.9889104E-004	3.7483366E-003	1.1645425E-003	3.9250716E-003	1.7259104E+001	-1.041993979789872E-006
1.0000371E+005	2.4840863E+002	7.2349907E+001	2.5873029E+002	-1.6238390E+001	1.342748783776187E+001	-3.1638861E-001	6.5240200E-004	2.1997130E-002	1.7200753E-003	1.000000000000000E+000	11	1.2987247E-001	5.0196087E-004	4.402439963292434E-006	-6.1970105E-004	3.7108394E-003	1.0807953E-003	3.8650287E-003	1.6238390E+001	8.191678137841837E-007
8.9129305E+004	2.5322871E+002	6.9215569E+001	2.6251776E+002	-1.5287375E+001	1.402448874610127E+001	-3.1636319E-001	6.5090857E-004	2.5798582E-002	1.7934366E-003	1.000000000000000E+000	11	1.2965949E-001	4.9390749E-004	5.455340151448682E-006	2.6252642E-004	3.6744771E-003	1.0043530E-003	3.8092660E-003	1.5287375E+001	1.052900188156249E-006
7.9433273E+004	2.5763651E+002	6.6159363E+001	2.6599554E+002	-1.4401994E+001	1.461947917434736E+001	-3.1630972E-001	7.2929374E-004	3.0284917E-002	1.8735284E-003	1.000000000000000E+000	11	1.2958819E-001	4.8718179E-004	5.771616407309517E-006	1.8232394E-004	3.6413185E-003	9.3506678E-004	3.7594615E-003	1.4401994E+001	3.162762558608343E-007
7.0794977E+004	2.6175107E+002	6.3271946E+001	2.6928973E+002	-1.3589184E+001	1.521548856268055E+001	-3.1631330E-001	6.7834335E-004	3.5530921E-002	1.9615043E-003	1.000000000000000E+000	11	1.2937264E-001	4.8042173E-004	6.714481966688052E-006	-5.8283542E-005	3.6095153E-003	8.7251241E-004	3.7134725E-003	1.3589184E+001	9.428655593785356E-007
6.3093828E+004	2.6552911E+002	6.0551270E+001	2.7234567E+002	-1.2846064E+001	1.567548842451652E+001	-3.1631994E-001	6.6957250E-004	4.1659113E-002	2.0592806E-003	1.000000000000000E+000	11	1.4066382E-001	5.1649002E-004	7.178611839490865E-006	1.0212145E-004	3.5799022E-003	8.1636105E-004	3.6718042E-003	1.2846064E+001	4.641298728028130E-007
5.6237012E+004	2.6905261E+002	5.7992371E+001	2.7523157E+002	-1.2163608E+001	1.627049709277344E+001	-3.1630212E-001	5.8764045E-004	4.8800811E-002	2.1665678E-003	1.000000000000000E+000	11	1.3054232E-001	4.7429997E-004	6.331400860169904E-006	-6.9990352E-004	3.5517362E-003	7.6555146E-004	3.6333043E-003	1.2163608E+001	-8.472109793209614E-007
5.0122477E+004	2.7225720E+002	5.5683022E+001	2.7789313E+002	-1.1558928E+001	1.672947316788486E+001	-3.1630322E-001	5.5553985E-004	5.7024937E-002	2.2895746E-003	1.000000000000000E+000	11	1.3975242E-001	5.0289987E-004	6.799079410486027E-006	3.4272892E-004	3.5255249E-003	7.2105299E-004	3.5985056E-003	1.1558928E+001	4.676785503161230E-007
4.4666715E+004	2.7531314E+002	5.3576488E+001	2.8047775E+002	-1.1012239E+001	1.732549164953525E+001	-3.1628644E-001	6.5557484E-004	6.6506162E-002	2.4266855E-003	1.000000000000000E+000	11	1.3001549E-001	4.6355010E-004	7.026977749357077E-006	1.0212145E-004	3.4996944E-003	6.8104750E-004	3.5653452E-003	1.1012239E+001	2.278983388710502E-007
3.9814063E+004	2.7805026E+002	5.1628700E+001	2.8280289E+002	-1.0518950E+001	1.778548881804454E+001	-3.1628254E-001	6.2104804E-004	7.7427007E-002	2.5805195E-003	1.000000000000000E+000	11	1.3713655E-001	4.8491920E-004	7.308573307673214E-006	-5.8283542E-005	3.4766074E-003	6.4554054E-004	3.5360318E-003	1.0518950E+001	2.815955583161366E-007
3.5480996E+004	2.8069107E+002	4.9972736E+001	2.8510480E+002	-1.0094864E+001	1.838147676640074E+001	-3.1626895E-001	6.6266680E-004	8.9761727E-002	2.7577088E-003	1.000000000000000E+000	11	1.2961003E-001	4.5460486E-004	7.950153459419704E-006	2.1918953E-005	3.4531825E-003	6.1478611E-004	3.5074821E-003	1.0094864E+001	6.415801517464897E-007
3.1621143E+004	2.8313477E+002	4.8521305E+001	2.8726227E+002	-9.7244167E+000	1.884147846823907E+001	-3.1630740E-001	5.4172927E-004	1.0373137E-001	2.9594968E-003	1.000000000000000E+000	11	1.3484387E-001	4.6941033E-004	8.232455385650004E-006	2.1918953E-005	3.4311209E-003	5.8799726E-004	3.4811394E-003	9.7244167E+000	2.823019262303009E-007
2.8188096E+004	2.8537778E+002	4.7314899E+001	2.8927353E+002	-9.4138575E+000	1.930148465008824E+001	-3.1629544E-001	5.1466760E-004	1.1933187E-001	3.1925295E-003	1.000000000000000E+000	11	1.3941702E-001	4.8195571E-004	7.978964590237915E-006	1.0212145E-004	3.4103799E-003	5.6543219E-004	3.4569358E-003	9.4138575E+000	-2.534907954120891E-007
2.5116910E+004	2.8760452E+002	4.6421829E+001	2.9132687E+002	-9.1689491E+000	1.989849566508201E+001	-3.1627598E-001	5.9977168E-004	1.3649969E-001	3.4658923E-003	1.000000000000000E+000	11	1.2953615E-001	4.4464195E-004	7.478484456074916E-006	-2.1868854E-004	3.3887117E-003	5.4696703E-004	3.4325705E-003	9.1689491E+000	-5.004801341629995E-007
2.2389027E+004	2.8970346E+002	4.5751095E+001	2.9329382E+002	-8.9742556E+000	2.035849184697145E+001	-3.1627288E-001	6.0779712E-004	1.5537582E-001	3.7807727E-003	1.000000000000000E+000	11	1.3258108E-001	4.5204186E-004	7.189537898892821E-006	-2.9889104E-004	3.3678121E-003	5.3185795E-004	3.4095501E-003	8.9742556E+000	-2.889465571820944E-007
1.9948783E+004	2.9161984E+002	4.5355690E+001	2.9512585E+002	-8.8403959E+000	2.081849362878711E+001	-3.1626803E-001	5.7252328E-004	1.7590247E-001	4.1545215E-003	1.000000000000000E+000	11	1.3513817E-001	4.5790014E-004	6.942386867447769E-006	2.1918953E-005	3.3481317E-003	5.2073557E-004	3.3883848E-003	8.8403959E+000	-2.471510314450521E-007
1.7786895E+004	2.9342258E+002	4.5237732E+001	2.9688931E+002	-8.7644348E+000	2.127848655733396E+001	-3.1627902E-001	5.8465422E-004	1.9779676E-001	4.5923153E-003	1.000000000000000E+000	11	1.3721779E-001	4.6218501E-004	6.895419140187894E-006	-2.9889104E-004	3.3289280E-003	5.1322964E-004	3.3682587E-003	8.7644348E+000	-4.696772725987486E-008
1.5847686E+004	2.9517719E+002	4.5429520E+001	2.9865265E+002	-8.7495079E+000	2.173848764583818E+001	-3.1628060E-001	5.8129494E-004	2.2106305E-001	5.1151654E-003	1.000000000000000E+000	11	1.3895196E-001	4.6526277E-004	6.624573119203786E-006	1.0212145E-004	3.3094059E-003	5.0933717E-004	3.3483715E-003	8.7495079E+000	-2.708460209841080E-007
1.4121879E+004	2.9688101E+002	4.5904114E+001	3.0040894E+002	-8.7895403E+000	2.219848582768464E+001	-3.1629208E-001	5.5759278E-004	2.4551387E-001	5.7326253E-003	1.000000000000000E+000	11	1.4036459E-001	4.6724503E-004	6.970778250293936E-006	1.8232394E-004	3.2897033E-003	5.0865806E-004	3.3287958E-003	8.7895403E+000	3.462051310901491E-007
1.2590932E+004	2.9858115E+002	4.6764675E+001	3.0222116E+002	-8.9015198E+000	2.279347806927399E+001	-3.1627479E-001	5.5348623E-004	2.7029893E-001	6.4718798E-003	1.000000000000000E+000	11	1.2935311E-001	4.2800812E-004	7.270233862460979E-006	1.0212145E-004	3.2689827E-003	5.1199790E-004	3.3088352E-003	8.9015198E+000	2.994556121670431E-007
1.1217711E+004	3.0017581E+002	4.7913883E+001	3.0397574E+002	-9.0690136E+000	2.325247918438981E+001	-3.1626791E-001	5.9827795E-004	2.9611102E-001	7.3569776E-003	1.000000000000000E+000	11	1.3018534E-001	4.2827541E-004	7.749392157986424E-006	-5.3949852E-004	3.2486119E-003	5.1854149E-004	3.2897363E-003	9.0690136E+000	4.791582955254455E-007
1.0002229E+004	3.0178723E+002	4.9440109E+001	3.0581018E+002	-9.3038006E+000	2.371248304625624E+001	-3.1626755E-001	5.8390695E-004	3.2184285E-001	8.4119923E-003	1.000000000000000E+000	11	1.3082218E-001	4.2778885E-004	8.252327567532322E-006	1.8232394E-004	3.2269855E-003	5.2865891E-004	3.2700023E-003	9.3038006E+000	5.029354095458974E-007
8.9149297E+003	3.0344992E+002	5.1395390E+001	3.0777158E+002	-9.6129732E+000	2.419491250920692E+001	-3.1624526E-001	6.2030065E-004	3.4735858E-001	9.6865548E-003	1.000000000000000E+000	11	1.3136338E-001	4.2682103E-004	8.095190849100213E-006	-5.8283542E-005	3.2035392E-003	5.4258422E-004	3.2491630E-003	9.6129732E+000	-1.571367184321081E-007
7.9439976E+003	3.0506610E+002	5.3716618E+001	3.0975928E+002	-9.9863806E+000	2.472099546750542E+001	-3.1625232E-001	6.0145062E-004	3.7296867E-001	1.1216079E-002	1.000000000000000E+000	11	1.3176337E-001	4.2537344E-004	8.305528155807730E-006	-5.3949852E-004	3.1794012E-003	5.5983500E-004	3.2283133E-003	9.9863806E+000	2.103373067075164E-007
7.0822334E+003	3.0670267E+002	5.6456516E+001	3.1185553E+002	-1.0430004E+001	2.529786242826958E+001	-3.1623274E-001	6.0443708E-004	3.9804837E-001	1.3045390E-002	1.000000000000000E+000	11	1.3207069E-001	4.2349959E-004	8.541573906663366E-006	-3.7909354E-004	3.1536296E-003	5.8050657E-004	3.2066130E-003	1.0430004E+001	2.360457508556364E-007
6.3077344E+003	3.0841727E+002	5.9722191E+001	3.1414639E+002	-1.0959170E+001	2.593155531163211E+001	-3.1622976E-001	4.8555198E-004	4.2248473E-001	1.5269271E-002	1.000000000000000E+000	11	1.3233054E-001	4.2123845E-004	8.260214842398353E-006	4.2293142E-004	3.1251765E-003	6.0516188E-004	3.1832294E-003	1.0959170E+001	-2.813590642650130E-007
5.6210552E+003	3.1013028E+002	6.3482456E+001	3.1656091E+002	-1.1568416E+001	2.663226041159942E+001	-3.1622294E-001	5.0589489E-004	4.4601405E-001	1.7936653E-002	1.000000000000000E+000	11	1.3252151E-001	4.1862880E-004	8.007654916634136E-006	3.4272892E-004	3.0947786E-003	6.3348917E-004	3.1589498E-003	1.1568416E+001	-2.525599257642170E-007
5.0116035E+003	3.1189694E+002	6.7762611E+001	3.1917310E+002	-1.2257570E+001	2.739266855443566E+001	-3.1622139E-001	4.3385493E-004	4.6865502E-001	2.1124236E-002	1.000000000000000E+000	11	1.3266651E-001	4.1565695E-004	7.811562793943772E-006	2.6252642E-004	3.0616713E-003	6.6517759E-004	3.1330963E-003	1.2257570E+001	-1.960921226903637E-007
4.4664292E+003	3.1380307E+002	7.2623672E+001	3.2209714E+002	-1.3030596E+001	2.815269909720519E+001	-3.1622359E-001	4.5270476E-004	4.9066094E-001	2.4943888E-002	1.000000000000000E+000	11	1.3278174E-001	4.1224129E-004	7.746305083691064E-006	2.6252642E-004	3.0247080E-003	7.0001034E-004	3.1046534E-003	1.3030596E+001	-6.525771025270820E-008
3.9812742E+003	3.1580664E+002	7.8090714E+001	3.2531830E+002	-1.3889138E+001	2.891270721330511E+001	-3.1624368E-001	4.1911093E-004	5.1191592E-001	2.9497176E-002	1.000000000000000E+000	11	1.3287391E-001	4.0844278E-004	8.157575531057470E-006	-3.7909354E-004	2.9840376E-003	7.3787430E-004	3.0739126E-003	1.3889138E+001	4.112704473664059E-007
3.5465955E+003	3.1793857E+002	8.4369598E+001	3.2894250E+002	-1.4861737E+001	2.967294807606959E+001	-3.1622234E-001	4.5867663E-004	5.3189087E-001	3.4990847E-002	1.000000000000000E+000	11	1.3293709E-001	4.0413474E-004	8.293770002644225E-006	-5.8283542E-005	2.9383481E-003	7.7973318E-004	3.0400450E-003	1.4861737E+001	1.361944715867546E-007
3.1610112E+003	3.2020139E+002	9.1301712E+001	3.3296387E+002	-1.5914886E+001	3.043270720549481E+001	-3.1622964E-001	4.2265680E-004	5.5146146E-001	4.1464727E-002	1.000000000000000E+000	11	1.3298737E-001	3.9940479E-004	8.475879928126232E-006	-3.7909354E-004	2.8882115E-003	8.2354003E-004	3.0033288E-003	1.5914886E+001	1.821099254820073E-007
2.8172952E+003	3.2263617E+002	9.9027725E+001	3.3749161E+002	-1.7062984E+001	3.119293492159341E+001	-3.1622446E-001	5.1858538E-004	5.7046759E-001	4.9115505E-002	1.000000000000000E+000	11	1.3301262E-001	3.9412128E-004	8.903014112973728E-006	5.8333640E-004	2.8326118E-003	8.6942239E-004	2.9630365E-003	1.7062984E+001	4.271341848474963E-007
