EC-Lab ASCII FILE
Nb header lines : 60                          

Potentio Electrochemical Impedance Spectroscopy

Run on channel : 4 (SN 4192)
User : 
CE vs. WE compliance from -10 V to 10 V
Electrode connection : standard
Ewe ctrl range : min = -10.00 V, max = 10.00 V
Acquisition started on : 02/20/2020 14:56:21
Technique started on : 02/20/2020 14:56:22
Saved on :
	File : DE_65_5_60.mpr
	Directory : P:\Chemistry\Data\VMP3\Kyler\DOE\DE_65\60C\
	Host : 10.0.4.64
Device : VMP3 (SN 1432)
Address : USB
EC-Lab for windows v11.33 (software)
Internet server v11.32 (firmware)
Command interpretor v11.33 (firmware)
Electrode material : 
Initial state : 
Electrolyte : 
Comments : 
Electrode surface area : 0.001 cm²
Characteristic mass : 0.001 g
Equivalent Weight : 0.000 g/eq.
Density : 0.000 g/cm3
Record Analogic IN 1
Cycle Definition : Charge/Discharge alternance
Mode                Single sine         
E (V)               0.0000              
vs.                 Eoc                 
tE (h:m:s)          0:00:0.0000         
record              0                   
dI                  1.000               
unit dI             mA                  
dt (s)              0.000               
fi                  1.000               
unit fi             MHz                 
ff                  1.000               
unit ff             Hz                  
Nd                  20                  
Points              per decade          
spacing             Logarithmic         
Va (mV)             128.0               
pw                  0.50                
Na                  3                   
corr                0                   
E range min (V)     -10.000             
E range max (V)     10.000              
I Range             Auto                
Bandwidth           5                   
nc cycles           0                   
goto Ns'            0                   
nr cycles           0                   
inc. cycle          1                   

freq/Hz	Re(Z)/Ohm	-Im(Z)/Ohm	|Z|/Ohm	Phase(Z)/deg	time/s	<Ewe>/V	<I>/mA	Cs/µF	Cp/µF	cycle number	I Range	|Ewe|/V	|I|/A	(Q-Qo)/mA.h	Analog IN 1/V	Re(Y)/Ohm-1	Im(Y)/Ohm-1	|Y|/Ohm-1	Phase(Y)/deg	dq/mA.h	
1.0000186E+006	1.0190274E+002	4.6553226E+001	1.1203291E+002	-2.4552805E+001	1.951478226023028E+000	-3.0500326E-002	3.3674957E-004	3.4187101E-003	5.9029710E-004	1.000000000000000E+000	11	3.3980797E-003	3.0331086E-005	1.443330916065154E-007	-6.4495736E-004	8.1188530E-003	3.7090150E-003	8.9259492E-003	2.4552805E+001	1.443330916065154E-007
8.9124669E+005	1.0468821E+002	4.2888012E+001	1.1313268E+002	-2.2277624E+001	2.547484680981142E+000	-3.0204205E-002	4.0282137E-004	4.1637658E-003	5.9838680E-004	1.000000000000000E+000	11	4.8010210E-003	4.2437085E-005	3.182060196296435E-007	-5.6476361E-004	8.1794038E-003	3.3508867E-003	8.8391788E-003	2.2277624E+001	1.738729280231281E-007
7.9433269E+005	1.0826904E+002	4.0067162E+001	1.1544507E+002	-2.0308020E+001	3.142476069246186E+000	-3.0035151E-002	9.4348856E-004	5.0006807E-003	6.0235913E-004	1.000000000000000E+000	11	6.6693113E-003	5.7770430E-005	5.295565457478612E-007	-4.8456987E-004	8.1236931E-003	3.0063381E-003	8.6621279E-003	2.0308020E+001	2.113505261182177E-007
7.0794981E+005	1.1234695E+002	3.7997940E+001	1.1859882E+002	-1.8686546E+001	3.738489484210731E+000	-2.9902751E-002	1.1815319E-003	5.9164008E-003	6.0731918E-004	1.000000000000000E+000	11	9.2284838E-003	7.7812612E-005	7.774190957794518E-007	-4.0437613E-004	7.9873102E-003	2.7014653E-003	8.4317876E-003	1.8686546E+001	2.478625500315906E-007
6.3095681E+005	1.1634492E+002	3.6317535E+001	1.2188152E+002	-1.7335964E+001	4.334474419156322E+000	-2.9790727E-002	1.4203193E-003	6.9455099E-003	6.1668188E-004	1.000000000000000E+000	11	1.2430496E-002	1.0198836E-004	9.077211578633069E-007	-8.3601190E-005	7.8319823E-003	2.4447851E-003	8.2046892E-003	1.7335964E+001	1.303020620838551E-007
5.6234225E+005	1.1885691E+002	3.4335995E+001	1.2371712E+002	-1.6113220E+001	4.929483834101120E+000	-2.9722942E-002	1.4919748E-003	8.2427058E-003	6.3490606E-004	1.000000000000000E+000	11	1.6138801E-002	1.3044922E-004	1.048211179084925E-006	-4.0437613E-004	7.7654184E-003	2.2433139E-003	8.0829561E-003	1.6113220E+001	1.404900212216185E-007
5.0120619E+005	1.2300288E+002	3.2986217E+001	1.2734913E+002	-1.5012035E+001	5.526472529134480E+000	-2.9673576E-002	1.8184229E-003	9.6265618E-003	6.4586877E-004	1.000000000000000E+000	11	2.0598322E-002	1.6174687E-004	1.223396256624659E-006	7.6786280E-005	7.5844373E-003	2.0339515E-003	7.8524295E-003	1.5012035E+001	1.751850775397341E-007
4.4668572E+005	1.2572446E+002	3.1327099E+001	1.2956862E+002	-1.3991620E+001	6.122491837450070E+000	-2.9603051E-002	1.8340582E-003	1.1373597E-002	6.6487282E-004	1.000000000000000E+000	11	2.5711022E-002	1.9843556E-004	1.273794276792614E-006	-1.6379493E-004	7.4889362E-003	1.8660381E-003	7.7179181E-003	1.3991620E+001	5.039802016795477E-008
3.9810347E+005	1.2826855E+002	2.9630043E+001	1.3164635E+002	-1.3007174E+001	6.718472372420365E+000	-2.9545669E-002	2.0017501E-003	1.3492484E-002	6.8350049E-004	1.000000000000000E+000	11	3.1626526E-002	2.4023854E-004	1.317589765384683E-006	-3.2418242E-004	7.4012075E-003	1.7096794E-003	7.5961091E-003	1.3007174E+001	4.379548859206909E-008
3.5480997E+005	1.3122044E+002	2.8092398E+001	1.3419385E+002	-1.2083790E+001	7.314488054049434E+000	-2.9471861E-002	1.8530436E-003	1.5967447E-002	6.9975806E-004	1.000000000000000E+000	11	3.8386036E-002	2.8604915E-004	1.692027264062845E-006	-8.0534484E-004	7.2867908E-003	1.5599964E-003	7.4519063E-003	1.2083790E+001	3.744374986781621E-007
3.1622997E+005	1.3342709E+002	2.6471401E+001	1.3602766E+002	-1.1221538E+001	7.909472428989830E+000	-2.9437764E-002	1.9935637E-003	1.9012541E-002	7.2001171E-004	1.000000000000000E+000	11	4.6054363E-002	3.3856614E-004	1.434433095772925E-006	-5.6476361E-004	7.2109015E-003	1.4306140E-003	7.3514460E-003	1.1221538E+001	-2.575941682899206E-007
2.8183453E+005	1.3553619E+002	2.4863928E+001	1.3779794E+002	-1.0395249E+001	8.505479603976710E+000	-2.9468188E-002	1.8768710E-003	2.2712043E-002	7.3945231E-004	1.000000000000000E+000	11	5.4677051E-002	3.9679147E-004	1.957381149584156E-006	-5.6476361E-004	7.1378890E-003	1.3094360E-003	7.2570024E-003	1.0395249E+001	5.229480538112308E-007
2.5118764E+005	1.3714418E+002	2.3261248E+001	1.3910287E+002	-9.6264172E+000	9.100474565551849E+000	-2.9475160E-002	1.9243315E-003	2.7238857E-002	7.6169771E-004	1.000000000000000E+000	11	6.4263761E-002	4.6198731E-004	2.882744887002951E-006	-5.6476361E-004	7.0876973E-003	1.2021558E-003	7.1889241E-003	9.6264172E+000	9.253637374187952E-007
2.2387173E+005	1.3843019E+002	2.1707638E+001	1.4012187E+002	-8.9121389E+000	9.695474807143910E+000	-2.9468803E-002	2.1123101E-003	3.2749772E-002	7.8599824E-004	1.000000000000000E+000	11	7.4871056E-002	5.3432811E-004	3.799877338253686E-006	7.6786280E-005	7.0504844E-003	1.1056068E-003	7.1366448E-003	8.9121389E+000	9.171324512507350E-007
1.9954350E+005	1.3975879E+002	2.0245718E+001	1.4121759E+002	-8.2426357E+000	1.029248179550632E+001	-2.9490428E-002	2.0307917E-003	3.9395753E-002	8.0972613E-004	1.000000000000000E+000	11	8.6466938E-002	6.1229581E-004	4.627746178820315E-006	-1.6379493E-004	7.0081200E-003	1.0152094E-003	7.0812707E-003	8.2426357E+000	8.278688405666292E-007
1.7783180E+005	1.4092229E+002	1.8887854E+001	1.4218242E+002	-7.6338744E+000	1.088748382378253E+001	-2.9499469E-002	2.0367538E-003	4.7383606E-002	8.3618338E-004	1.000000000000000E+000	11	9.8996095E-002	6.9626118E-004	4.804570375628019E-006	-3.4074546E-006	6.9708838E-003	9.3430956E-004	7.0332182E-003	7.6338744E+000	1.768241968077042E-007
1.5848613E+005	1.4178470E+002	1.7592445E+001	1.4287195E+002	-7.0730300E+000	1.148447174546891E+001	-2.9485617E-002	1.6589402E-003	5.7082459E-002	8.6548820E-004	1.000000000000000E+000	11	1.1242133E-001	7.8686775E-004	4.104086896559844E-006	-8.0534484E-004	6.9460105E-003	8.6185121E-004	6.9992747E-003	7.0730300E+000	-7.004834790681754E-007
1.4125594E+005	1.4265706E+002	1.6406986E+001	1.4359744E+002	-6.5607615E+000	1.194448774066404E+001	-2.9472735E-002	1.7732176E-003	6.8672776E-002	8.9649693E-004	1.000000000000000E+000	11	1.2688129E-001	8.8359020E-004	4.074771931550155E-006	7.6786280E-005	6.9183074E-003	7.9567451E-004	6.9639124E-003	6.5607615E+000	-2.931496500968905E-008
1.2590930E+005	1.4344508E+002	1.5287718E+001	1.4425743E+002	-6.0833578E+000	1.254147632900276E+001	-2.9455900E-002	1.8363108E-003	8.2683653E-002	9.2859985E-004	1.000000000000000E+000	11	1.2900354E-001	8.9425925E-004	5.482013873961276E-006	-3.4074546E-006	6.8930159E-003	7.3462591E-004	6.9320519E-003	6.0833578E+000	1.407241942411121E-006
1.1220494E+005	1.4414282E+002	1.4267365E+001	1.4484720E+002	-5.6527672E+000	1.313749097063555E+001	-2.9442776E-002	1.7639119E-003	9.9417850E-002	9.6456555E-004	1.000000000000000E+000	11	1.2963602E-001	8.9498470E-004	6.337282957315943E-006	-7.2515110E-004	6.8702544E-003	6.8002299E-004	6.9038272E-003	5.6527672E+000	8.552690833546670E-007
1.0000371E+005	1.4478905E+002	1.3347294E+001	1.4540295E+002	-5.2668924E+000	1.373248409220832E+001	-2.9423704E-002	1.7853151E-003	1.1923693E-001	1.0047333E-003	1.000000000000000E+000	11	1.2976001E-001	8.9241657E-004	7.513096336078080E-006	-6.4495736E-004	6.8484023E-003	6.3131598E-004	6.8774396E-003	5.2668924E+000	1.175813378762137E-006
8.9129305E+004	1.4534593E+002	1.2495730E+001	1.4588208E+002	-4.9137702E+000	1.432747497383389E+001	-2.9416937E-002	1.9211804E-003	1.4290190E-001	1.0484733E-003	1.000000000000000E+000	11	1.2953767E-001	8.8796153E-004	7.335271755340121E-006	-9.6573232E-004	6.8296585E-003	5.8716175E-004	6.8548517E-003	4.9137702E+000	-1.778245807379589E-007
7.9433273E+004	1.4585861E+002	1.1739018E+001	1.4633025E+002	-4.6013708E+000	1.492347190881264E+001	-2.9403310E-002	1.8342637E-003	1.7068128E-001	1.0984525E-003	1.000000000000000E+000	11	1.2958089E-001	8.8553730E-004	8.764352135240591E-006	-8.8553858E-004	6.8118316E-003	5.4823101E-004	6.8338574E-003	4.6013708E+000	1.429080379900470E-006
7.0794977E+004	1.4631152E+002	1.1061042E+001	1.4672903E+002	-4.3232942E+000	1.551848287039320E+001	-2.9398946E-002	1.8971708E-003	2.0324582E-001	1.1549990E-003	1.000000000000000E+000	11	1.2945022E-001	8.8223995E-004	8.116075618958955E-006	-4.0437613E-004	6.7958911E-003	5.1376427E-004	6.8152836E-003	4.3232942E+000	-6.482765162816361E-007
6.3093828E+004	1.4672900E+002	1.0465184E+001	1.4710173E+002	-4.0796108E+000	1.611348135196022E+001	-2.9398145E-002	1.8067189E-003	2.4103846E-001	1.2199571E-003	1.000000000000000E+000	11	1.2951520E-001	8.8044646E-004	8.769397276217610E-006	-1.6379493E-004	6.7807911E-003	4.8362784E-004	6.7980164E-003	4.0796108E+000	6.533216572586545E-007
5.6237012E+004	1.4711313E+002	9.9543943E+000	1.4744952E+002	-3.8710122E+000	1.657348129383172E+001	-2.9407578E-002	1.9770155E-003	2.8430405E-001	1.2957642E-003	1.000000000000000E+000	11	1.4071678E-001	9.5433858E-004	8.803524956111586E-006	-1.6379493E-004	6.7665093E-003	4.5785512E-004	6.7819818E-003	3.8710122E+000	3.412767989397588E-008
5.0122477E+004	1.4746584E+002	9.5156765E+000	1.4777254E+002	-3.6920636E+000	1.716847878877888E+001	-2.9382896E-002	1.9984180E-003	3.3369365E-001	1.3836932E-003	1.000000000000000E+000	11	1.3029680E-001	8.8173890E-004	8.348022761153212E-006	-1.6379493E-004	6.7531127E-003	4.3576487E-004	6.7671575E-003	3.6920636E+000	-4.555021949583731E-007
4.4666715E+004	1.4778812E+002	9.1349516E+000	1.4807018E+002	-3.5370171E+000	1.762748334390926E+001	-2.9389216E-002	2.1046912E-003	3.9005861E-001	1.4845922E-003	1.000000000000000E+000	11	1.3989970E-001	9.4482023E-004	8.526269565928184E-006	2.3717375E-004	6.7406902E-003	4.1664968E-004	6.7535546E-003	3.5370171E+000	1.782468047749718E-007
3.9814063E+004	1.4812064E+002	8.8460331E+000	1.4838455E+002	-3.4177482E+000	1.822247646548203E+001	-2.9387351E-002	1.8858176E-003	4.5189247E-001	1.6060343E-003	1.000000000000000E+000	11	1.3023481E-001	8.7768445E-004	9.226551903447317E-006	-2.4398866E-004	6.7272596E-003	4.0176415E-004	6.7392462E-003	3.4177482E+000	7.002823375191326E-007
3.5480996E+004	1.4835573E+002	8.6090641E+000	1.4860532E+002	-3.3211422E+000	1.868148454060429E+001	-2.9387873E-002	2.0780761E-003	5.2103680E-001	1.7486850E-003	1.000000000000000E+000	11	1.3798305E-001	9.2852028E-004	8.867146650778725E-006	-3.2418242E-004	6.7179329E-003	3.8984077E-004	6.7292345E-003	3.3211422E+000	-3.594052526685922E-007
3.1621143E+004	1.4872408E+002	8.4520884E+000	1.4896405E+002	-3.2526586E+000	1.927748187558609E+001	-2.9370405E-002	1.8817229E-003	5.9549558E-001	1.9170950E-003	1.000000000000000E+000	11	1.2967384E-001	8.7050424E-004	1.031286864143719E-005	-5.6476361E-004	6.7022145E-003	3.8089132E-004	6.7130290E-003	3.2526586E+000	1.445721990658462E-006
2.8188096E+004	1.4895499E+002	8.3434544E+000	1.4918848E+002	-3.2059731E+000	1.973749709743424E+001	-2.9382952E-002	2.0146100E-003	6.7671919E-001	2.1165558E-003	1.000000000000000E+000	11	1.3558307E-001	9.0880395E-004	1.101976581242181E-005	-1.1261198E-003	6.6924402E-003	3.7486537E-004	6.7029307E-003	3.2059731E+000	7.068971709846255E-007
2.5116910E+004	1.4932283E+002	8.3092203E+000	1.4955383E+002	-3.1849971E+000	2.033347813910223E+001	-2.9369380E-002	1.8696249E-003	7.6259440E-001	2.3540684E-003	1.000000000000000E+000	11	1.2930411E-001	8.6459913E-004	1.129674663636251E-005	-4.8456987E-004	6.6762273E-003	3.7150545E-004	6.6865557E-003	3.1849971E+000	2.769808239407009E-007
2.2389027E+004	1.4958177E+002	8.3287506E+000	1.4981346E+002	-3.1869528E+000	2.079347554760170E+001	-2.9374879E-002	1.9195053E-003	8.5350299E-001	2.6379288E-003	1.000000000000000E+000	11	1.3360354E-001	8.9179928E-004	1.097748486746827E-005	-1.6379493E-004	6.6646445E-003	3.7108912E-004	6.6749677E-003	3.1869528E+000	-3.192617688942430E-007
1.9948783E+004	1.4984033E+002	8.4071035E+000	1.5007599E+002	-3.2113321E+000	2.125248007607297E+001	-2.9385431E-002	1.8621817E-003	9.4898063E-001	2.9780206E-003	1.000000000000000E+000	11	1.3736603E-001	9.1530982E-004	1.043679572506032E-005	-4.8456987E-004	6.6528278E-003	3.7327077E-004	6.6632912E-003	3.2113321E+000	-5.406891424079543E-007
1.7786895E+004	1.5021115E+002	8.5469046E+000	1.5045412E+002	-3.2565765E+000	2.171247684457921E+001	-2.9384106E-002	2.0546257E-003	1.0469143E+000	3.3784751E-003	1.000000000000000E+000	11	1.4057410E-001	9.3433197E-004	1.062762454052831E-005	-8.8553858E-004	6.6358116E-003	3.7757281E-004	6.6465447E-003	3.2565765E+000	1.908288154679933E-007
1.5847686E+004	1.5058072E+002	8.7350206E+000	1.5083386E+002	-3.3199441E+000	2.230947255293722E+001	-2.9364290E-002	1.8845145E-003	1.1497154E+000	3.8558533E-003	1.000000000000000E+000	11	1.2958269E-001	8.5910870E-004	1.174016898169389E-005	-1.6379493E-004	6.6186846E-003	3.8394256E-004	6.6298111E-003	3.3199441E+000	1.112544441165583E-006
1.4121879E+004	1.5090309E+002	8.9892025E+000	1.5117059E+002	-3.4090452E+000	2.276847721476224E+001	-2.9362837E-002	1.9061033E-003	1.2537372E+000	4.4331676E-003	1.000000000000000E+000	11	1.3163204E-001	8.7075168E-004	1.259077521227462E-005	-5.6476361E-004	6.6033374E-003	3.9335669E-004	6.6150432E-003	3.4090452E+000	8.506062305807265E-007
1.2590932E+004	1.5121300E+002	9.2873707E+000	1.5149794E+002	-3.5146420E+000	2.322848120992421E+001	-2.9373331E-002	1.8923319E-003	1.3610356E+000	5.1149526E-003	1.000000000000000E+000	11	1.3327202E-001	8.7969523E-004	1.248186590235370E-005	-5.6476361E-004	6.5883347E-003	4.0464979E-004	6.6007497E-003	3.5146420E+000	-1.089093099209185E-007
1.1217711E+004	1.5157281E+002	9.6500034E+000	1.5187968E+002	-3.6428647E+000	2.368847709844704E+001	-2.9375009E-002	1.8973567E-003	1.4702406E+000	5.9353183E-003	1.000000000000000E+000	11	1.3464029E-001	8.8649307E-004	1.193350231058301E-005	-1.6379493E-004	6.5708556E-003	4.1833875E-004	6.5841591E-003	3.6428647E+000	-5.483635917706935E-007
1.0002229E+004	1.5193855E+002	1.0084188E+001	1.5227283E+002	-3.7971618E+000	2.414847933364217E+001	-2.9371299E-002	1.8954969E-003	1.5779105E+000	6.9202119E-003	1.000000000000000E+000	11	1.3574716E-001	8.9147332E-004	1.176739405278285E-005	-6.4495736E-004	6.5527433E-003	4.3490669E-004	6.5671597E-003	3.7971618E+000	-1.661082578001596E-007
8.9149297E+003	1.5232790E+002	1.0574590E+001	1.5269450E+002	-3.9710972E+000	2.463092402325128E+001	-2.9319435E-002	2.3006713E-003	1.6882575E+000	8.0969026E-003	1.000000000000000E+000	11	1.3663632E-001	8.9483452E-004	1.264314372452726E-005	-5.6476361E-004	6.5333005E-003	4.5354117E-004	6.5490240E-003	3.9710972E+000	8.757496717444151E-007
7.9439976E+003	1.5276346E+002	1.1128166E+001	1.5316824E+002	-4.1663938E+000	2.515698570155655E+001	-2.9298183E-002	2.4182969E-003	1.8003521E+000	9.5031410E-003	1.000000000000000E+000	11	1.3735774E-001	8.9677685E-004	1.226519352848199E-005	-2.4398866E-004	6.5115150E-003	4.7433606E-004	6.5287687E-003	4.1663938E+000	-3.779501960452762E-007
7.0822334E+003	1.5319597E+002	1.1756151E+001	1.5364639E+002	-4.3882375E+000	2.573386042230413E+001	-2.9278496E-002	2.4592418E-003	1.9115459E+000	1.1191037E-002	1.000000000000000E+000	11	1.3792895E-001	8.9770375E-004	1.283883805906387E-005	-4.0437613E-004	6.4893714E-003	4.9798982E-004	6.5084510E-003	4.3882375E+000	5.736445305818865E-007
6.3077344E+003	1.5367171E+002	1.2452878E+001	1.5417545E+002	-4.6328740E+000	2.636855751907569E+001	-2.9269118E-002	2.3081158E-003	2.0261753E+000	1.3218618E-002	1.000000000000000E+000	11	1.3839433E-001	8.9764182E-004	1.340887039680577E-005	-8.3601190E-005	6.4649247E-003	5.2388897E-004	6.4861169E-003	4.6328740E+000	5.700323377418996E-007
5.6210552E+003	1.5414540E+002	1.3257457E+001	1.5471446E+002	-4.9156942E+000	2.706924984572106E+001	-2.9270032E-002	2.2846654E-003	2.1357088E+000	1.5681971E-002	1.000000000000000E+000	11	1.3874426E-001	8.9677627E-004	1.372158073901664E-005	7.6786280E-005	6.4397459E-003	5.5385794E-004	6.4635198E-003	4.9156942E+000	3.127103422108723E-007
5.0116035E+003	1.5466608E+002	1.4126260E+001	1.5530984E+002	-5.2185693E+000	2.782967081519746E+001	-2.9261643E-002	2.3682306E-003	2.2481031E+000	1.8598273E-002	1.000000000000000E+000	11	1.3902348E-001	8.9513633E-004	1.376172063068629E-005	-4.8456987E-004	6.4120530E-003	5.8563793E-004	6.4387419E-003	5.2185693E+000	4.013989166964711E-008
4.4664292E+003	1.5521771E+002	1.5104524E+001	1.5595091E+002	-5.5580583E+000	2.858968845129129E+001	-2.9264588E-002	2.3133270E-003	2.3591342E+000	2.2130482E-002	1.000000000000000E+000	11	1.3924205E-001	8.9285820E-004	1.344881257616928E-005	-3.2418242E-004	6.3821273E-003	6.2105665E-004	6.4122742E-003	5.5580583E+000	-3.129080545170143E-007
3.9812742E+003	1.5579179E+002	1.6174309E+001	1.5662915E+002	-5.9272146E+000	2.934966718072246E+001	-2.9267646E-002	2.3280305E-003	2.4715664E+000	2.6355945E-002	1.000000000000000E+000	11	1.3941264E-001	8.9008111E-004	1.364238191442241E-005	-4.8456987E-004	6.3503752E-003	6.5929617E-004	6.3845078E-003	5.9272146E+000	1.935693382531304E-007
3.5465955E+003	1.5641786E+002	1.7349731E+001	1.5737714E+002	-6.3293252E+000	3.010993041680194E+001	-2.9267702E-002	2.2437191E-003	2.5865195E+000	3.1435326E-002	1.000000000000000E+000	11	1.3953838E-001	8.8664965E-004	1.360498325159036E-005	-7.2515110E-004	6.3154320E-003	7.0050213E-004	6.3541629E-003	6.3293252E+000	-3.739866283204837E-008
3.1610112E+003	1.5707437E+002	1.8634258E+001	1.5817583E+002	-6.7655692E+000	3.086969765292451E+001	-2.9256498E-002	2.4060125E-003	2.7019792E+000	3.7499543E-002	1.000000000000000E+000	11	1.3963199E-001	8.8276435E-004	1.388921657316516E-005	-5.6476361E-004	6.2780543E-003	7.4478664E-004	6.3220784E-003	6.7655692E+000	2.842333215748015E-007
2.8172952E+003	1.5780130E+002	2.0066080E+001	1.5907199E+002	-7.2468624E+000	3.162992840900552E+001	-2.9278478E-002	2.2520940E-003	2.8153036E+000	4.4798438E-002	1.000000000000000E+000	11	1.3971163E-001	8.7829184E-004	1.496955947545939E-005	7.6786280E-005	6.2362449E-003	7.9300348E-004	6.2864618E-003	7.2468624E+000	1.080342902294231E-006
