EC-Lab ASCII FILE
Nb header lines : 60                          

Potentio Electrochemical Impedance Spectroscopy

Run on channel : 2 (SN 20919)
User : 
CE vs. WE compliance from -10 V to 10 V
Electrode connection : standard
Ewe ctrl range : min = -10.00 V, max = 10.00 V
Acquisition started on : 02/20/2020 14:48:44
Technique started on : 02/20/2020 14:48:45
Saved on :
	File : DE_65_10_60.mpr
	Directory : P:\Chemistry\Data\VMP3\Kyler\DOE\DE_65\60C\
	Host : 10.0.4.64
Device : VMP3 (SN 1432)
Address : USB
EC-Lab for windows v11.33 (software)
Internet server v11.32 (firmware)
Command interpretor v11.33 (firmware)
Electrode material : 
Initial state : 
Electrolyte : 
Comments : 
Electrode surface area : 0.001 cm²
Characteristic mass : 0.001 g
Equivalent Weight : 0.000 g/eq.
Density : 0.000 g/cm3
Record Analogic IN 1
Cycle Definition : Charge/Discharge alternance
Mode                Single sine         
E (V)               0.0000              
vs.                 Eoc                 
tE (h:m:s)          0:00:0.0000         
record              0                   
dI                  1.000               
unit dI             mA                  
dt (s)              0.000               
fi                  1.000               
unit fi             MHz                 
ff                  1.000               
unit ff             Hz                  
Nd                  20                  
Points              per decade          
spacing             Logarithmic         
Va (mV)             128.0               
pw                  0.50                
Na                  3                   
corr                0                   
E range min (V)     -10.000             
E range max (V)     10.000              
I Range             Auto                
Bandwidth           5                   
nc cycles           0                   
goto Ns'            0                   
nr cycles           0                   
inc. cycle          1                   

freq/Hz	Re(Z)/Ohm	-Im(Z)/Ohm	|Z|/Ohm	Phase(Z)/deg	time/s	<Ewe>/V	<I>/mA	Cs/µF	Cp/µF	cycle number	I Range	|Ewe|/V	|I|/A	(Q-Qo)/mA.h	Analog IN 1/V	Re(Y)/Ohm-1	Im(Y)/Ohm-1	|Y|/Ohm-1	Phase(Y)/deg	dq/mA.h	
1.0000186E+006	1.1057947E+002	6.3379288E+001	1.2745490E+002	-2.9819437E+001	1.950494652643101E+000	-2.7242412E-003	-6.7156961E-004	2.5111041E-003	6.2093529E-004	1.000000000000000E+000	11	2.1489896E-003	1.6860784E-005	-1.372658217490728E-007	-2.9675924E-004	6.8070884E-003	3.9015235E-003	7.8459121E-003	2.9819437E+001	-1.372658217490728E-007
8.9124669E+005	1.1547337E+002	6.1101784E+001	1.3064275E+002	-2.7885187E+001	2.546472814254230E+000	-2.2875387E-003	-7.2825269E-004	2.9225929E-003	6.3930114E-004	1.000000000000000E+000	11	3.5573610E-003	2.7229687E-005	-2.727731767835293E-007	-2.9675924E-004	6.7656767E-003	3.5800021E-003	7.6544625E-003	2.7885187E+001	-1.355073550344564E-007
7.9433269E+005	1.2140163E+002	5.9260033E+001	1.3509296E+002	-2.6018490E+001	3.141475962504046E+000	-1.9391645E-003	-7.5464253E-004	3.3810828E-003	6.5060018E-004	1.000000000000000E+000	11	5.5986256E-003	4.1442767E-005	-3.610003452534632E-007	-1.3639758E-004	6.6521051E-003	3.2471062E-003	7.4023106E-003	2.6018490E+001	-8.822716846993397E-008
7.0794981E+005	1.2758038E+002	5.8173309E+001	1.4021729E+002	-2.4511742E+001	3.737483297503786E+000	-1.6447981E-003	-7.1933115E-004	3.8645051E-003	6.6517864E-004	1.000000000000000E+000	11	8.3946902E-003	5.9869155E-005	-3.175780635113673E-007	4.2486819E-004	6.4890450E-003	2.9588344E-003	7.1317884E-003	2.4511742E+001	4.342228174209596E-008
6.3095681E+005	1.3343399E+002	5.7244522E+001	1.4519492E+002	-2.3219818E+001	4.333489139127778E+000	-1.3810985E-003	-6.5800076E-004	4.4064270E-003	6.8493857E-004	1.000000000000000E+000	11	1.1990945E-002	8.2585153E-005	-3.875224210080180E-007	1.0414491E-004	6.3294158E-003	2.7153830E-003	6.8872934E-003	2.3219818E+001	-6.994435749665071E-008
5.6234225E+005	1.3898724E+002	5.6284195E+001	1.4995120E+002	-2.2045952E+001	4.929493300762260E+000	-1.1806347E-003	-6.4870797E-004	5.0284364E-003	7.0844474E-004	1.000000000000000E+000	11	1.6434688E-002	1.0960025E-004	-6.705397268766925E-007	-2.1657841E-004	6.1812317E-003	2.5031483E-003	6.6688363E-003	2.2045952E+001	-2.830173058686746E-007
5.0120619E+005	1.4428044E+002	5.5193779E+001	1.5447717E+002	-2.0934109E+001	5.526477382489247E+000	-1.0366020E-003	-7.3289615E-004	5.7532545E-003	7.3445507E-004	1.000000000000000E+000	11	2.1743067E-002	1.4075261E-004	-4.752820336272837E-007	2.3964079E-005	6.0461485E-003	2.3129247E-003	6.4734481E-003	2.0934109E+001	1.952576932494089E-007
4.4668572E+005	1.4931676E+002	5.4031654E+001	1.5879204E+002	-1.9893127E+001	6.122476637450745E+000	-9.0174138E-004	-6.7937037E-004	6.5943166E-003	7.6349970E-004	1.000000000000000E+000	11	2.7900031E-002	1.7570170E-004	-1.966207154295666E-007	-3.7694006E-004	5.9217638E-003	2.1428452E-003	6.2975450E-003	1.9893127E+001	2.786613181977171E-007
3.9810347E+005	1.5399927E+002	5.2733887E+001	1.6277788E+002	-1.8902714E+001	6.718480985757196E+000	-8.4325921E-004	-7.1449502E-004	7.5811385E-003	7.9565210E-004	1.000000000000000E+000	11	3.4950100E-002	2.1471038E-004	-2.313792529320280E-007	1.8432573E-004	5.8120308E-003	1.9902105E-003	6.1433408E-003	1.8902714E+001	-3.475853750246139E-008
3.5480997E+005	1.5824542E+002	5.1356197E+001	1.6637029E+002	-1.7980068E+001	7.313472987356363E+000	-8.0470619E-004	-6.1413675E-004	8.7343678E-003	8.3227275E-004	1.000000000000000E+000	11	4.2886958E-002	2.5778016E-004	1.275660123404426E-007	2.3964079E-005	5.7171504E-003	1.8554162E-003	6.0106888E-003	1.7980068E+001	3.589452652724705E-007
3.1622997E+005	1.6217729E+002	5.0006466E+001	1.6971187E+002	-1.7136856E+001	7.908487095584860E+000	-8.4208447E-004	-6.8698724E-004	1.0064471E-002	8.7381370E-004	1.000000000000000E+000	11	5.1862288E-002	3.0559022E-004	1.068518618057068E-007	-3.7694006E-004	5.6307414E-003	1.7362079E-003	5.8923396E-003	1.7136856E+001	-2.071415053473579E-008
2.8183453E+005	1.6583067E+002	4.8551487E+001	1.7279195E+002	-1.6318844E+001	8.503473817225313E+000	-8.3869119E-004	-6.1784941E-004	1.1631169E-002	9.1829337E-004	1.000000000000000E+000	11	6.1889052E-002	3.5817095E-004	4.065158679796797E-007	1.8432573E-004	5.5541531E-003	1.6261311E-003	5.7873069E-003	1.6318844E+001	2.996640061739729E-007
2.5118764E+005	1.6925093E+002	4.7114788E+001	1.7568631E+002	-1.5555736E+001	9.098491685435874E+000	-8.5222517E-004	-7.1170152E-004	1.3448214E-002	9.6717098E-004	1.000000000000000E+000	11	7.3064297E-002	4.1587930E-004	2.581010482778462E-007	-5.6216748E-005	5.4834667E-003	1.5264458E-003	5.6919632E-003	1.5555736E+001	-1.484148197018334E-007
2.2387173E+005	1.7238182E+002	4.5741013E+001	1.7834723E+002	-1.4860806E+001	9.694478327088291E+000	-8.7142678E-004	-8.1577431E-004	1.5542294E-002	1.0223365E-003	1.000000000000000E+000	11	8.5325293E-002	4.7842230E-004	-9.026232535122997E-007	2.6450655E-004	5.4194941E-003	1.4380469E-003	5.6070397E-003	1.4860806E+001	-1.160724301790146E-006
1.9954350E+005	1.7531071E+002	4.4448570E+001	1.8085774E+002	-1.4227070E+001	1.029048278208938E+001	-8.4210181E-004	-6.6598173E-004	1.7944228E-002	1.0838424E-003	1.000000000000000E+000	11	9.8722823E-002	5.4585899E-004	-1.195645050274632E-006	2.6450655E-004	5.3596231E-003	1.3588879E-003	5.5292076E-003	1.4227070E+001	-2.930217967623321E-007
1.7783180E+005	1.7802927E+002	4.3300339E+001	1.8321938E+002	-1.3670069E+001	1.088648321040091E+001	-8.5807842E-004	-7.3325651E-004	2.0668998E-002	1.1544077E-003	1.000000000000000E+000	11	1.1320189E-001	6.1784894E-004	-2.237922990093163E-006	-5.3730176E-004	5.3033298E-003	1.2898777E-003	5.4579382E-003	1.3670069E+001	-1.042277939818531E-006
1.5848613E+005	1.8060414E+002	4.2275604E+001	1.8548607E+002	-1.3174524E+001	1.134647147220676E+001	-8.2946126E-004	-7.5313565E-004	2.3754125E-002	1.2339459E-003	1.000000000000000E+000	11	1.2874517E-001	6.9409615E-004	-2.260906973252228E-006	2.6450655E-004	5.2493447E-003	1.2287606E-003	5.3912406E-003	1.3174524E+001	-2.298398315906522E-008
1.4125594E+005	1.8299713E+002	4.1424286E+001	1.8762708E+002	-1.2754844E+001	1.194149686049786E+001	-8.1225415E-004	-7.6280074E-004	2.7199339E-002	1.3257982E-003	1.000000000000000E+000	11	1.2918837E-001	6.8853801E-004	-3.144460559473373E-006	-2.9675924E-004	5.1982030E-003	1.1766952E-003	5.3297211E-003	1.2754844E+001	-8.835535862211449E-007
1.2590930E+005	1.8527429E+002	4.0745037E+001	1.8970166E+002	-1.2402903E+001	1.253849251553766E+001	-7.8596809E-004	-7.0184394E-004	3.1023275E-002	1.4311818E-003	1.000000000000000E+000	11	1.2976736E-001	6.8406021E-004	-3.930473021768395E-006	2.3964079E-005	5.1484075E-003	1.1322242E-003	5.2714352E-003	1.2402903E+001	-7.860124622950223E-007
1.1220494E+005	1.8745015E+002	4.0250500E+001	1.9172287E+002	-1.2118897E+001	1.313347363713547E+001	-7.0681161E-004	-4.7046453E-004	3.5240076E-002	1.5532150E-003	1.000000000000000E+000	11	1.2963369E-001	6.7615142E-004	-4.073620600341302E-006	-3.7694006E-004	5.0996216E-003	1.0950235E-003	5.2158618E-003	1.2118897E+001	-1.431475785729068E-007
1.0000371E+005	1.8956476E+002	3.9949505E+001	1.9372858E+002	-1.1900563E+001	1.372947422540165E+001	-7.3393667E-004	-6.0947827E-004	3.9837550E-002	1.6940570E-003	1.000000000000000E+000	11	1.2971832E-001	6.6958793E-004	-4.249032361599449E-006	2.6450655E-004	5.0509167E-003	1.0644470E-003	5.1618610E-003	1.1900563E+001	-1.754117612581467E-007
8.9129305E+004	1.9162804E+002	3.9835285E+001	1.9572469E+002	-1.1743293E+001	1.432547622706625E+001	-7.3796342E-004	-6.9217966E-004	4.4826172E-002	1.8568479E-003	1.000000000000000E+000	11	1.2958533E-001	6.6207960E-004	-3.276011043021249E-006	-5.3730176E-004	5.0022779E-003	1.0398644E-003	5.1092175E-003	1.1743293E+001	9.730213185782002E-007
7.9433273E+004	1.9363646E+002	3.9929783E+001	1.9771056E+002	-1.1651646E+001	1.492049332198803E+001	-6.9307210E-004	-5.9888611E-004	5.0178852E-002	2.0467034E-003	1.000000000000000E+000	11	1.2954545E-001	6.5522781E-004	-2.936370945147549E-006	-2.9675924E-004	4.9536736E-003	1.0214974E-003	5.0578988E-003	1.1651646E+001	3.396400978736994E-007
7.0794977E+004	1.9562611E+002	4.0243267E+001	1.9972255E+002	-1.1624447E+001	1.551649767029448E+001	-7.0289680E-004	-6.6597678E-004	5.5863023E-002	2.2680713E-003	1.000000000000000E+000	11	1.2940082E-001	6.4790290E-004	-3.077930262896188E-006	1.0414491E-004	4.9042501E-003	1.0088788E-003	5.0069457E-003	1.1624447E+001	-1.415593177486392E-007
6.3093828E+004	1.9761624E+002	4.0766476E+001	2.0177731E+002	-1.1656100E+001	1.611149639190990E+001	-6.9389236E-004	-6.3122466E-004	6.1877120E-002	2.5257580E-003	1.000000000000000E+000	11	1.2937690E-001	6.4118655E-004	-3.510708704807560E-006	-5.6216748E-005	4.8537562E-003	1.0012868E-003	4.9559586E-003	1.1656100E+001	-4.327784419113718E-007
5.6237012E+004	1.9965514E+002	4.1505390E+001	2.0392369E+002	-1.1743690E+001	1.657148948041140E+001	-7.0418260E-004	-6.9050683E-004	6.8185717E-002	2.8246655E-003	1.000000000000000E+000	11	1.4029011E-001	6.8795396E-004	-4.207875947396840E-006	1.8432573E-004	4.8011485E-003	9.9808874E-004	4.9037952E-003	1.1743690E+001	-6.971672425892798E-007
5.0122477E+004	2.0173334E+002	4.2484001E+001	2.0615826E+002	-1.1892418E+001	1.716748742872733E+001	-6.8908255E-004	-6.9701415E-004	7.4741565E-002	3.1740335E-003	1.000000000000000E+000	11	1.3031399E-001	6.3210656E-004	-4.552991631466688E-006	2.3964079E-005	4.7465293E-003	9.9959457E-004	4.8506423E-003	1.1892418E+001	-3.451156840698481E-007
4.4666715E+004	2.0386943E+002	4.3677849E+001	2.0849580E+002	-1.2092484E+001	1.762648150385940E+001	-6.9351902E-004	-7.0370291E-004	8.1578337E-002	3.5801623E-003	1.000000000000000E+000	11	1.3940348E-001	6.6861528E-004	-5.183673128016785E-006	2.6450655E-004	4.6898341E-003	1.0047699E-003	4.7962596E-003	1.2092484E+001	-6.306814965500966E-007
3.9814063E+004	2.0609781E+002	4.5088726E+001	2.1097227E+002	-1.2340369E+001	1.822249153218581E+001	-6.7840039E-004	-7.3362887E-004	8.8657543E-002	4.0494949E-003	1.000000000000000E+000	11	1.3002029E-001	6.1629090E-004	-5.119773167233991E-006	-1.3639758E-004	4.6304436E-003	1.0130181E-003	4.7399593E-003	1.2340369E+001	6.389996078279333E-008
3.5480996E+004	2.0843727E+002	4.6725750E+001	2.1361037E+002	-1.2635208E+001	1.868149054064997E+001	-6.6134206E-004	-6.6114531E-004	9.5999293E-002	4.5934180E-003	1.000000000000000E+000	11	1.3710043E-001	6.4182479E-004	-5.416712271298618E-006	-1.3639758E-004	4.5680483E-003	1.0240275E-003	4.6814205E-003	1.2635208E+001	-2.969391040646270E-007
3.1621143E+004	2.1090927E+002	4.8598179E+001	2.1643591E+002	-1.2975738E+001	1.927649603554164E+001	-6.6343043E-004	-5.8142049E-004	1.0356727E-001	5.2216039E-003	1.000000000000000E+000	11	1.2952209E-001	5.9843156E-004	-6.800755726639181E-006	-1.3639758E-004	4.5023267E-003	1.0374361E-003	4.6203053E-003	1.2975738E+001	-1.384043455340563E-006
2.8188096E+004	2.1349828E+002	5.0674339E+001	2.1942972E+002	-1.3352216E+001	1.973549349737004E+001	-6.6305726E-004	-6.4107706E-004	1.1142081E-001	5.9422594E-003	1.000000000000000E+000	11	1.3466311E-001	6.1369583E-004	-6.719848088399481E-006	-2.9675924E-004	4.4340794E-003	1.0524397E-003	4.5572678E-003	1.3352216E+001	8.090763823969964E-008
2.5116910E+004	2.1627940E+002	5.2971695E+001	2.2267191E+002	-1.3762113E+001	2.019549015918165E+001	-6.7278859E-004	-6.8716757E-004	1.1962172E-001	6.7696613E-003	1.000000000000000E+000	11	1.3914222E-001	6.2487548E-004	-6.547971335954370E-006	2.6450655E-004	4.3619862E-003	1.0683486E-003	4.4909124E-003	1.3762113E+001	1.718767524451119E-007
2.2389027E+004	2.1921861E+002	5.5497498E+001	2.2613441E+002	-1.4206549E+001	2.079148936082493E+001	-6.6842663E-004	-6.7861908E-004	1.2808891E-001	7.7148057E-003	1.000000000000000E+000	11	1.2945560E-001	5.7247188E-004	-6.025531163319506E-006	-2.9675924E-004	4.2869076E-003	1.0852757E-003	4.4221487E-003	1.4206549E+001	5.224401726348638E-007
1.9948783E+004	2.2237819E+002	5.8233009E+001	2.2987636E+002	-1.4674248E+001	2.125148610267206E+001	-6.6255411E-004	-7.0445205E-004	1.3700439E-001	8.7919328E-003	1.000000000000000E+000	11	1.3231322E-001	5.7558430E-004	-6.563708191874967E-006	-2.9675924E-004	4.2082695E-003	1.1019974E-003	4.3501644E-003	1.4674248E+001	-5.381770285554616E-007
1.7786895E+004	2.2572839E+002	6.1179985E+001	2.3387239E+002	-1.5164760E+001	2.171148425785941E+001	-6.6350476E-004	-7.1337208E-004	1.4625497E-001	1.0008557E-002	1.000000000000000E+000	11	1.3463488E-001	5.7567668E-004	-6.398126840145172E-006	-6.9766340E-004	4.1269409E-003	1.1185398E-003	4.2758361E-003	1.5164760E+001	1.655813517297955E-007
1.5847686E+004	2.2931566E+002	6.4320786E+001	2.3816556E+002	-1.5668286E+001	2.217148633304168E+001	-6.6339271E-004	-6.9014158E-004	1.5613596E-001	1.1388007E-002	1.000000000000000E+000	11	1.3650273E-001	5.7314220E-004	-6.596121482932682E-006	-1.3639758E-004	4.0427395E-003	1.1339488E-003	4.1987598E-003	1.5668286E+001	-1.979946427875097E-007
1.4121879E+004	2.3310762E+002	6.7663322E+001	2.4272925E+002	-1.6186241E+001	2.263147936822497E+001	-6.7368336E-004	-7.0389372E-004	1.6656139E-001	1.2943054E-002	1.000000000000000E+000	11	1.3795951E-001	5.6836789E-004	-6.422939173699383E-006	-1.3639758E-004	3.9565098E-003	1.1484422E-003	4.1198167E-003	1.6186241E+001	1.731823092332987E-007
1.2590932E+004	2.3717148E+002	7.1186600E+001	2.4762439E+002	-1.6707035E+001	2.309047616340104E+001	-6.6395197E-004	-6.7397224E-004	1.7756772E-001	1.4674851E-002	1.000000000000000E+000	11	1.3908271E-001	5.6166807E-004	-6.646921158401205E-006	-2.1657841E-004	3.8679033E-003	1.1609443E-003	4.0383744E-003	1.6707035E+001	-2.239819847018225E-007
1.1217711E+004	2.4147432E+002	7.4926071E+001	2.5283150E+002	-1.7238379E+001	2.354949567854055E+001	-6.5828458E-004	-6.3364388E-004	1.8935770E-001	1.6629780E-002	1.000000000000000E+000	11	1.3993597E-001	5.5347523E-004	-6.637138867280252E-006	2.3964079E-005	3.7775361E-003	1.1721161E-003	3.9552036E-003	1.7238379E+001	9.782291120953471E-009
1.0002229E+004	2.4602637E+002	7.8854637E+001	2.5835446E+002	-1.7771328E+001	2.400848810034222E+001	-6.6421292E-004	-6.7025569E-004	2.0178835E-001	1.8798301E-002	1.000000000000000E+000	11	1.4056872E-001	5.4409250E-004	-6.286018107967619E-006	-5.3730176E-004	3.6859524E-003	1.1813955E-003	3.8706511E-003	1.7771328E+001	3.511207593126326E-007
8.9149297E+003	2.5080182E+002	8.2975410E+001	2.6417130E+002	-1.8306309E+001	2.463290138333105E+001	-6.3235324E-004	-6.3197198E-004	2.1515568E-001	2.1226596E-002	1.000000000000000E+000	11	1.2928854E-001	4.8941176E-004	-5.763963333804794E-006	2.6450655E-004	3.5938458E-003	1.1889898E-003	3.7854225E-003	1.8306309E+001	5.220547741628252E-007
7.9439976E+003	2.5587164E+002	8.7309998E+001	2.7035779E+002	-1.8840963E+001	2.515898948832182E+001	-6.3354638E-004	-6.8252196E-004	2.2946532E-001	2.3931352E-002	1.000000000000000E+000	11	1.2958238E-001	4.7929960E-004	-6.249021069767574E-006	-3.7694006E-004	3.5006155E-003	1.1945001E-003	3.6988023E-003	1.8840963E+001	-4.850577359627803E-007
7.0822334E+003	2.6114322E+002	9.1845573E+001	2.7682376E+002	-1.9377066E+001	2.573588706238661E+001	-6.1756966E-004	-6.4795424E-004	2.4467617E-001	2.6934033E-002	1.000000000000000E+000	11	1.2978610E-001	4.6884021E-004	-6.249602415754149E-006	2.3964079E-005	3.4077838E-003	1.1985371E-003	3.6124066E-003	1.9377066E+001	-5.813459865748800E-010
6.3077344E+003	2.6669440E+002	9.6650185E+001	2.8366733E+002	-1.9920542E+001	2.637055234584841E+001	-6.2237942E-004	-7.9867704E-004	2.6106223E-001	3.0306151E-002	1.000000000000000E+000	11	1.2992144E-001	4.5800637E-004	-6.306666346823881E-006	2.3964079E-005	3.3143261E-003	1.2011135E-003	3.5252562E-003	1.9920542E+001	-5.706393106973154E-008
5.6210552E+003	2.7248065E+002	1.0165727E+002	2.9082626E+002	-2.0459574E+001	2.707129208577680E+001	-6.1458681E-004	-8.0666854E-004	2.7852476E-001	3.4030903E-002	1.000000000000000E+000	11	1.3000172E-001	4.4700818E-004	-6.634260376016351E-006	2.3964079E-005	3.2215766E-003	1.2019080E-003	3.4384790E-003	2.0459574E+001	-3.275940291924699E-007
5.0116035E+003	2.7848740E+002	1.0693907E+002	2.9831393E+002	-2.1006773E+001	2.783169956196070E+001	-6.1374798E-004	-8.5889158E-004	2.9696620E-001	3.8162142E-002	1.000000000000000E+000	11	1.3003600E-001	4.3590320E-004	-7.150809742496171E-006	1.8432573E-004	3.1293815E-003	1.2016814E-003	3.3521734E-003	2.1006773E+001	-5.165493664798202E-007
4.4664292E+003	2.8469467E+002	1.1252654E+002	3.0612625E+002	-2.1566578E+001	2.859168157138629E+001	-6.1152939E-004	-8.2116493E-004	3.1666839E-001	4.2787164E-002	1.000000000000000E+000	11	1.3004802E-001	4.2481825E-004	-7.696317759106427E-006	-5.6216748E-005	3.0379330E-003	1.2007534E-003	3.2666260E-003	2.1566578E+001	-5.455080166102563E-007
3.9812742E+003	2.9120160E+002	1.1843182E+002	3.1436359E+002	-2.2131598E+001	2.935170064748672E+001	-6.1859499E-004	-8.2432409E-004	3.3754343E-001	4.7907330E-002	1.000000000000000E+000	11	1.3003641E-001	4.1364972E-004	-7.969908335960807E-006	-2.9675924E-004	2.9466550E-003	1.1984059E-003	3.1810300E-003	2.2131598E+001	-2.735905768543800E-007
3.5465955E+003	2.9797238E+002	1.2477410E+002	3.2304196E+002	-2.2721199E+001	3.011194316358888E+001	-6.1029894E-004	-8.1317406E-004	3.5965329E-001	5.3655602E-002	1.000000000000000E+000	11	1.3001445E-001	4.0246922E-004	-8.369042674422316E-006	-2.1657841E-004	2.8553419E-003	1.1956568E-003	3.0955730E-003	2.2721199E+001	-3.991343384615084E-007
3.1610112E+003	3.0494437E+002	1.3145300E+002	3.3207071E+002	-2.3319527E+001	3.087170199968386E+001	-6.1292772E-004	-8.1298803E-004	3.8302186E-001	6.0021035E-002	1.000000000000000E+000	11	1.2998417E-001	3.9143523E-004	-8.725151358295181E-006	2.3964079E-005	2.7654096E-003	1.1920910E-003	3.0114069E-003	2.3319527E+001	-3.561086838728650E-007
2.8172952E+003	3.1218860E+002	1.3860809E+002	3.4157565E+002	-2.3940664E+001	3.163193467576639E+001	-6.0701795E-004	-7.8492577E-004	4.0756717E-001	6.7112364E-002	1.000000000000000E+000	11	1.2994394E-001	3.8042504E-004	-8.712063728023269E-006	2.6450655E-004	2.6757356E-003	1.1879955E-003	2.9276090E-003	2.3940664E+001	1.308763027191129E-008
